EC-Lab ASCII FILE
Nb header lines : 63                          

Potentio Electrochemical Impedance Spectroscopy

Run on channel : 2 (SN 66414)
User : 
CE vs. WE compliance from -10 V to 10 V
Electrode connection : standard
Potential control : Ewe
Ewe ctrl range : min = -1.00 V, max = 1.00 V
Safety Limits :
	Do not start on E overload
Acquisition started on : 01/26/2024 15:49:20.433
Loaded Setting File :  C:\Users\NakamuraT\Documents\EC-Lab\Data\Yatsuzuka\20240126_2-102_Add_Na\20240125_2-102_001_preconditioning_elctrode1.mps
Saved on :
	File : 20240125_2-102_002_preconditioning_elctrode2_02_PEIS_C02.mpr
	Directory : C:\Users\NakamuraT\Documents\EC-Lab\Data\Yatsuzuka\20240126_2-102_Add_Na\
	Host : 192.109.209.100
Device : SP-150e (SN .003411)
Address : 192.109.209.236
EC-Lab for windows v11.50 (software)
Internet server v11.50 (firmware)
Command interpretor v11.50 (firmware)
Electrode material : 
Initial state : 
Electrolyte : 
Comments : 
Electrode surface area : 0.001 cm2
Characteristic mass : 0.001 g
Equivalent Weight : 0.000 g/eq.
Density : 0.000 g/cm3
Volume (V) : 0.001 cm3
Cycle Definition : Charge/Discharge alternance
Mode                Single sine         
E (V)               0.4000              
vs.                 Eoc                 
tE (h:m:s)          0:00:0.0000         
record              0                   
dI                  0.000               
unit dI             mA                  
dt (s)              0.000               
fi                  500.000             
unit fi             kHz                 
ff                  1.000               
unit ff             Hz                  
Nd                  6                   
Points              per decade          
spacing             Logarithmic         
Va (mV)             10.0                
pw                  0.10                
Na                  2                   
corr                0                   
E range min (V)     -1.000              
E range max (V)     1.000               
I Range             Auto                
Bandwidth           5                   
nc cycles           0                   
goto Ns'            0                   
nr cycles           0                   
inc. cycle          0                   

freq/Hz	Re(Z)/Ohm	-Im(Z)/Ohm	|Z|/Ohm	Phase(Z)/deg	time/s	<Ewe>/V	<I>/mA	Cs/uF	Cp/uF	cycle number	I Range	|Ewe|/V	|I|/A	Ns	(Q-Qo)/mA.h	Re(Y)/Ohm-1	Im(Y)/Ohm-1	|Y|/Ohm-1	Phase(Y)/deg	Re(C)/nF	Im(C)/nF	|C|/nF	Phase(C)/deg	Re(M)	Im(M)	|M|	Phase(M)/deg	Re(Permittivity)	Im(Permittivity)	|Permittivity|	Phase(Permittivity)/deg	Re(Resistivity)/Ohm.cm	Im(Resistivity)/Ohm.cm	|Resistivity|/Ohm.cm	Phase(Resistivity)/deg	Re(Conductivity)/mS/cm	Im(Conductivity)/mS/cm	|Conductivity|/mS/cm	Phase(Conductivity)/deg	Tan(Delta)	Loss Angle(Delta)/deg	dq/mA.h	
5.0001856E+005	3.2270847E+001	6.2278728E+000	3.2866306E+001	-1.0923088E+001	2.115458810104319E+002	3.4322986E-001	-1.5344751E-002	5.1108632E-002	1.8351516E-003	1.000000000000000E+000	10	1.0262685E-002	3.1225549E-004	0	-2.049627984411200E-005	2.9875048E-002	5.7655131E-003	3.0426297E-002	1.0923088E+001	1.8351517E+000	9.5091696E+000	9.6846313E+000	-7.9076912E+001	0.0000000E+000	0.0000000E+000	0.0000000E+000	7.9076912E+001	0.0000000E+000	0.0000000E+000	0.0000000E+000	-7.9076912E+001	0.0000000E+000	0.0000000E+000	0.0000000E+000	-1.0923088E+001	0.0000000E+000	0.0000000E+000	0.0000000E+000	1.0923088E+001	5.1816807E+000	7.9076912E+001	-2.049627984411200E-005
3.3989941E+005	2.0367529E+001	-3.6171668E+000	2.0686230E+001	1.0070435E+001	2.119678782304545E+002	3.4316799E-001	-9.8398514E-003	-1.2944974E-001	-3.9579980E-003	1.000000000000000E+000	10	1.0615686E-002	5.1317643E-004	0	-2.207154120440504E-005	4.7596570E-002	-8.4529025E-003	4.8341338E-002	-1.0070435E+001	-3.9579980E+000	2.2286678E+001	2.2635410E+001	-1.0007043E+002	0.0000000E+000	0.0000000E+000	0.0000000E+000	1.0007043E+002	0.0000000E+000	0.0000000E+000	0.0000000E+000	-1.0007043E+002	0.0000000E+000	0.0000000E+000	0.0000000E+000	1.0070435E+001	0.0000000E+000	0.0000000E+000	0.0000000E+000	-1.0070435E+001	5.6307964E+000	7.9929565E+001	-1.575261360293048E-006
2.3106258E+005	1.3873200E+001	-2.9253592E+000	1.4178272E+001	1.1907187E+001	2.123898921438522E+002	3.4314623E-001	-9.6811792E-003	-2.3545685E-001	-1.0023586E-002	1.000000000000000E+000	10	1.0544899E-002	7.4373651E-004	0	-2.178262552961112E-005	6.9012858E-002	-1.4552331E-002	7.0530452E-002	-1.1907187E+001	-1.0023586E+001	4.7535767E+001	4.8581081E+001	-1.0190719E+002	0.0000000E+000	0.0000000E+000	0.0000000E+000	1.0190719E+002	0.0000000E+000	0.0000000E+000	0.0000000E+000	-1.0190719E+002	0.0000000E+000	0.0000000E+000	0.0000000E+000	1.1907187E+001	0.0000000E+000	0.0000000E+000	0.0000000E+000	-1.1907187E+001	4.7423921E+000	7.8092812E+001	2.889156747939246E-007
1.5707578E+005	1.1959452E+001	-1.3972231E+000	1.2040793E+001	6.6636596E+000	2.128118801905803E+002	3.4315279E-001	-4.3685460E-003	-7.2517884E-001	-9.7648697E-003	1.000000000000000E+000	10	1.0857644E-002	9.0173830E-004	0	-2.495369405433303E-005	8.2489945E-002	-9.6373037E-003	8.3051004E-002	-6.6636596E+000	-9.7648678E+000	8.3581848E+001	8.4150330E+001	-9.6663658E+001	0.0000000E+000	0.0000000E+000	0.0000000E+000	9.6663658E+001	0.0000000E+000	0.0000000E+000	0.0000000E+000	-9.6663658E+001	0.0000000E+000	0.0000000E+000	0.0000000E+000	6.6636596E+000	0.0000000E+000	0.0000000E+000	0.0000000E+000	-6.6636596E+000	8.5594435E+000	8.3336342E+001	-3.171068524721908E-006
1.0678630E+005	1.1542048E+001	-6.2882453E-001	1.1559165E+001	3.1184595E+000	2.132338666639553E+002	3.4316620E-001	-6.8101878E-003	-2.3701463E+000	-7.0142490E-003	1.000000000000000E+000	10	1.0803804E-002	9.3465263E-004	0	-2.343638800398266E-005	8.6383335E-002	-4.7062673E-003	8.6511441E-002	-3.1184595E+000	-7.0142541E+000	1.2874625E+002	1.2893718E+002	-9.3118462E+001	0.0000000E+000	0.0000000E+000	0.0000000E+000	9.3118462E+001	0.0000000E+000	0.0000000E+000	0.0000000E+000	-9.3118462E+001	0.0000000E+000	0.0000000E+000	0.0000000E+000	3.1184595E+000	0.0000000E+000	0.0000000E+000	0.0000000E+000	-3.1184595E+000	1.8354959E+001	8.6881538E+001	1.517306050350372E-006
7.2595008E+004	1.1468118E+001	-3.0367139E-001	1.1472137E+001	1.5168160E+000	2.136568887640169E+002	3.4317708E-001	-3.1383922E-003	-7.2195396E+000	-5.0585796E-003	1.000000000000000E+000	10	1.0616759E-002	9.2543860E-004	0	-2.427575527557120E-005	8.7137178E-002	-2.3073594E-003	8.7167718E-002	-1.5168160E+000	-5.0585766E+000	1.9103671E+002	1.9110367E+002	-9.1516815E+001	0.0000000E+000	0.0000000E+000	0.0000000E+000	9.1516815E+001	0.0000000E+000	0.0000000E+000	0.0000000E+000	-9.1516815E+001	0.0000000E+000	0.0000000E+000	0.0000000E+000	1.5168160E+000	0.0000000E+000	0.0000000E+000	0.0000000E+000	-1.5168160E+000	3.7764893E+001	8.8483185E+001	-8.393672715885451E-007
4.9352359E+004	1.1454506E+001	-1.5817845E-001	1.1455598E+001	7.9116303E-001	2.140788871840487E+002	3.4318224E-001	-6.3864472E-003	-2.0387543E+001	-3.8870845E-003	1.000000000000000E+000	10	1.0505308E-002	9.1704587E-004	0	-2.514787194723936E-005	8.7285243E-002	-1.2053461E-003	8.7293565E-002	-7.9116303E-001	-3.8870728E+000	2.8148358E+002	2.8151041E+002	-9.0791161E+001	0.0000000E+000	0.0000000E+000	0.0000000E+000	9.0791161E+001	0.0000000E+000	0.0000000E+000	0.0000000E+000	-9.0791161E+001	0.0000000E+000	0.0000000E+000	0.0000000E+000	7.9116303E-001	0.0000000E+000	0.0000000E+000	0.0000000E+000	-7.9116303E-001	7.2415085E+001	8.9208839E+001	-8.721166716681604E-007
3.3551066E+004	1.1460035E+001	-1.0050491E-001	1.1460476E+001	5.0247312E-001	2.145008766707761E+002	3.4317741E-001	-2.9573224E-003	-4.7198318E+001	-3.6299096E-003	1.000000000000000E+000	10	1.0452757E-002	9.1207004E-004	0	-2.668189591730738E-005	8.7253056E-002	-7.6521235E-004	8.7256409E-002	-5.0247312E-001	-3.6299007E+000	4.1389905E+002	4.1391498E+002	-9.0502472E+001	0.0000000E+000	0.0000000E+000	0.0000000E+000	9.0502472E+001	0.0000000E+000	0.0000000E+000	0.0000000E+000	-9.0502472E+001	0.0000000E+000	0.0000000E+000	0.0000000E+000	5.0247312E-001	0.0000000E+000	0.0000000E+000	0.0000000E+000	-5.0247312E-001	1.1402463E+002	8.9497528E+001	-1.534023970068015E-006
2.2806563E+004	1.1458963E+001	-5.2795827E-002	1.1459085E+001	2.6398170E-001	2.149228714908386E+002	3.4317291E-001	-5.6323004E-003	-1.3217847E+002	-2.8058211E-003	1.000000000000000E+000	10	1.0300548E-002	8.9889788E-004	0	-2.679783194898240E-005	8.7266073E-002	-4.0206817E-004	8.7266997E-002	-2.6398170E-001	-2.8058529E+000	6.0898376E+002	6.0899023E+002	-9.0263985E+001	0.0000000E+000	0.0000000E+000	0.0000000E+000	9.0263985E+001	0.0000000E+000	0.0000000E+000	0.0000000E+000	-9.0263985E+001	0.0000000E+000	0.0000000E+000	0.0000000E+000	2.6398170E-001	0.0000000E+000	0.0000000E+000	0.0000000E+000	-2.6398170E-001	2.1704297E+002	8.9736015E+001	-1.159360316750192E-007
1.5504379E+004	1.1451035E+001	-3.4987528E-002	1.1451088E+001	1.7506117E-001	2.153448726041970E+002	3.4318182E-001	-2.8341205E-003	-2.9339487E+002	-2.7389589E-003	1.000000000000000E+000	10	1.0245943E-002	8.9475722E-004	0	-2.782535247087556E-005	8.7327540E-002	-2.6682086E-004	8.7327950E-002	-1.7506117E-001	-2.7390044E+000	8.9643115E+002	8.9643536E+002	-9.0175064E+001	0.0000000E+000	0.0000000E+000	0.0000000E+000	9.0175064E+001	0.0000000E+000	0.0000000E+000	0.0000000E+000	-9.0175064E+001	0.0000000E+000	0.0000000E+000	0.0000000E+000	1.7506117E-001	0.0000000E+000	0.0000000E+000	0.0000000E+000	-1.7506117E-001	3.2728903E+002	8.9824936E+001	-1.027520521893165E-006
1.0540381E+004	1.1463164E+001	-1.0526273E-002	1.1463169E+001	5.2612945E-002	2.157668813442724E+002	3.4317851E-001	-4.4898824E-003	-1.4344625E+003	-1.2095646E-003	1.000000000000000E+000	10	1.0149562E-002	8.8540628E-004	0	-2.827502153026742E-005	8.7235875E-002	-8.0106031E-005	8.7235913E-002	-5.2612945E-002	-1.2095499E+000	1.3172219E+003	1.3172225E+003	-9.0052612E+001	0.0000000E+000	0.0000000E+000	0.0000000E+000	9.0052612E+001	0.0000000E+000	0.0000000E+000	0.0000000E+000	-9.0052612E+001	0.0000000E+000	0.0000000E+000	0.0000000E+000	5.2612945E-002	0.0000000E+000	0.0000000E+000	0.0000000E+000	-5.2612945E-002	1.0890050E+003	8.9947388E+001	-4.496690593918584E-007
7.1637817E+003	1.1464828E+001	-8.8400785E-003	1.1464831E+001	4.4178516E-002	2.161234846412117E+002	3.4315890E-001	-6.1381757E-003	-2.5131689E+003	-1.4941650E-003	1.000000000000000E+000	10	1.0853029E-002	9.4663660E-004	0	-2.959298084134611E-005	8.7223239E-002	-6.7254412E-005	8.7223262E-002	-4.4178516E-002	-1.4942768E+000	1.9378044E+003	1.9378051E+003	-9.0044182E+001	0.0000000E+000	0.0000000E+000	0.0000000E+000	9.0044182E+001	0.0000000E+000	0.0000000E+000	0.0000000E+000	-9.0044182E+001	0.0000000E+000	0.0000000E+000	0.0000000E+000	4.4178516E-002	0.0000000E+000	0.0000000E+000	0.0000000E+000	-4.4178516E-002	1.2969147E+003	8.9955818E+001	-1.317959311078692E-006
4.8715591E+003	1.1472766E+001	1.4548486E-003	1.1472766E+001	-7.2656139E-003	2.168130800873259E+002	3.4319663E-001	-2.5373162E-003	2.2456102E+004	3.6110517E-004	1.000000000000000E+000	10	1.0176394E-002	8.8700443E-004	0	-2.915752431527592E-005	8.7162942E-002	1.1053035E-005	8.7162942E-002	7.2656139E-003	3.6098439E-001	2.8476331E+003	2.8476331E+003	-8.9992737E+001	0.0000000E+000	0.0000000E+000	0.0000000E+000	8.9992737E+001	0.0000000E+000	0.0000000E+000	0.0000000E+000	-8.9992737E+001	0.0000000E+000	0.0000000E+000	0.0000000E+000	-7.2656139E-003	0.0000000E+000	0.0000000E+000	0.0000000E+000	7.2656139E-003	7.8858833E+003	8.9992737E+001	4.354565260701872E-007
3.3110596E+003	1.1476147E+001	7.9416076E-004	1.1476147E+001	-3.9649247E-003	2.172790987227927E+002	3.4319407E-001	-2.4477143E-003	6.0526383E+004	2.8984740E-004	1.000000000000000E+000	10	1.0354785E-002	9.0228760E-004	0	-2.916264960431161E-005	8.7137260E-002	6.0299849E-006	8.7137260E-002	3.9649247E-003	2.9001993E-001	4.1884858E+003	4.1884858E+003	-8.9996033E+001	0.0000000E+000	0.0000000E+000	0.0000000E+000	8.9996033E+001	0.0000000E+000	0.0000000E+000	0.0000000E+000	-8.9996033E+001	0.0000000E+000	0.0000000E+000	0.0000000E+000	-3.9649247E-003	0.0000000E+000	0.0000000E+000	0.0000000E+000	3.9649247E-003	1.4450659E+004	8.9996033E+001	-5.125289035684549E-009
2.2507205E+003	1.1462821E+001	5.8908733E-003	1.1462823E+001	-2.9444946E-002	2.177440929848817E+002	3.4320083E-001	-2.8210536E-003	1.2003805E+004	3.1702616E-003	1.000000000000000E+000	10	1.0427155E-002	9.0964977E-004	0	-3.026337335540140E-005	8.7238528E-002	4.4832868E-005	8.7238543E-002	2.9444946E-002	3.1699264E+000	6.1688882E+003	6.1688892E+003	-8.9970558E+001	0.0000000E+000	0.0000000E+000	0.0000000E+000	8.9970558E+001	0.0000000E+000	0.0000000E+000	0.0000000E+000	-8.9970558E+001	0.0000000E+000	0.0000000E+000	0.0000000E+000	-2.9444946E-002	0.0000000E+000	0.0000000E+000	0.0000000E+000	2.9444946E-002	1.9458611E+003	8.9970558E+001	-1.100723751089794E-006
1.5304901E+003	1.1454539E+001	1.8178921E-002	1.1454554E+001	-9.0931162E-002	2.182090905269652E+002	3.4319454E-001	-2.0202403E-003	5.7203359E+003	1.4407923E-002	1.000000000000000E+000	10	1.0463819E-002	9.1350736E-004	0	-3.135737582587899E-005	8.7301411E-002	1.3855167E-004	8.7301522E-002	9.0931162E-002	1.4408491E+001	9.0784326E+003	9.0784443E+003	-8.9909065E+001	0.0000000E+000	0.0000000E+000	0.0000000E+000	8.9909065E+001	0.0000000E+000	0.0000000E+000	0.0000000E+000	-8.9909065E+001	0.0000000E+000	0.0000000E+000	0.0000000E+000	-9.0931162E-002	0.0000000E+000	0.0000000E+000	0.0000000E+000	9.0931162E-002	6.3010004E+002	8.9909065E+001	-1.094002470477585E-006
1.0403328E+003	1.1453514E+001	3.5387736E-002	1.1453568E+001	-1.7702527E-001	2.186740696690540E+002	3.4319544E-001	-2.2610449E-003	4.3230981E+003	4.1268531E-002	1.000000000000000E+000	10	1.0482002E-002	9.1517344E-004	0	-3.098462741636467E-005	8.7308615E-002	2.6975601E-004	8.7309033E-002	1.7702527E-001	4.1268429E+001	1.3356879E+004	1.3356942E+004	-8.9822975E+001	0.0000000E+000	0.0000000E+000	0.0000000E+000	8.9822975E+001	0.0000000E+000	0.0000000E+000	0.0000000E+000	-8.9822975E+001	0.0000000E+000	0.0000000E+000	0.0000000E+000	-1.7702527E-001	0.0000000E+000	0.0000000E+000	0.0000000E+000	1.7702527E-001	3.2365771E+002	8.9822975E+001	3.727484095143163E-007
7.0703625E+002	1.1469325E+001	3.9618280E-002	1.1469394E+001	-1.9791497E-001	2.191385691577598E+002	3.4318903E-001	-2.0930404E-003	5.6817588E+003	6.7794293E-002	1.000000000000000E+000	10	1.0502083E-002	9.1566157E-004	0	-3.190557651265165E-005	8.7188043E-002	3.0117205E-004	8.7188564E-002	1.9791497E-001	6.7794006E+001	1.9626164E+004	1.9626281E+004	-8.9802086E+001	0.0000000E+000	0.0000000E+000	0.0000000E+000	8.9802086E+001	0.0000000E+000	0.0000000E+000	0.0000000E+000	-8.9802086E+001	0.0000000E+000	0.0000000E+000	0.0000000E+000	-1.9791497E-001	0.0000000E+000	0.0000000E+000	0.0000000E+000	1.9791497E-001	2.8949579E+002	8.9802086E+001	-9.209490962869792E-007
4.8076920E+002	1.1454051E+001	2.8870355E-002	1.1454087E+001	-1.4441581E-001	2.196038172064727E+002	3.4319603E-001	-2.5205154E-003	1.1466513E+004	7.2847500E-002	1.000000000000000E+000	10	1.0482988E-002	9.1521814E-004	0	-3.274954229178790E-005	8.7304801E-002	2.2005495E-004	8.7305076E-002	1.4441581E-001	7.2848007E+001	2.8901584E+004	2.8901676E+004	-8.9855583E+001	0.0000000E+000	0.0000000E+000	0.0000000E+000	8.9855583E+001	0.0000000E+000	0.0000000E+000	0.0000000E+000	-8.9855583E+001	0.0000000E+000	0.0000000E+000	0.0000000E+000	-1.4441581E-001	0.0000000E+000	0.0000000E+000	0.0000000E+000	1.4441581E-001	3.9674091E+002	8.9855583E+001	-8.439657791362482E-007
3.2677771E+002	1.1489691E+001	8.0105543E-002	1.1489970E+001	-3.9945677E-001	2.200670368818865E+002	3.4319231E-001	-2.9031879E-003	6.0800220E+003	2.9552382E-001	1.000000000000000E+000	10	1.0519955E-002	9.1557723E-004	0	-3.349796294201143E-005	8.7030314E-002	6.0677092E-004	8.7032430E-002	3.9945677E-001	2.9552603E+002	4.2387539E+004	4.2388570E+004	-8.9600540E+001	0.0000000E+000	0.0000000E+000	0.0000000E+000	8.9600540E+001	0.0000000E+000	0.0000000E+000	0.0000000E+000	-8.9600540E+001	0.0000000E+000	0.0000000E+000	0.0000000E+000	-3.9945677E-001	0.0000000E+000	0.0000000E+000	0.0000000E+000	3.9945677E-001	1.4343190E+002	8.9600540E+001	-7.484206502235299E-007
2.2206076E+002	1.1488667E+001	9.6409403E-002	1.1489071E+001	-4.8079750E-001	2.205283043704549E+002	3.4319282E-001	-2.5690484E-003	7.4341089E+003	5.2347732E-001	1.000000000000000E+000	10	1.0512151E-002	9.1496960E-004	0	-3.336642614439754E-005	8.7036178E-002	7.3038117E-004	8.7039240E-002	4.8079750E-001	5.2347656E+002	6.2380395E+004	6.2382590E+004	-8.9519203E+001	0.0000000E+000	0.0000000E+000	0.0000000E+000	8.9519203E+001	0.0000000E+000	0.0000000E+000	0.0000000E+000	-8.9519203E+001	0.0000000E+000	0.0000000E+000	0.0000000E+000	-4.8079750E-001	0.0000000E+000	0.0000000E+000	0.0000000E+000	4.8079750E-001	1.1916541E+002	8.9519203E+001	1.315367976138896E-007
1.5101485E+002	1.1505663E+001	1.3574798E-001	1.1506464E+001	-6.7596501E-001	2.209898050056800E+002	3.4318873E-001	-2.0706404E-003	7.7636704E+003	1.0805631E+000	1.000000000000000E+000	10	1.0513625E-002	9.1371470E-004	0	-3.376240092101458E-005	8.6901620E-002	1.0252969E-003	8.6907670E-002	6.7596501E-001	1.0805620E+003	9.1585852E+004	9.1592227E+004	-8.9324036E+001	0.0000000E+000	0.0000000E+000	0.0000000E+000	8.9324036E+001	0.0000000E+000	0.0000000E+000	0.0000000E+000	-8.9324036E+001	0.0000000E+000	0.0000000E+000	0.0000000E+000	-6.7596501E-001	0.0000000E+000	0.0000000E+000	0.0000000E+000	6.7596501E-001	8.4757523E+001	8.9324036E+001	-3.959747766170416E-007
1.0266736E+002	1.1515508E+001	1.8399543E-001	1.1516977E+001	-9.1539735E-001	2.214646749482054E+002	3.4319323E-001	-9.2448777E-004	8.4252090E+003	2.1503925E+000	1.000000000000000E+000	10	1.0510338E-002	9.1259513E-004	0	-3.341561098220942E-005	8.6817257E-002	1.3871711E-003	8.6828336E-002	9.1539735E-001	2.1503931E+003	1.3458411E+005	1.3460128E+005	-8.9084602E+001	0.0000000E+000	0.0000000E+000	0.0000000E+000	8.9084602E+001	0.0000000E+000	0.0000000E+000	0.0000000E+000	-8.9084602E+001	0.0000000E+000	0.0000000E+000	0.0000000E+000	-9.1539735E-001	0.0000000E+000	0.0000000E+000	0.0000000E+000	9.1539735E-001	6.2585838E+001	8.9084602E+001	3.467899388051568E-007
6.9754463E+001	1.1541173E+001	2.4494629E-001	1.1543772E+001	-1.2158453E+000	2.219328717437602E+002	3.4319606E-001	-2.4645138E-003	9.3148799E+003	4.1939526E+000	1.000000000000000E+000	10	1.0516381E-002	9.1100042E-004	0	-3.319595078875055E-005	8.6607292E-002	1.8381263E-003	8.6626798E-002	1.2158453E+000	4.1939453E+003	1.9760714E+005	1.9765164E+005	-8.8784157E+001	0.0000000E+000	0.0000000E+000	0.0000000E+000	8.8784157E+001	0.0000000E+000	0.0000000E+000	0.0000000E+000	-8.8784157E+001	0.0000000E+000	0.0000000E+000	0.0000000E+000	-1.2158453E+000	0.0000000E+000	0.0000000E+000	0.0000000E+000	1.2158453E+000	4.7117157E+001	8.8784157E+001	2.196601934588739E-007
4.7444328E+001	1.1581182E+001	3.3077717E-001	1.1585905E+001	-1.6360147E+000	2.223768527248903E+002	3.4318757E-001	-3.3511952E-003	1.0141456E+004	8.2663050E+000	1.000000000000000E+000	10	1.0517308E-002	9.0776745E-004	0	-3.276062187099160E-005	8.6276591E-002	2.4641980E-003	8.6311772E-002	1.6360147E+000	8.2663154E+003	2.8942016E+005	2.8953819E+005	-8.8363983E+001	0.0000000E+000	0.0000000E+000	0.0000000E+000	8.8363983E+001	0.0000000E+000	0.0000000E+000	0.0000000E+000	-8.8363983E+001	0.0000000E+000	0.0000000E+000	0.0000000E+000	-1.6360147E+000	0.0000000E+000	0.0000000E+000	0.0000000E+000	1.6360147E+000	3.5012035E+001	8.8363983E+001	4.353289177589539E-007
3.2238655E+001	1.1596400E+001	4.3913233E-001	1.1604712E+001	-2.1686397E+000	2.228142739456816E+002	3.4317631E-001	-5.2066944E-003	1.1242109E+004	1.6097925E+001	1.000000000000000E+000	10	1.0510837E-002	9.0573874E-004	0	-3.393028967508468E-005	8.6110175E-002	3.2608190E-003	8.6171895E-002	2.1686397E+000	1.6097929E+004	4.2510644E+005	4.2541113E+005	-8.7831360E+001	0.0000000E+000	0.0000000E+000	0.0000000E+000	8.7831360E+001	0.0000000E+000	0.0000000E+000	0.0000000E+000	-8.7831360E+001	0.0000000E+000	0.0000000E+000	0.0000000E+000	-2.1686397E+000	0.0000000E+000	0.0000000E+000	0.0000000E+000	2.1686397E+000	2.6407530E+001	8.7831360E+001	-1.169667804093079E-006
