EC-Lab ASCII FILE
Nb header lines : 63                          

Potentio Electrochemical Impedance Spectroscopy

Run on channel : 1 (SN 66412)
User : 
CE vs. WE compliance from -10 V to 10 V
Electrode connection : standard
Potential control : Ewe
Ewe ctrl range : min = -1.00 V, max = 1.00 V
Safety Limits :
	Do not start on E overload
Acquisition started on : 01/26/2024 17:08:35.119
Loaded Setting File :  C:\Users\NakamuraT\Documents\EC-Lab\Data\Yatsuzuka\20240126_2-102_Add_Na\20240125_2-102_001_preconditioning_elctrode1.mps
Saved on :
	File : 20240125_2-102_007_preconditioning_elctrode3_02_PEIS_C01.mpr
	Directory : C:\Users\NakamuraT\Documents\EC-Lab\Data\Yatsuzuka\20240126_2-102_Add_Na\
	Host : 192.109.209.100
Device : SP-150e (SN .003411)
Address : 192.109.209.236
EC-Lab for windows v11.50 (software)
Internet server v11.50 (firmware)
Command interpretor v11.50 (firmware)
Electrode material : 
Initial state : 
Electrolyte : 
Comments : 
Electrode surface area : 0.001 cm2
Characteristic mass : 0.001 g
Equivalent Weight : 0.000 g/eq.
Density : 0.000 g/cm3
Volume (V) : 0.001 cm3
Cycle Definition : Charge/Discharge alternance
Mode                Single sine         
E (V)               0.4000              
vs.                 Eoc                 
tE (h:m:s)          0:00:0.0000         
record              0                   
dI                  0.000               
unit dI             mA                  
dt (s)              0.000               
fi                  500.000             
unit fi             kHz                 
ff                  1.000               
unit ff             Hz                  
Nd                  6                   
Points              per decade          
spacing             Logarithmic         
Va (mV)             10.0                
pw                  0.10                
Na                  2                   
corr                0                   
E range min (V)     -1.000              
E range max (V)     1.000               
I Range             Auto                
Bandwidth           5                   
nc cycles           0                   
goto Ns'            0                   
nr cycles           0                   
inc. cycle          0                   

freq/Hz	Re(Z)/Ohm	-Im(Z)/Ohm	|Z|/Ohm	Phase(Z)/deg	time/s	<Ewe>/V	<I>/mA	Cs/uF	Cp/uF	cycle number	I Range	|Ewe|/V	|I|/A	Ns	(Q-Qo)/mA.h	Re(Y)/Ohm-1	Im(Y)/Ohm-1	|Y|/Ohm-1	Phase(Y)/deg	Re(C)/nF	Im(C)/nF	|C|/nF	Phase(C)/deg	Re(M)	Im(M)	|M|	Phase(M)/deg	Re(Permittivity)	Im(Permittivity)	|Permittivity|	Phase(Permittivity)/deg	Re(Resistivity)/Ohm.cm	Im(Resistivity)/Ohm.cm	|Resistivity|/Ohm.cm	Phase(Resistivity)/deg	Re(Conductivity)/mS/cm	Im(Conductivity)/mS/cm	|Conductivity|/mS/cm	Phase(Conductivity)/deg	Tan(Delta)	Loss Angle(Delta)/deg	dq/mA.h	
5.0001856E+005	2.4452654E+001	-3.8831639E+000	2.4759064E+001	9.0234146E+000	2.110068801080488E+002	3.7428761E-001	4.1358106E-002	-8.1968747E-002	-2.0162822E-003	1.000000000000000E+000	10	1.0649193E-002	4.3011291E-004	0	4.935380182446129E-005	3.9889406E-002	-6.3345726E-003	4.0389251E-002	-9.0234146E+000	-2.0162821E+000	1.2696720E+001	1.2855820E+001	-9.9023415E+001	0.0000000E+000	0.0000000E+000	0.0000000E+000	9.9023415E+001	0.0000000E+000	0.0000000E+000	0.0000000E+000	-9.9023415E+001	0.0000000E+000	0.0000000E+000	0.0000000E+000	9.0234146E+000	0.0000000E+000	0.0000000E+000	0.0000000E+000	-9.0234146E+000	6.2970953E+000	8.0976585E+001	4.935380182446129E-005
3.3989941E+005	1.6915932E+001	-3.5564950E+000	1.7285757E+001	1.1873239E+001	2.114288727680832E+002	3.7421113E-001	4.8521909E-004	-1.3165808E-001	-5.5733346E-003	1.000000000000000E+000	10	1.0587643E-002	6.1250676E-004	0	5.142309637139907E-005	5.6613382E-002	-1.1902696E-002	5.7851095E-002	-1.1873239E+001	-5.5733337E+000	2.6508724E+001	2.7088272E+001	-1.0187324E+002	0.0000000E+000	0.0000000E+000	0.0000000E+000	1.0187324E+002	0.0000000E+000	0.0000000E+000	0.0000000E+000	-1.0187324E+002	0.0000000E+000	0.0000000E+000	0.0000000E+000	1.1873239E+001	0.0000000E+000	0.0000000E+000	0.0000000E+000	-1.1873239E+001	4.7563491E+000	7.8126762E+001	2.069294546937781E-006
2.3106258E+005	1.4257336E+001	-2.2064421E+000	1.4427058E+001	8.7972136E+000	2.118518828148517E+002	3.7417209E-001	-7.9580471E-003	-3.1217492E-001	-7.3017590E-003	1.000000000000000E+000	10	1.0969311E-002	7.6032901E-004	0	5.100035476981429E-005	6.8498775E-002	-1.0600759E-002	6.9314197E-002	-8.7972136E+000	-7.3017573E+000	4.7181675E+001	4.7743336E+001	-9.8797211E+001	0.0000000E+000	0.0000000E+000	0.0000000E+000	9.8797211E+001	0.0000000E+000	0.0000000E+000	0.0000000E+000	-9.8797211E+001	0.0000000E+000	0.0000000E+000	0.0000000E+000	8.7972136E+000	0.0000000E+000	0.0000000E+000	0.0000000E+000	-8.7972136E+000	6.4616857E+000	8.1202789E+001	-4.227416015847787E-007
1.5707578E+005	1.3368928E+001	-1.2682976E+000	1.3428954E+001	5.4193769E+000	2.124098810280120E+002	3.7418535E-001	-1.1867144E-002	-7.9889512E-001	-7.1260305E-003	1.000000000000000E+000	10	1.0106321E-002	7.5257698E-004	0	4.933391601109826E-005	7.4133106E-002	-7.0329374E-003	7.4465960E-002	-5.4193769E+000	-7.1260347E+000	7.5114380E+001	7.5451645E+001	-9.5419380E+001	0.0000000E+000	0.0000000E+000	0.0000000E+000	9.5419380E+001	0.0000000E+000	0.0000000E+000	0.0000000E+000	-9.5419380E+001	0.0000000E+000	0.0000000E+000	0.0000000E+000	5.4193769E+000	0.0000000E+000	0.0000000E+000	0.0000000E+000	-5.4193769E+000	1.0540845E+001	8.4580620E+001	-1.666438758716039E-006
1.0678630E+005	1.3103630E+001	-7.4043620E-001	1.3124533E+001	3.2341270E+000	2.128328876880842E+002	3.7418860E-001	-1.2104112E-002	-2.0128758E+000	-6.4065550E-003	1.000000000000000E+000	10	1.0703184E-002	8.1550970E-004	0	4.884462105423962E-005	7.6071844E-002	-4.2985301E-003	7.6193191E-002	-3.2341270E+000	-6.4065628E+000	1.1337794E+002	1.1355880E+002	-9.3234131E+001	0.0000000E+000	0.0000000E+000	0.0000000E+000	9.3234131E+001	0.0000000E+000	0.0000000E+000	0.0000000E+000	-9.3234131E+001	0.0000000E+000	0.0000000E+000	0.0000000E+000	3.2341270E+000	0.0000000E+000	0.0000000E+000	0.0000000E+000	-3.2341270E+000	1.7697176E+001	8.6765869E+001	-4.892949568586352E-007
7.2595008E+004	1.3002590E+001	-4.6486810E-001	1.3010898E+001	2.0475643E+000	2.132558733348415E+002	3.7419260E-001	-1.0878204E-002	-4.7161069E+000	-6.0204454E-003	1.000000000000000E+000	10	1.0590802E-002	8.1399473E-004	0	4.771062018826746E-005	7.6809570E-002	-2.7460929E-003	7.6858647E-002	-2.0475643E+000	-6.0204372E+000	1.6839482E+002	1.6850241E+002	-9.2047562E+001	0.0000000E+000	0.0000000E+000	0.0000000E+000	9.2047562E+001	0.0000000E+000	0.0000000E+000	0.0000000E+000	-9.2047562E+001	0.0000000E+000	0.0000000E+000	0.0000000E+000	2.0475643E+000	0.0000000E+000	0.0000000E+000	0.0000000E+000	-2.0475643E+000	2.7970493E+001	8.7952438E+001	-1.134000865972156E-006
4.9352359E+004	1.2954280E+001	-3.0326536E-001	1.2957829E+001	1.3410743E+000	2.136778891948779E+002	3.7419155E-001	-1.1473432E-002	-1.0633821E+001	-5.8246586E-003	1.000000000000000E+000	10	1.0484736E-002	8.0914295E-004	0	4.675600250129840E-005	7.7152282E-002	-1.8061687E-003	7.7173419E-002	-1.3410743E+000	-5.8246493E+000	2.4880606E+002	2.4887424E+002	-9.1341072E+001	0.0000000E+000	0.0000000E+000	0.0000000E+000	9.1341072E+001	0.0000000E+000	0.0000000E+000	0.0000000E+000	-9.1341072E+001	0.0000000E+000	0.0000000E+000	0.0000000E+000	1.3410743E+000	0.0000000E+000	0.0000000E+000	0.0000000E+000	-1.3410743E+000	4.2715988E+001	8.8658928E+001	-9.546176869690626E-007
3.3551066E+004	1.2936173E+001	-2.0012119E-001	1.2937721E+001	8.8628876E-001	2.141008776683157E+002	3.7418947E-001	-1.3350544E-002	-2.3703951E+001	-5.6714136E-003	1.000000000000000E+000	10	1.0364988E-002	8.0114481E-004	0	4.588488730272123E-005	7.7284120E-002	-1.1955769E-003	7.7293366E-002	-8.8628876E-001	-5.6714311E+000	3.6660980E+002	3.6665366E+002	-9.0886292E+001	0.0000000E+000	0.0000000E+000	0.0000000E+000	9.0886292E+001	0.0000000E+000	0.0000000E+000	0.0000000E+000	-9.0886292E+001	0.0000000E+000	0.0000000E+000	0.0000000E+000	8.8628876E-001	0.0000000E+000	0.0000000E+000	0.0000000E+000	-8.8628876E-001	6.4641693E+001	8.9113708E+001	-8.711151985771711E-007
2.2806563E+004	1.2907909E+001	-1.3526027E-001	1.2908618E+001	6.0037291E-001	2.145228749683738E+002	3.7419370E-001	-1.3057595E-002	-5.1592915E+001	-5.6646233E-003	1.000000000000000E+000	10	1.0337627E-002	8.0083148E-004	0	4.573282451779232E-005	7.7463374E-002	-8.1172847E-004	7.7467628E-002	-6.0037291E-001	-5.6646185E+000	5.4057599E+002	5.4060565E+002	-9.0600372E+001	0.0000000E+000	0.0000000E+000	0.0000000E+000	9.0600372E+001	0.0000000E+000	0.0000000E+000	0.0000000E+000	-9.0600372E+001	0.0000000E+000	0.0000000E+000	0.0000000E+000	6.0037291E-001	0.0000000E+000	0.0000000E+000	0.0000000E+000	-6.0037291E-001	9.5430161E+001	8.9399628E+001	-1.520627849289092E-007
1.5504379E+004	1.2915030E+001	-8.0785729E-002	1.2915282E+001	3.5839027E-001	2.149448856284289E+002	3.7418833E-001	-1.1994023E-002	-1.2706652E+002	-4.9715592E-003	1.000000000000000E+000	10	1.0197146E-002	7.8954105E-004	0	4.420624434302832E-005	7.7426143E-002	-4.8431382E-004	7.7427655E-002	-3.5839027E-001	-4.9715667E+000	7.9479175E+002	7.9480731E+002	-9.0358391E+001	0.0000000E+000	0.0000000E+000	0.0000000E+000	9.0358391E+001	0.0000000E+000	0.0000000E+000	0.0000000E+000	-9.0358391E+001	0.0000000E+000	0.0000000E+000	0.0000000E+000	3.5839027E-001	0.0000000E+000	0.0000000E+000	0.0000000E+000	-3.5839027E-001	1.5986771E+002	8.9641609E+001	-1.526580174763997E-006
1.0540381E+004	1.2907793E+001	-5.1362030E-002	1.2907895E+001	2.2798723E-001	2.153668740751018E+002	3.7418532E-001	-1.1859679E-002	-2.9398260E+002	-4.6547372E-003	1.000000000000000E+000	10	1.0095636E-002	7.8212877E-004	0	4.327889756748724E-005	7.7471353E-002	-3.0827004E-004	7.7471964E-002	-2.2798723E-001	-4.6547771E+000	1.1697820E+003	1.1697913E+003	-9.0227989E+001	0.0000000E+000	0.0000000E+000	0.0000000E+000	9.0227989E+001	0.0000000E+000	0.0000000E+000	0.0000000E+000	-9.0227989E+001	0.0000000E+000	0.0000000E+000	0.0000000E+000	2.2798723E-001	0.0000000E+000	0.0000000E+000	0.0000000E+000	-2.2798723E-001	2.5131003E+002	8.9772011E+001	-9.273467755410825E-007
7.1637817E+003	1.2899516E+001	-4.1579347E-002	1.2899583E+001	1.8468234E-001	2.157234786254267E+002	3.7417629E-001	-1.4205133E-002	-5.3431842E+002	-5.5514206E-003	1.000000000000000E+000	10	1.0625787E-002	8.2373107E-004	0	4.141790302667586E-005	7.7521481E-002	-2.4987702E-004	7.7521883E-002	-1.8468234E-001	-5.5514932E+000	1.7222646E+003	1.7222736E+003	-9.0184685E+001	0.0000000E+000	0.0000000E+000	0.0000000E+000	9.0184685E+001	0.0000000E+000	0.0000000E+000	0.0000000E+000	-9.0184685E+001	0.0000000E+000	0.0000000E+000	0.0000000E+000	1.8468234E-001	0.0000000E+000	0.0000000E+000	0.0000000E+000	-1.8468234E-001	3.1023856E+002	8.9815315E+001	-1.860994540811385E-006
4.8715591E+003	1.2900665E+001	-2.3275442E-002	1.2900686E+001	1.0337321E-001	2.161920653143679E+002	3.7421840E-001	-1.1228994E-002	-1.4036351E+003	-4.5690350E-003	1.000000000000000E+000	10	1.0908722E-002	8.4559235E-004	0	4.048524186621459E-005	7.7515133E-002	-1.3985317E-004	7.7515259E-002	-1.0337321E-001	-4.5689220E+000	2.5324368E+003	2.5324409E+003	-9.0103371E+001	0.0000000E+000	0.0000000E+000	0.0000000E+000	9.0103371E+001	0.0000000E+000	0.0000000E+000	0.0000000E+000	-9.0103371E+001	0.0000000E+000	0.0000000E+000	0.0000000E+000	1.0337321E-001	0.0000000E+000	0.0000000E+000	0.0000000E+000	-1.0337321E-001	5.5426080E+002	8.9896629E+001	-9.326611604612697E-007
3.3110596E+003	1.2910212E+001	-1.7861364E-002	1.2910224E+001	7.9269044E-002	2.168780745469485E+002	3.7421915E-001	-1.1367076E-002	-2.6911538E+003	-5.1511028E-003	1.000000000000000E+000	10	1.0202255E-002	7.9024618E-004	0	3.933872178343073E-005	7.7457912E-002	-1.0716354E-004	7.7457987E-002	-7.9269044E-002	-5.1511269E+000	3.7232222E+003	3.7232258E+003	-9.0079269E+001	0.0000000E+000	0.0000000E+000	0.0000000E+000	9.0079269E+001	0.0000000E+000	0.0000000E+000	0.0000000E+000	-9.0079269E+001	0.0000000E+000	0.0000000E+000	0.0000000E+000	7.9269044E-002	0.0000000E+000	0.0000000E+000	0.0000000E+000	-7.9269044E-002	7.2280096E+002	8.9920731E+001	-1.146520082783858E-006
2.2507205E+003	1.2899218E+001	-5.3600608E-003	1.2899219E+001	2.3808332E-002	2.173430698757002E+002	3.7422031E-001	-1.1904459E-002	-1.3192554E+004	-2.2779359E-003	1.000000000000000E+000	10	1.0256190E-002	7.9510163E-004	0	3.729645703275067E-005	7.7524066E-002	-3.2213869E-005	7.7524073E-002	-2.3808332E-002	-2.2782238E+000	5.4819507E+003	5.4819512E+003	-9.0023811E+001	0.0000000E+000	0.0000000E+000	0.0000000E+000	9.0023811E+001	0.0000000E+000	0.0000000E+000	0.0000000E+000	-9.0023811E+001	0.0000000E+000	0.0000000E+000	0.0000000E+000	2.3808332E-002	0.0000000E+000	0.0000000E+000	0.0000000E+000	-2.3808332E-002	2.4065432E+003	8.9976189E+001	-2.042264750680057E-006
1.5304901E+003	1.2908428E+001	4.2471004E-004	1.2908428E+001	-1.8851322E-003	2.178080599511231E+002	3.7421882E-001	-1.0993892E-002	2.4484830E+005	2.6505464E-004	1.000000000000000E+000	10	1.0289490E-002	7.9711410E-004	0	3.520935688162636E-005	7.7468768E-002	2.5488591E-006	7.7468768E-002	1.8851322E-003	2.6496020E-001	8.0559404E+003	8.0559404E+003	-8.9998116E+001	0.0000000E+000	0.0000000E+000	0.0000000E+000	8.9998116E+001	0.0000000E+000	0.0000000E+000	0.0000000E+000	-8.9998116E+001	0.0000000E+000	0.0000000E+000	0.0000000E+000	-1.8851322E-003	0.0000000E+000	0.0000000E+000	0.0000000E+000	1.8851322E-003	3.0393508E+004	8.9998116E+001	-2.087100151124307E-006
1.0403328E+003	1.2905412E+001	3.8808719E-003	1.2905413E+001	-1.7229792E-002	2.182731022665466E+002	3.7422159E-001	-1.1419320E-002	3.9420176E+004	3.5647852E-003	1.000000000000000E+000	10	1.0303327E-002	7.9837255E-004	0	3.435808375869399E-005	7.7486865E-002	2.3301585E-005	7.7486865E-002	1.7229792E-002	3.5642433E+000	1.1854301E+004	1.1854302E+004	-8.9982773E+001	0.0000000E+000	0.0000000E+000	0.0000000E+000	8.9982773E+001	0.0000000E+000	0.0000000E+000	0.0000000E+000	-8.9982773E+001	0.0000000E+000	0.0000000E+000	0.0000000E+000	-1.7229792E-002	0.0000000E+000	0.0000000E+000	0.0000000E+000	1.7229792E-002	3.3253896E+003	8.9982773E+001	-8.512731229323744E-007
7.0703625E+002	1.2887596E+001	1.5229546E-002	1.2887605E+001	-6.7707613E-002	2.187375914885924E+002	3.7421855E-001	-1.2033208E-002	1.4780580E+004	2.0640537E-002	1.000000000000000E+000	10	1.0296582E-002	7.9895236E-004	0	3.236254119809019E-005	7.7593885E-002	9.1694346E-005	7.7593938E-002	6.7707613E-002	2.0641533E+001	1.7466502E+004	1.7466514E+004	-8.9932289E+001	0.0000000E+000	0.0000000E+000	0.0000000E+000	8.9932289E+001	0.0000000E+000	0.0000000E+000	0.0000000E+000	-8.9932289E+001	0.0000000E+000	0.0000000E+000	0.0000000E+000	-6.7707613E-002	0.0000000E+000	0.0000000E+000	0.0000000E+000	6.7707613E-002	8.4622327E+002	8.9932289E+001	-1.995542560603802E-006
4.8076920E+002	1.2905547E+001	1.8124994E-002	1.2905560E+001	-8.0468111E-002	2.192028200173081E+002	3.7421426E-001	-1.2040671E-002	1.8264408E+004	3.6025308E-002	1.000000000000000E+000	10	1.0311098E-002	7.9896557E-004	0	3.041508735710522E-005	7.7485912E-002	1.0882388E-004	7.7485986E-002	8.0468111E-002	3.6024906E+001	2.5651111E+004	2.5651137E+004	-8.9919533E+001	0.0000000E+000	0.0000000E+000	0.0000000E+000	8.9919533E+001	0.0000000E+000	0.0000000E+000	0.0000000E+000	-8.9919533E+001	0.0000000E+000	0.0000000E+000	0.0000000E+000	-8.0468111E-002	0.0000000E+000	0.0000000E+000	0.0000000E+000	8.0468111E-002	7.1203046E+002	8.9919533E+001	-1.947453840984965E-006
3.2677771E+002	1.2899580E+001	2.5816930E-002	1.2899606E+001	-1.1467034E-001	2.196660427593743E+002	3.7421352E-001	-1.2113442E-002	1.8865273E+004	7.5564787E-002	1.000000000000000E+000	10	1.0309060E-002	7.9917634E-004	0	2.841841525661423E-005	7.7521592E-002	1.5514997E-004	7.7521749E-002	1.1467034E-001	7.5564430E+001	3.7756387E+004	3.7756461E+004	-8.9885330E+001	0.0000000E+000	0.0000000E+000	0.0000000E+000	8.9885330E+001	0.0000000E+000	0.0000000E+000	0.0000000E+000	-8.9885330E+001	0.0000000E+000	0.0000000E+000	0.0000000E+000	-1.1467034E-001	0.0000000E+000	0.0000000E+000	0.0000000E+000	1.1467034E-001	4.9965582E+002	8.9885330E+001	-1.996672100490994E-006
2.2206076E+002	1.2922198E+001	4.6282131E-002	1.2922281E+001	-2.0520961E-001	2.201272946212703E+002	3.7421399E-001	-1.2311229E-002	1.5485848E+004	1.9864757E-001	1.000000000000000E+000	10	1.0326644E-002	7.9913478E-004	0	2.740961422828776E-005	7.7385217E-002	2.7716279E-004	7.7385716E-002	2.0520961E-001	1.9864584E+002	5.5463383E+004	5.5463738E+004	-8.9794792E+001	0.0000000E+000	0.0000000E+000	0.0000000E+000	8.9794792E+001	0.0000000E+000	0.0000000E+000	0.0000000E+000	-8.9794792E+001	0.0000000E+000	0.0000000E+000	0.0000000E+000	-2.0520961E-001	0.0000000E+000	0.0000000E+000	0.0000000E+000	2.0520961E-001	2.7920490E+002	8.9794792E+001	-1.008801028326465E-006
1.5101485E+002	1.2912543E+001	5.8527481E-002	1.2912676E+001	-2.5969747E-001	2.205887821098004E+002	3.7421483E-001	-1.1992157E-002	1.8006971E+004	3.6993706E-001	1.000000000000000E+000	10	1.0324227E-002	7.9954200E-004	0	2.560844256313673E-005	7.7442482E-002	3.5101632E-004	7.7443279E-002	2.5969747E-001	3.6993634E+002	8.1616844E+004	8.1617680E+004	-8.9740303E+001	0.0000000E+000	0.0000000E+000	0.0000000E+000	8.9740303E+001	0.0000000E+000	0.0000000E+000	0.0000000E+000	-8.9740303E+001	0.0000000E+000	0.0000000E+000	0.0000000E+000	-2.5969747E-001	0.0000000E+000	0.0000000E+000	0.0000000E+000	2.5969747E-001	2.2062360E+002	8.9740303E+001	-1.801171665151036E-006
1.0266736E+002	1.2915605E+001	9.4689250E-002	1.2915952E+001	-4.2004982E-001	2.210636945590522E+002	3.7422180E-001	-1.1204742E-002	1.6371447E+004	8.7990457E-001	1.000000000000000E+000	10	1.0320149E-002	7.9902355E-004	0	2.443527217237384E-005	7.7421561E-002	5.6760717E-004	7.7423640E-002	4.2004982E-001	8.7990833E+002	1.2001891E+005	1.2002213E+005	-8.9579948E+001	0.0000000E+000	0.0000000E+000	0.0000000E+000	8.9579948E+001	0.0000000E+000	0.0000000E+000	0.0000000E+000	-8.9579948E+001	0.0000000E+000	0.0000000E+000	0.0000000E+000	-4.2004982E-001	0.0000000E+000	0.0000000E+000	0.0000000E+000	4.2004982E-001	1.3639990E+002	8.9579948E+001	-1.173170390762891E-006
6.9754463E+001	1.2913085E+001	1.3799404E-001	1.2913822E+001	-6.1226070E-001	2.215308458879153E+002	3.7421861E-001	-1.1630169E-002	1.6534377E+004	1.8879863E+000	1.000000000000000E+000	10	1.0317668E-002	7.9896318E-004	0	2.333994884323006E-005	7.7431992E-002	8.2746701E-004	7.7436410E-002	6.1226070E-001	1.8879807E+003	1.7667233E+005	1.7668242E+005	-8.9387741E+001	0.0000000E+000	0.0000000E+000	0.0000000E+000	8.9387741E+001	0.0000000E+000	0.0000000E+000	0.0000000E+000	-8.9387741E+001	0.0000000E+000	0.0000000E+000	0.0000000E+000	-6.1226070E-001	0.0000000E+000	0.0000000E+000	0.0000000E+000	6.1226070E-001	9.3577126E+001	8.9387741E+001	-1.095323329143782E-006
4.7444328E+001	1.2933347E+001	1.7755157E-001	1.2934566E+001	-7.8651845E-001	2.219748479889968E+002	3.7420413E-001	-1.4475692E-002	1.8893453E+004	3.5600545E+000	1.000000000000000E+000	10	1.0322975E-002	7.9809211E-004	0	2.229071913761113E-005	7.7304937E-002	1.0612576E-003	7.7312224E-002	7.8651845E-001	3.5600701E+003	2.5932422E+005	2.5934866E+005	-8.9213478E+001	0.0000000E+000	0.0000000E+000	0.0000000E+000	8.9213478E+001	0.0000000E+000	0.0000000E+000	0.0000000E+000	-8.9213478E+001	0.0000000E+000	0.0000000E+000	0.0000000E+000	-7.8651845E-001	0.0000000E+000	0.0000000E+000	0.0000000E+000	7.8651845E-001	7.2842766E+001	8.9213478E+001	-1.049229705618929E-006
3.2238655E+001	1.2923674E+001	2.5968018E-001	1.2926282E+001	-1.1511105E+000	2.224122305164638E+002	3.7419772E-001	-1.4212598E-002	1.9010975E+004	7.6724625E+000	1.000000000000000E+000	10	1.0321707E-002	7.9850544E-004	0	1.989708606897451E-005	7.7346154E-002	1.5541450E-003	7.7361763E-002	1.1511105E+000	7.6724448E+003	3.8184050E+005	3.8191756E+005	-8.8848892E+001	0.0000000E+000	0.0000000E+000	0.0000000E+000	8.8848892E+001	0.0000000E+000	0.0000000E+000	0.0000000E+000	-8.8848892E+001	0.0000000E+000	0.0000000E+000	0.0000000E+000	-1.1511105E+000	0.0000000E+000	0.0000000E+000	0.0000000E+000	1.1511105E+000	4.9767654E+001	8.8848892E+001	-2.393633068636618E-006
