EC-Lab ASCII FILE
Nb header lines : 63                          

Potentio Electrochemical Impedance Spectroscopy

Run on channel : 1 (SN 66412)
User : 
CE vs. WE compliance from -10 V to 10 V
Electrode connection : standard
Potential control : Ewe
Ewe ctrl range : min = -1.00 V, max = 1.00 V
Safety Limits :
	Do not start on E overload
Acquisition started on : 01/26/2024 15:44:18.212
Loaded Setting File :  C:\Users\NakamuraT\Documents\EC-Lab\Data\Yatsuzuka\20240125_2-101_K_new_condition\20240125_2-101_001_preconditioning_EIS_elctrode1.mps
Saved on :
	File : 20240125_2-102_001_preconditioning_elctrode1_02_PEIS_C01.mpr
	Directory : C:\Users\NakamuraT\Documents\EC-Lab\Data\Yatsuzuka\20240126_2-102_Add_Na\
	Host : 192.109.209.100
Device : SP-150e (SN .003411)
Address : 192.109.209.236
EC-Lab for windows v11.50 (software)
Internet server v11.50 (firmware)
Command interpretor v11.50 (firmware)
Electrode material : 
Initial state : 
Electrolyte : 
Comments : 
Electrode surface area : 0.001 cm2
Characteristic mass : 0.001 g
Equivalent Weight : 0.000 g/eq.
Density : 0.000 g/cm3
Volume (V) : 0.001 cm3
Cycle Definition : Charge/Discharge alternance
Mode                Single sine         
E (V)               0.4000              
vs.                 Eoc                 
tE (h:m:s)          0:00:0.0000         
record              0                   
dI                  0.000               
unit dI             mA                  
dt (s)              0.000               
fi                  500.000             
unit fi             kHz                 
ff                  1.000               
unit ff             Hz                  
Nd                  6                   
Points              per decade          
spacing             Logarithmic         
Va (mV)             10.0                
pw                  0.10                
Na                  2                   
corr                0                   
E range min (V)     -1.000              
E range max (V)     1.000               
I Range             Auto                
Bandwidth           5                   
nc cycles           0                   
goto Ns'            0                   
nr cycles           0                   
inc. cycle          0                   

freq/Hz	Re(Z)/Ohm	-Im(Z)/Ohm	|Z|/Ohm	Phase(Z)/deg	time/s	<Ewe>/V	<I>/mA	Cs/uF	Cp/uF	cycle number	I Range	|Ewe|/V	|I|/A	Ns	(Q-Qo)/mA.h	Re(Y)/Ohm-1	Im(Y)/Ohm-1	|Y|/Ohm-1	Phase(Y)/deg	Re(C)/nF	Im(C)/nF	|C|/nF	Phase(C)/deg	Re(M)	Im(M)	|M|	Phase(M)/deg	Re(Permittivity)	Im(Permittivity)	|Permittivity|	Phase(Permittivity)/deg	Re(Resistivity)/Ohm.cm	Im(Resistivity)/Ohm.cm	|Resistivity|/Ohm.cm	Phase(Resistivity)/deg	Re(Conductivity)/mS/cm	Im(Conductivity)/mS/cm	|Conductivity|/mS/cm	Phase(Conductivity)/deg	Tan(Delta)	Loss Angle(Delta)/deg	dq/mA.h	
5.0001856E+005	2.1152201E+001	-4.0482721E+000	2.1536112E+001	1.0834689E+001	2.110068675747170E+002	3.7351218E-001	9.9617608E-002	-7.8625657E-002	-2.7782358E-003	1.000000000000000E+000	10	9.4886767E-003	4.4059375E-004	0	7.517689548546979E-005	4.5605894E-002	-8.7284092E-003	4.6433639E-002	-1.0834689E+001	-2.7782352E+000	1.4516269E+001	1.4779737E+001	-1.0083469E+002	0.0000000E+000	0.0000000E+000	0.0000000E+000	1.0083469E+002	0.0000000E+000	0.0000000E+000	0.0000000E+000	-1.0083469E+002	0.0000000E+000	0.0000000E+000	0.0000000E+000	1.0834689E+001	0.0000000E+000	0.0000000E+000	0.0000000E+000	-1.0834689E+001	5.2249947E+000	7.9165314E+001	7.517689548546979E-005
3.3989941E+005	1.4302914E+001	-3.1591158E+000	1.4647640E+001	1.2455075E+001	2.114298761014506E+002	3.7343320E-001	2.1196892E-002	-1.4821909E-001	-6.8944548E-003	1.000000000000000E+000	10	1.0378729E-002	7.0855976E-004	0	8.021961345261661E-005	6.6663668E-002	-1.4724150E-002	6.8270385E-002	-1.2455075E+001	-6.8944573E+000	3.1214685E+001	3.1967016E+001	-1.0245508E+002	0.0000000E+000	0.0000000E+000	0.0000000E+000	1.0245508E+002	0.0000000E+000	0.0000000E+000	0.0000000E+000	-1.0245508E+002	0.0000000E+000	0.0000000E+000	0.0000000E+000	1.2455075E+001	0.0000000E+000	0.0000000E+000	0.0000000E+000	-1.2455075E+001	4.5275054E+000	7.7544922E+001	5.042717967146818E-006
2.3106258E+005	1.2013230E+001	-1.8462961E+000	1.2154280E+001	8.7373409E+000	2.118518729481875E+002	3.7338886E-001	-2.9872409E-003	-3.7306899E-001	-8.6086178E-003	1.000000000000000E+000	10	1.0923801E-002	8.9876167E-004	0	7.953876489499170E-005	8.1320748E-002	-1.2498068E-002	8.2275547E-002	-8.7373409E+000	-8.6086187E+000	5.6013393E+001	5.6671055E+001	-9.8737343E+001	0.0000000E+000	0.0000000E+000	0.0000000E+000	9.8737343E+001	0.0000000E+000	0.0000000E+000	0.0000000E+000	-9.8737343E+001	0.0000000E+000	0.0000000E+000	0.0000000E+000	8.7373409E+000	0.0000000E+000	0.0000000E+000	0.0000000E+000	-8.7373409E+000	6.5066652E+000	8.1262657E+001	-6.808485576249097E-007
1.5707578E+005	1.1274242E+001	-9.9868113E-001	1.1318388E+001	5.0620923E+000	2.124098682546901E+002	3.7338752E-001	-7.7509242E-003	-1.0145748E+000	-7.8989360E-003	1.000000000000000E+000	10	1.0105487E-002	8.9283800E-004	0	7.913163770814168E-005	8.8007197E-002	-7.7957460E-003	8.8351801E-002	-5.0620923E+000	-7.8989420E+000	8.9172127E+001	8.9521294E+001	-9.5062096E+001	0.0000000E+000	0.0000000E+000	0.0000000E+000	9.5062096E+001	0.0000000E+000	0.0000000E+000	0.0000000E+000	-9.5062096E+001	0.0000000E+000	0.0000000E+000	0.0000000E+000	5.0620923E+000	0.0000000E+000	0.0000000E+000	0.0000000E+000	-5.0620923E+000	1.1289131E+001	8.4937904E+001	-4.071271868500255E-007
1.0678630E+005	1.1078133E+001	-5.6086320E-001	1.1092321E+001	2.8982935E+000	2.128318898480647E+002	3.7340060E-001	-9.5533980E-003	-2.6573434E+000	-6.7938613E-003	1.000000000000000E+000	10	1.0764233E-002	9.7042200E-004	0	7.713456042426212E-005	9.0037137E-002	-4.5583961E-003	9.0152457E-002	-2.8982935E+000	-6.7938585E+000	1.3419188E+002	1.3436375E+002	-9.2898293E+001	0.0000000E+000	0.0000000E+000	0.0000000E+000	9.2898293E+001	0.0000000E+000	0.0000000E+000	0.0000000E+000	-9.2898293E+001	0.0000000E+000	0.0000000E+000	0.0000000E+000	2.8982935E+000	0.0000000E+000	0.0000000E+000	0.0000000E+000	-2.8982935E+000	1.9751934E+001	8.7101707E+001	-1.997077283879560E-006
7.2595008E+004	1.0999833E+001	-3.4558079E-001	1.1005260E+001	1.7994646E+000	2.132538808814279E+002	3.7340733E-001	-1.2236585E-002	-6.3440094E+000	-6.2555042E-003	1.000000000000000E+000	10	1.0620556E-002	9.6504355E-004	0	7.527419784607305E-005	9.0820827E-002	-2.8533097E-003	9.0865634E-002	-1.7994646E+000	-6.2554936E+000	1.9911266E+002	1.9921089E+002	-9.1799461E+001	0.0000000E+000	0.0000000E+000	0.0000000E+000	9.1799461E+001	0.0000000E+000	0.0000000E+000	0.0000000E+000	-9.1799461E+001	0.0000000E+000	0.0000000E+000	0.0000000E+000	1.7994646E+000	0.0000000E+000	0.0000000E+000	0.0000000E+000	-1.7994646E+000	3.1829990E+001	8.8200539E+001	-1.860362578189070E-006
4.9352359E+004	1.0964926E+001	-2.1638733E-001	1.0967061E+001	1.1305568E+000	2.136758704747917E+002	3.7341031E-001	-1.1223393E-002	-1.4903228E+001	-5.8018100E-003	1.000000000000000E+000	10	1.0479487E-002	9.5554197E-004	0	7.337473731555858E-005	9.1164380E-002	-1.7990834E-003	9.1182128E-002	-1.1305568E+000	-5.8017974E+000	2.9399329E+002	2.9405054E+002	-9.1130554E+001	0.0000000E+000	0.0000000E+000	0.0000000E+000	9.1130554E+001	0.0000000E+000	0.0000000E+000	0.0000000E+000	-9.1130554E+001	0.0000000E+000	0.0000000E+000	0.0000000E+000	1.1305568E+000	0.0000000E+000	0.0000000E+000	0.0000000E+000	-1.1305568E+000	5.0672680E+001	8.8869446E+001	-1.899460530514470E-006
3.3551066E+004	1.0944954E+001	-1.4063655E-001	1.0945857E+001	7.3617828E-001	2.140988901748933E+002	3.7340403E-001	-1.0831551E-002	-3.3729942E+001	-5.5681700E-003	1.000000000000000E+000	10	1.0403603E-002	9.5046038E-004	0	7.068177505127581E-005	9.1351226E-002	-1.1738123E-003	9.1358766E-002	-7.3617828E-001	-5.5681486E+000	4.3333939E+002	4.3337515E+002	-9.0736176E+001	0.0000000E+000	0.0000000E+000	0.0000000E+000	9.0736176E+001	0.0000000E+000	0.0000000E+000	0.0000000E+000	-9.0736176E+001	0.0000000E+000	0.0000000E+000	0.0000000E+000	7.3617828E-001	0.0000000E+000	0.0000000E+000	0.0000000E+000	-7.3617828E-001	7.7824394E+001	8.9263824E+001	-2.692962264282762E-006
2.2806563E+004	1.0940450E+001	-9.0489641E-002	1.0940824E+001	4.7388878E-001	2.145218788616621E+002	3.7340611E-001	-1.3785295E-002	-7.7119011E+001	-5.2754455E-003	1.000000000000000E+000	10	1.0328371E-002	9.4402139E-004	0	6.860439921543325E-005	9.1397665E-002	-7.5596001E-004	9.1400795E-002	-4.7388878E-001	-5.2754836E+000	6.3781604E+002	6.3783783E+002	-9.0473892E+001	0.0000000E+000	0.0000000E+000	0.0000000E+000	9.0473892E+001	0.0000000E+000	0.0000000E+000	0.0000000E+000	-9.0473892E+001	0.0000000E+000	0.0000000E+000	0.0000000E+000	4.7388878E-001	0.0000000E+000	0.0000000E+000	0.0000000E+000	-4.7388878E-001	1.2090279E+002	8.9526108E+001	-2.077375835842564E-006
1.5504379E+004	1.0941622E+001	-6.4495906E-002	1.0941812E+001	3.3772880E-001	2.149438804283418E+002	3.7340626E-001	-1.2839276E-002	-1.5915988E+002	-5.5299276E-003	1.000000000000000E+000	10	1.0221267E-002	9.3414763E-004	0	6.559592203157565E-005	9.1390960E-002	-5.3870835E-004	9.1392547E-002	-3.3772880E-001	-5.5299540E+000	9.3814282E+002	9.3815912E+002	-9.0337730E+001	0.0000000E+000	0.0000000E+000	0.0000000E+000	9.0337730E+001	0.0000000E+000	0.0000000E+000	0.0000000E+000	-9.0337730E+001	0.0000000E+000	0.0000000E+000	0.0000000E+000	3.3772880E-001	0.0000000E+000	0.0000000E+000	0.0000000E+000	-3.3772880E-001	1.6964832E+002	8.9662270E+001	-3.008477183857595E-006
1.0540381E+004	1.0935410E+001	-4.6941224E-002	1.0935512E+001	2.4594572E-001	2.153658870617655E+002	3.7341487E-001	-1.1594710E-002	-3.2166916E+002	-5.9270700E-003	1.000000000000000E+000	10	1.0106110E-002	9.2415523E-004	0	6.364373114791751E-005	9.1444351E-002	-3.9253302E-004	9.1445193E-002	-2.4594572E-001	-5.9271436E+000	1.3807681E+003	1.3807808E+003	-9.0245949E+001	0.0000000E+000	0.0000000E+000	0.0000000E+000	9.0245949E+001	0.0000000E+000	0.0000000E+000	0.0000000E+000	-9.0245949E+001	0.0000000E+000	0.0000000E+000	0.0000000E+000	2.4594572E-001	0.0000000E+000	0.0000000E+000	0.0000000E+000	-2.4594572E-001	2.3295964E+002	8.9754051E+001	-1.952190883658148E-006
7.1637817E+003	1.0933105E+001	-2.2702048E-002	1.0933129E+001	1.1897165E-001	2.157224596653687E+002	3.7338457E-001	-1.4091306E-002	-9.7861707E+002	-4.2194305E-003	1.000000000000000E+000	10	1.0689365E-002	9.7770407E-004	0	6.209409151970046E-005	9.1464929E-002	-1.8992236E-004	9.1465123E-002	-1.1897165E-001	-4.2194705E+000	2.0320405E+003	2.0320449E+003	-9.0118973E+001	0.0000000E+000	0.0000000E+000	0.0000000E+000	9.0118973E+001	0.0000000E+000	0.0000000E+000	0.0000000E+000	-9.0118973E+001	0.0000000E+000	0.0000000E+000	0.0000000E+000	1.1897165E-001	0.0000000E+000	0.0000000E+000	0.0000000E+000	-1.1897165E-001	4.8159116E+002	8.9881027E+001	-1.549639628217045E-006
4.8715591E+003	1.0932685E+001	-2.0171015E-002	1.0932704E+001	1.0571169E-001	2.164110783381038E+002	3.7343162E-001	-1.1232723E-002	-1.6196621E+003	-5.5134664E-003	1.000000000000000E+000	10	1.0163101E-002	9.2960545E-004	0	6.174732816972795E-005	9.1468520E-002	-1.6876118E-004	9.1468677E-002	-1.0571169E-001	-5.5135288E+000	2.9882976E+003	2.9883027E+003	-9.0105713E+001	0.0000000E+000	0.0000000E+000	0.0000000E+000	9.0105713E+001	0.0000000E+000	0.0000000E+000	0.0000000E+000	-9.0105713E+001	0.0000000E+000	0.0000000E+000	0.0000000E+000	1.0571169E-001	0.0000000E+000	0.0000000E+000	0.0000000E+000	-1.0571169E-001	5.4199976E+002	8.9894287E+001	-3.467633499725062E-007
3.3110596E+003	1.0932350E+001	-6.7436043E-003	1.0932352E+001	3.5342813E-002	2.168760762001912E+002	3.7342808E-001	-1.1340946E-002	-7.1278916E+003	-2.7121769E-003	1.000000000000000E+000	10	1.0301832E-002	9.4232534E-004	0	6.115385320688882E-005	9.1471612E-002	-5.6424127E-005	9.1471627E-002	-3.5342813E-002	-2.7119114E+000	4.3968276E+003	4.3968286E+003	-9.0035339E+001	0.0000000E+000	0.0000000E+000	0.0000000E+000	9.0035339E+001	0.0000000E+000	0.0000000E+000	0.0000000E+000	-9.0035339E+001	0.0000000E+000	0.0000000E+000	0.0000000E+000	3.5342813E-002	0.0000000E+000	0.0000000E+000	0.0000000E+000	-3.5342813E-002	1.6211434E+003	8.9964661E+001	-5.934749628391318E-007
2.2507205E+003	1.0930929E+001	-2.8684197E-003	1.0930929E+001	1.5035167E-002	2.173420944356549E+002	3.7343124E-001	-1.1419314E-002	-2.4652213E+004	-1.6975678E-003	1.000000000000000E+000	10	1.0372719E-002	9.4893295E-004	0	5.915984105853648E-005	9.1483533E-002	-2.4006484E-005	9.1483533E-002	-1.5035167E-002	-1.6978352E+000	6.4690645E+003	6.4690645E+003	-9.0015038E+001	0.0000000E+000	0.0000000E+000	0.0000000E+000	9.0015038E+001	0.0000000E+000	0.0000000E+000	0.0000000E+000	-9.0015038E+001	0.0000000E+000	0.0000000E+000	0.0000000E+000	1.5035167E-002	0.0000000E+000	0.0000000E+000	0.0000000E+000	-1.5035167E-002	3.8107844E+003	8.9984962E+001	-1.994012148352340E-006
1.5304901E+003	1.0930166E+001	-1.8424100E-003	1.0930166E+001	9.6578877E-003	2.178080658711260E+002	3.7343210E-001	-1.0995750E-002	-5.6442121E+004	-1.6036972E-003	1.000000000000000E+000	10	1.0410496E-002	9.5245545E-004	0	5.718095707098514E-005	9.1489919E-002	-1.5421718E-005	9.1489919E-002	-9.6578877E-003	-1.6038508E+000	9.5139932E+003	9.5139932E+003	-9.0009659E+001	0.0000000E+000	0.0000000E+000	0.0000000E+000	9.0009659E+001	0.0000000E+000	0.0000000E+000	0.0000000E+000	-9.0009659E+001	0.0000000E+000	0.0000000E+000	0.0000000E+000	9.6578877E-003	0.0000000E+000	0.0000000E+000	0.0000000E+000	-9.6578877E-003	5.9325376E+003	8.9990341E+001	-1.978883987551345E-006
1.0403328E+003	1.0928674E+001	1.3024737E-003	1.0928674E+001	-6.8284818E-003	2.182731057065466E+002	3.7343410E-001	-1.0708399E-002	1.1745699E+005	1.6683298E-003	1.000000000000000E+000	10	1.0422027E-002	9.5364056E-004	0	5.592547241030196E-005	9.1502413E-002	1.0905211E-005	9.1502413E-002	6.8284818E-003	1.6682875E+000	1.3998465E+004	1.3998465E+004	-8.9993172E+001	0.0000000E+000	0.0000000E+000	0.0000000E+000	8.9993172E+001	0.0000000E+000	0.0000000E+000	0.0000000E+000	-8.9993172E+001	0.0000000E+000	0.0000000E+000	0.0000000E+000	-6.8284818E-003	0.0000000E+000	0.0000000E+000	0.0000000E+000	6.8284818E-003	8.3907061E+003	8.9993172E+001	-1.255484660683176E-006
7.0703625E+002	1.0928476E+001	9.2865145E-003	1.0928480E+001	-4.8687294E-002	2.187375893285644E+002	3.7343138E-001	-1.1544329E-002	2.4239615E+004	1.7502965E-002	1.000000000000000E+000	10	1.0427419E-002	9.5415086E-004	0	5.414254310027890E-005	9.1504000E-002	7.7755867E-005	9.1504030E-002	4.8687294E-002	1.7504225E+001	2.0597689E+004	2.0597697E+004	-8.9951309E+001	0.0000000E+000	0.0000000E+000	0.0000000E+000	8.9951309E+001	0.0000000E+000	0.0000000E+000	0.0000000E+000	-8.9951309E+001	0.0000000E+000	0.0000000E+000	0.0000000E+000	-4.8687294E-002	0.0000000E+000	0.0000000E+000	0.0000000E+000	4.8687294E-002	1.1768114E+003	8.9951309E+001	-1.782929310023063E-006
4.8076920E+002	1.0936749E+001	1.5255982E-002	1.0936760E+001	-7.9923458E-002	2.192028292173200E+002	3.7343550E-001	-1.1339081E-002	2.1699180E+004	4.2222731E-002	1.000000000000000E+000	10	1.0435791E-002	9.5419399E-004	0	5.251325522275228E-005	9.1434665E-002	1.2754482E-004	9.1434754E-002	7.9923458E-002	4.2223827E+001	3.0268744E+004	3.0268773E+004	-8.9920074E+001	0.0000000E+000	0.0000000E+000	0.0000000E+000	8.9920074E+001	0.0000000E+000	0.0000000E+000	0.0000000E+000	-8.9920074E+001	0.0000000E+000	0.0000000E+000	0.0000000E+000	-7.9923458E-002	0.0000000E+000	0.0000000E+000	0.0000000E+000	7.9923458E-002	7.1688269E+002	8.9920074E+001	-1.629287877526620E-006
3.2677771E+002	1.0927377E+001	1.7795701E-002	1.0927391E+001	-9.3308546E-002	2.196660358793742E+002	3.7342900E-001	-1.1033068E-002	2.7368604E+004	7.2585493E-002	1.000000000000000E+000	10	1.0432207E-002	9.5468416E-004	0	5.048042959744473E-005	9.1513030E-002	1.4903289E-004	9.1513149E-002	9.3308546E-002	7.2584671E+001	4.4570820E+004	4.4570879E+004	-8.9906693E+001	0.0000000E+000	0.0000000E+000	0.0000000E+000	8.9906693E+001	0.0000000E+000	0.0000000E+000	0.0000000E+000	-8.9906693E+001	0.0000000E+000	0.0000000E+000	0.0000000E+000	-9.3308546E-002	0.0000000E+000	0.0000000E+000	0.0000000E+000	9.3308546E-002	6.1404590E+002	8.9906693E+001	-2.032825625307552E-006
2.2206076E+002	1.0925172E+001	3.7409928E-002	1.0925236E+001	-1.9619121E-001	2.201282949946326E+002	3.7342694E-001	-1.1301760E-002	1.9158498E+004	2.2463299E-001	1.000000000000000E+000	10	1.0433897E-002	9.5502724E-004	0	4.997036898333722E-005	9.1530666E-002	3.1341892E-004	9.1531202E-002	1.9619121E-001	2.2463148E+002	6.5601680E+004	6.5602063E+004	-8.9803810E+001	0.0000000E+000	0.0000000E+000	0.0000000E+000	8.9803810E+001	0.0000000E+000	0.0000000E+000	0.0000000E+000	-8.9803810E+001	0.0000000E+000	0.0000000E+000	0.0000000E+000	-1.9619121E-001	0.0000000E+000	0.0000000E+000	0.0000000E+000	1.9619121E-001	2.9203937E+002	8.9803810E+001	-5.100606141075106E-007
1.5101485E+002	1.0939016E+001	4.8959896E-002	1.0939126E+001	-2.5643775E-001	2.205898006698844E+002	3.7343273E-001	-1.1064789E-002	2.1525834E+004	4.3119699E-001	1.000000000000000E+000	10	1.0444692E-002	9.5480133E-004	0	4.840503991814977E-005	9.1414064E-002	4.0914310E-004	9.1414981E-002	2.5643775E-001	4.3119943E+002	9.6341516E+004	9.6342484E+004	-8.9743561E+001	0.0000000E+000	0.0000000E+000	0.0000000E+000	8.9743561E+001	0.0000000E+000	0.0000000E+000	0.0000000E+000	-8.9743561E+001	0.0000000E+000	0.0000000E+000	0.0000000E+000	-2.5643775E-001	0.0000000E+000	0.0000000E+000	0.0000000E+000	2.5643775E-001	2.2342810E+002	8.9743561E+001	-1.565329065187448E-006
1.0266736E+002	1.0935078E+001	6.9678254E-002	1.0935300E+001	-3.6508343E-001	2.210647096524044E+002	3.7343261E-001	-1.1357738E-002	2.2247975E+004	9.0328252E-001	1.000000000000000E+000	10	1.0443163E-002	9.5499557E-004	0	4.610262736420070E-005	9.1445111E-002	5.8268767E-004	9.1446966E-002	3.6508343E-001	9.0327844E+002	1.4175822E+005	1.4176109E+005	-8.9634918E+001	0.0000000E+000	0.0000000E+000	0.0000000E+000	8.9634918E+001	0.0000000E+000	0.0000000E+000	0.0000000E+000	-8.9634918E+001	0.0000000E+000	0.0000000E+000	0.0000000E+000	-3.6508343E-001	0.0000000E+000	0.0000000E+000	0.0000000E+000	3.6508343E-001	1.5693674E+002	8.9634918E+001	-2.302412553949071E-006
6.9754463E+001	1.0937234E+001	9.7610302E-002	1.0937670E+001	-5.1132762E-001	2.215318759146176E+002	3.7342817E-001	-1.0876332E-002	2.3375047E+004	1.8616335E+000	1.000000000000000E+000	10	1.0441232E-002	9.5461216E-004	0	4.403069791300610E-005	9.1423512E-002	8.1591716E-004	9.1427155E-002	5.1132762E-001	1.8616410E+003	2.0859603E+005	2.0860434E+005	-8.9488670E+001	0.0000000E+000	0.0000000E+000	0.0000000E+000	8.9488670E+001	0.0000000E+000	0.0000000E+000	0.0000000E+000	-8.9488670E+001	0.0000000E+000	0.0000000E+000	0.0000000E+000	-5.1132762E-001	0.0000000E+000	0.0000000E+000	0.0000000E+000	5.1132762E-001	1.1205000E+002	8.9488670E+001	-2.071929451194592E-006
4.7444328E+001	1.0944531E+001	1.3539293E-001	1.0945369E+001	-7.0876020E-001	2.219758234290202E+002	3.7342036E-001	-1.1846608E-002	2.4776494E+004	3.7911506E+000	1.000000000000000E+000	10	1.0445058E-002	9.5429021E-004	0	4.139557918020162E-005	9.1355853E-002	1.1301477E-003	9.1362841E-002	7.0876020E-001	3.7911665E+003	3.0645891E+005	3.0648234E+005	-8.9291237E+001	0.0000000E+000	0.0000000E+000	0.0000000E+000	8.9291237E+001	0.0000000E+000	0.0000000E+000	0.0000000E+000	-8.9291237E+001	0.0000000E+000	0.0000000E+000	0.0000000E+000	-7.0876020E-001	0.0000000E+000	0.0000000E+000	0.0000000E+000	7.0876020E-001	8.0835320E+001	8.9291237E+001	-2.635118732804483E-006
3.2238655E+001	1.0945304E+001	1.9098221E-001	1.0946970E+001	-9.9964005E-001	2.224132480098488E+002	3.7340984E-001	-1.1641358E-002	2.5849389E+004	7.8677087E+000	1.000000000000000E+000	10	1.0440731E-002	9.5375534E-004	0	4.031637973543386E-005	9.1335572E-002	1.5936943E-003	9.1349475E-002	9.9964005E-001	7.8677192E+003	4.5090306E+005	4.5097169E+005	-8.9000359E+001	0.0000000E+000	0.0000000E+000	0.0000000E+000	8.9000359E+001	0.0000000E+000	0.0000000E+000	0.0000000E+000	-8.9000359E+001	0.0000000E+000	0.0000000E+000	0.0000000E+000	-9.9964005E-001	0.0000000E+000	0.0000000E+000	0.0000000E+000	9.9964005E-001	5.7310596E+001	8.9000359E+001	-1.079199444767763E-006
