EC-Lab ASCII FILE
Nb header lines : 63                          

Potentio Electrochemical Impedance Spectroscopy

Run on channel : 2 (SN 66414)
User : 
CE vs. WE compliance from -10 V to 10 V
Electrode connection : standard
Potential control : Ewe
Ewe ctrl range : min = -1.00 V, max = 1.00 V
Safety Limits :
	Do not start on E overload
Acquisition started on : 02/01/2024 14:41:57.621
Loaded Setting File :  C:\Users\NakamuraT\Documents\EC-Lab\Data\Yatsuzuka\20240126_2-102_Add_Na\20240125_2-102_001_preconditioning_elctrode1.mps
Saved on :
	File : 20240201_2-102_014_preconditioning_elctrode6_02_PEIS_C02.mpr
	Directory : C:\Users\NakamuraT\Documents\EC-Lab\Data\Yatsuzuka\20240126_2-102_Add_Na\
	Host : 192.109.209.100
Device : SP-150e (SN .003411)
Address : 192.109.209.236
EC-Lab for windows v11.50 (software)
Internet server v11.50 (firmware)
Command interpretor v11.50 (firmware)
Electrode material : 
Initial state : 
Electrolyte : 
Comments : 
Electrode surface area : 0.001 cm2
Characteristic mass : 0.001 g
Equivalent Weight : 0.000 g/eq.
Density : 0.000 g/cm3
Volume (V) : 0.001 cm3
Cycle Definition : Charge/Discharge alternance
Mode                Single sine         
E (V)               0.4000              
vs.                 Eoc                 
tE (h:m:s)          0:00:0.0000         
record              0                   
dI                  0.000               
unit dI             mA                  
dt (s)              0.000               
fi                  500.000             
unit fi             kHz                 
ff                  1.000               
unit ff             Hz                  
Nd                  6                   
Points              per decade          
spacing             Logarithmic         
Va (mV)             10.0                
pw                  0.10                
Na                  2                   
corr                0                   
E range min (V)     -1.000              
E range max (V)     1.000               
I Range             Auto                
Bandwidth           5                   
nc cycles           0                   
goto Ns'            0                   
nr cycles           0                   
inc. cycle          0                   

freq/Hz	Re(Z)/Ohm	-Im(Z)/Ohm	|Z|/Ohm	Phase(Z)/deg	time/s	<Ewe>/V	<I>/mA	Cs/uF	Cp/uF	cycle number	I Range	|Ewe|/V	|I|/A	Ns	(Q-Qo)/mA.h	Re(Y)/Ohm-1	Im(Y)/Ohm-1	|Y|/Ohm-1	Phase(Y)/deg	Re(C)/nF	Im(C)/nF	|C|/nF	Phase(C)/deg	Re(M)	Im(M)	|M|	Phase(M)/deg	Re(Permittivity)	Im(Permittivity)	|Permittivity|	Phase(Permittivity)/deg	Re(Resistivity)/Ohm.cm	Im(Resistivity)/Ohm.cm	|Resistivity|/Ohm.cm	Phase(Resistivity)/deg	Re(Conductivity)/mS/cm	Im(Conductivity)/mS/cm	|Conductivity|/mS/cm	Phase(Conductivity)/deg	Tan(Delta)	Loss Angle(Delta)/deg	dq/mA.h	
5.0001856E+005	2.3343809E+001	-4.9107919E+000	2.3854753E+001	1.1879975E+001	2.110528912801965E+002	3.7940747E-001	1.6885731E-001	-6.4816043E-002	-2.7468547E-003	1.000000000000000E+000	10	9.5722023E-003	4.0127023E-004	0	1.011051391072494E-004	4.1022476E-002	-8.6298184E-003	4.1920368E-002	-1.1879975E+001	-2.7468541E+000	1.3057374E+001	1.3343171E+001	-1.0187997E+002	0.0000000E+000	0.0000000E+000	0.0000000E+000	1.0187997E+002	0.0000000E+000	0.0000000E+000	0.0000000E+000	-1.0187997E+002	0.0000000E+000	0.0000000E+000	0.0000000E+000	1.1879975E+001	0.0000000E+000	0.0000000E+000	0.0000000E+000	-1.1879975E+001	4.7535734E+000	7.8120026E+001	1.011051391072494E-004
3.3989941E+005	1.6469318E+001	-3.5156939E+000	1.6840385E+001	1.2050026E+001	2.114748822069232E+002	3.7929189E-001	5.3428158E-002	-1.3318603E-001	-5.8046589E-003	1.000000000000000E+000	10	1.0452432E-002	6.2067650E-004	0	1.100243581029127E-004	5.8072645E-002	-1.2396727E-002	5.9381064E-002	-1.2050026E+001	-5.8046598E+000	2.7192013E+001	2.7804668E+001	-1.0205003E+002	0.0000000E+000	0.0000000E+000	0.0000000E+000	1.0205003E+002	0.0000000E+000	0.0000000E+000	0.0000000E+000	-1.0205003E+002	0.0000000E+000	0.0000000E+000	0.0000000E+000	1.2050026E+001	0.0000000E+000	0.0000000E+000	0.0000000E+000	-1.2050026E+001	4.6845145E+000	7.7949974E+001	8.919218995663374E-006
2.3106258E+005	1.4173402E+001	-2.0244558E+000	1.4317253E+001	8.1288509E+000	2.118968916936283E+002	3.7925711E-001	2.1615887E-002	-3.4023753E-001	-6.8026702E-003	1.000000000000000E+000	10	1.0952504E-002	7.6498644E-004	0	1.137679334282940E-004	6.9144033E-002	-9.8761776E-003	6.9845803E-002	-8.1288509E+000	-6.8026719E+000	4.7626122E+001	4.8109497E+001	-9.8128853E+001	0.0000000E+000	0.0000000E+000	0.0000000E+000	9.8128853E+001	0.0000000E+000	0.0000000E+000	0.0000000E+000	-9.8128853E+001	0.0000000E+000	0.0000000E+000	0.0000000E+000	8.1288509E+000	0.0000000E+000	0.0000000E+000	0.0000000E+000	-8.1288509E+000	7.0010924E+000	8.1871147E+001	3.743575325381243E-006
1.5707578E+005	1.3402243E+001	-1.1165060E+000	1.3448668E+001	4.7621665E+000	2.124548820134805E+002	3.7926847E-001	7.0351041E-003	-9.0750670E-001	-6.2547992E-003	1.000000000000000E+000	10	1.0097972E-002	7.5085292E-004	0	1.172217331169264E-004	7.4100114E-002	-6.1730882E-003	7.4356802E-002	-4.7621665E+000	-6.2548032E+000	7.5080956E+001	7.5341042E+001	-9.4762169E+001	0.0000000E+000	0.0000000E+000	0.0000000E+000	9.4762169E+001	0.0000000E+000	0.0000000E+000	0.0000000E+000	-9.4762169E+001	0.0000000E+000	0.0000000E+000	0.0000000E+000	4.7621665E+000	0.0000000E+000	0.0000000E+000	0.0000000E+000	-4.7621665E+000	1.2003736E+001	8.5237831E+001	3.453799688632394E-006
1.0678630E+005	1.3190067E+001	-6.4192253E-001	1.3205678E+001	2.7862220E+000	2.128768670468562E+002	3.7928221E-001	2.7305041E-003	-2.3217850E+000	-5.4861270E-003	1.000000000000000E+000	10	1.0690663E-002	8.0955046E-004	0	1.175430410755604E-004	7.5635485E-002	-3.6809610E-003	7.5725004E-002	-2.7862220E+000	-5.4861312E+000	1.1272759E+002	1.1286101E+002	-9.2786224E+001	0.0000000E+000	0.0000000E+000	0.0000000E+000	9.2786224E+001	0.0000000E+000	0.0000000E+000	0.0000000E+000	-9.2786224E+001	0.0000000E+000	0.0000000E+000	0.0000000E+000	2.7862220E+000	0.0000000E+000	0.0000000E+000	0.0000000E+000	-2.7862220E+000	2.0547756E+001	8.7213776E+001	3.213079586340432E-007
7.2595008E+004	1.3101693E+001	-3.9624116E-001	1.3107683E+001	1.7322973E+000	2.132988918135379E+002	3.7928808E-001	3.1747788E-003	-5.5329127E+000	-5.0561633E-003	1.000000000000000E+000	10	1.0608172E-002	8.0930948E-004	0	1.171361443622413E-004	7.6256268E-002	-2.3062571E-003	7.6291136E-002	-1.7322973E+000	-5.0561705E+000	1.6718176E+002	1.6725821E+002	-9.1732300E+001	0.0000000E+000	0.0000000E+000	0.0000000E+000	9.1732300E+001	0.0000000E+000	0.0000000E+000	0.0000000E+000	-9.1732300E+001	0.0000000E+000	0.0000000E+000	0.0000000E+000	1.7322973E+000	0.0000000E+000	0.0000000E+000	0.0000000E+000	-1.7322973E+000	3.3064949E+001	8.8267700E+001	-4.068967133191270E-007
4.9352359E+004	1.3048946E+001	-2.4934296E-001	1.3051329E+001	1.0946908E+000	2.137208848735754E+002	3.7929490E-001	6.5473595E-004	-1.2933471E+001	-4.7206287E-003	1.000000000000000E+000	10	1.0467602E-002	8.0203341E-004	0	1.173356564241177E-004	7.6606564E-002	-1.4638200E-003	7.6620549E-002	-1.0946908E+000	-4.7206192E+000	2.4704623E+002	2.4709132E+002	-9.1094688E+001	0.0000000E+000	0.0000000E+000	0.0000000E+000	9.1094688E+001	0.0000000E+000	0.0000000E+000	0.0000000E+000	-9.1094688E+001	0.0000000E+000	0.0000000E+000	0.0000000E+000	1.0946908E+000	0.0000000E+000	0.0000000E+000	0.0000000E+000	-1.0946908E+000	5.2333324E+001	8.8905312E+001	1.995120618763970E-007
3.3551066E+004	1.3028101E+001	-1.6088413E-001	1.3029095E+001	7.0751005E-001	2.141428800669819E+002	3.7928617E-001	6.1553431E-004	-2.9484964E+001	-4.4957125E-003	1.000000000000000E+000	10	1.0392726E-002	7.9765532E-004	0	1.166662838877560E-004	7.6745458E-002	-9.4773021E-004	7.6751307E-002	-7.0751005E-001	-4.4957242E+000	3.6405453E+002	3.6408231E+002	-9.0707512E+001	0.0000000E+000	0.0000000E+000	0.0000000E+000	9.0707512E+001	0.0000000E+000	0.0000000E+000	0.0000000E+000	-9.0707512E+001	0.0000000E+000	0.0000000E+000	0.0000000E+000	7.0751005E-001	0.0000000E+000	0.0000000E+000	0.0000000E+000	-7.0751005E-001	8.0978165E+001	8.9292488E+001	-6.693725363616528E-007
2.2806563E+004	1.3013026E+001	-1.0968617E-001	1.3013489E+001	4.8293194E-001	2.145648745403596E+002	3.7929028E-001	7.2193745E-004	-6.3622162E+001	-4.5198570E-003	1.000000000000000E+000	10	1.0386523E-002	7.9813518E-004	0	1.160676226951441E-004	7.6840617E-002	-6.4768584E-004	7.6843344E-002	-4.8293194E-001	-4.5198669E+000	5.3622998E+002	5.3624902E+002	-9.0482933E+001	0.0000000E+000	0.0000000E+000	0.0000000E+000	9.0482933E+001	0.0000000E+000	0.0000000E+000	0.0000000E+000	-9.0482933E+001	0.0000000E+000	0.0000000E+000	0.0000000E+000	4.8293194E-001	0.0000000E+000	0.0000000E+000	0.0000000E+000	-4.8293194E-001	1.1863871E+002	8.9517067E+001	-5.986611926119700E-007
1.5504379E+004	1.2991290E+001	-8.4429167E-002	1.2991565E+001	3.7235460E-001	2.149878854137933E+002	3.7929732E-001	-1.3930334E-003	-1.2158311E+002	-5.1349397E-003	1.000000000000000E+000	10	1.0240730E-002	7.8825990E-004	0	1.172459639944848E-004	7.6971397E-002	-5.0022983E-004	7.6973021E-002	-3.7235460E-001	-5.1349120E+000	7.9012378E+002	7.9014044E+002	-9.0372353E+001	0.0000000E+000	0.0000000E+000	0.0000000E+000	9.0372353E+001	0.0000000E+000	0.0000000E+000	0.0000000E+000	-9.0372353E+001	0.0000000E+000	0.0000000E+000	0.0000000E+000	3.7235460E-001	0.0000000E+000	0.0000000E+000	0.0000000E+000	-3.7235460E-001	1.5387206E+002	8.9627647E+001	1.178341299340699E-006
1.0540381E+004	1.2963684E+001	1.5215546E-002	1.2963693E+001	-6.7248337E-002	2.154098761805071E+002	3.7928683E-001	2.2725972E-004	9.9237616E+002	1.3670800E-003	1.000000000000000E+000	10	1.0150063E-002	7.8296079E-004	0	1.167293507658598E-004	7.7138461E-002	9.0537833E-005	7.7138513E-002	6.7248337E-002	1.3670220E+000	1.1647556E+003	1.1647565E+003	-8.9932755E+001	0.0000000E+000	0.0000000E+000	0.0000000E+000	8.9932755E+001	0.0000000E+000	0.0000000E+000	0.0000000E+000	-8.9932755E+001	0.0000000E+000	0.0000000E+000	0.0000000E+000	-6.7248337E-002	0.0000000E+000	0.0000000E+000	0.0000000E+000	6.7248337E-002	8.5200256E+002	8.9932755E+001	-5.166132286249227E-007
7.1637817E+003	1.2946866E+001	-4.1969076E-002	1.2946934E+001	1.8573162E-001	2.157674596108409E+002	3.7928972E-001	-6.0528476E-004	-5.2935669E+002	-5.5625425E-003	1.000000000000000E+000	10	1.0747968E-002	8.3015551E-004	0	1.170294406163448E-004	7.7237964E-002	-2.5037763E-004	7.7238366E-002	-1.8573162E-001	-5.5624933E+000	1.7159657E+003	1.7159747E+003	-9.0185730E+001	0.0000000E+000	0.0000000E+000	0.0000000E+000	9.0185730E+001	0.0000000E+000	0.0000000E+000	0.0000000E+000	-9.0185730E+001	0.0000000E+000	0.0000000E+000	0.0000000E+000	1.8573162E-001	0.0000000E+000	0.0000000E+000	0.0000000E+000	-1.8573162E-001	3.0848584E+002	8.9814270E+001	3.000898504849561E-007
4.8715591E+003	1.2959627E+001	-2.3297431E-002	1.2959648E+001	1.0300010E-001	2.164570877502774E+002	3.7931311E-001	-8.8212313E-005	-1.4023103E+003	-4.5318315E-003	1.000000000000000E+000	10	1.0120955E-002	7.8095909E-004	0	1.162207139185727E-004	7.7162459E-002	-1.3871441E-004	7.7162586E-002	-1.0300010E-001	-4.5316868E+000	2.5209150E+003	2.5209192E+003	-9.0102997E+001	0.0000000E+000	0.0000000E+000	0.0000000E+000	9.0102997E+001	0.0000000E+000	0.0000000E+000	0.0000000E+000	-9.0102997E+001	0.0000000E+000	0.0000000E+000	0.0000000E+000	1.0300010E-001	0.0000000E+000	0.0000000E+000	0.0000000E+000	-1.0300010E-001	5.5626849E+002	8.9897003E+001	-8.087266977721173E-007
3.3110596E+003	1.2958551E+001	-8.4514907E-003	1.2958554E+001	3.7367966E-002	2.169210802523157E+002	3.7931034E-001	2.1419383E-004	-5.6874795E+003	-2.4192089E-003	1.000000000000000E+000	10	1.0266021E-002	7.9221959E-004	0	1.163348501508428E-004	7.7169091E-002	-5.0329229E-005	7.7169105E-002	-3.7367966E-002	-2.4192612E+000	3.7093386E+003	3.7093394E+003	-9.0037369E+001	0.0000000E+000	0.0000000E+000	0.0000000E+000	9.0037369E+001	0.0000000E+000	0.0000000E+000	0.0000000E+000	-9.0037369E+001	0.0000000E+000	0.0000000E+000	0.0000000E+000	3.7367966E-002	0.0000000E+000	0.0000000E+000	0.0000000E+000	-3.7367966E-002	1.5332859E+003	8.9962631E+001	1.141362322701404E-007
2.2507205E+003	1.2941329E+001	-1.0351264E-002	1.2941333E+001	4.5828648E-002	2.173860684343963E+002	3.7930956E-001	-2.7488038E-004	-6.8313291E+003	-4.3705283E-003	1.000000000000000E+000	10	1.0331983E-002	7.9837086E-004	0	1.164137144715900E-004	7.7271774E-002	-6.1806677E-005	7.7271797E-002	-4.5828648E-002	-4.3706355E+000	5.4641099E+003	5.4641118E+003	-9.0045830E+001	0.0000000E+000	0.0000000E+000	0.0000000E+000	9.0045830E+001	0.0000000E+000	0.0000000E+000	0.0000000E+000	-9.0045830E+001	0.0000000E+000	0.0000000E+000	0.0000000E+000	4.5828648E-002	0.0000000E+000	0.0000000E+000	0.0000000E+000	-4.5828648E-002	1.2502173E+003	8.9954170E+001	7.886432074721134E-008
1.5304901E+003	1.2931792E+001	-6.7880061E-003	1.2931794E+001	3.0075030E-002	2.178510657098159E+002	3.7931380E-001	-5.9595250E-004	-1.5319599E+004	-4.2209895E-003	1.000000000000000E+000	10	1.0369710E-002	8.0187712E-004	0	1.161338267688601E-004	7.7328786E-002	-4.0590523E-005	7.7328794E-002	-3.0075030E-002	-4.2209954E+000	8.0413838E+003	8.0413848E+003	-9.0030075E+001	0.0000000E+000	0.0000000E+000	0.0000000E+000	9.0030075E+001	0.0000000E+000	0.0000000E+000	0.0000000E+000	-9.0030075E+001	0.0000000E+000	0.0000000E+000	0.0000000E+000	3.0075030E-002	0.0000000E+000	0.0000000E+000	0.0000000E+000	-3.0075030E-002	1.9050944E+003	8.9969925E+001	-2.798877027299697E-007
1.0403328E+003	1.2923592E+001	3.9516704E-004	1.2923592E+001	-1.7519435E-003	2.183161025319059E+002	3.7931246E-001	-7.0982036E-004	3.8713919E+005	3.6196128E-004	1.000000000000000E+000	10	1.0384370E-002	8.0352044E-004	0	1.159244716601517E-004	7.7377871E-002	2.3659973E-006	7.7377871E-002	1.7519435E-003	3.6254331E-001	1.1837626E+004	1.1837626E+004	-8.9998245E+001	0.0000000E+000	0.0000000E+000	0.0000000E+000	8.9998245E+001	0.0000000E+000	0.0000000E+000	0.0000000E+000	-8.9998245E+001	0.0000000E+000	0.0000000E+000	0.0000000E+000	-1.7519435E-003	0.0000000E+000	0.0000000E+000	0.0000000E+000	1.7519435E-003	3.2704123E+004	8.9998245E+001	-2.093551087083189E-007
7.0703625E+002	1.2921845E+001	7.8090788E-003	1.2921847E+001	-3.4625646E-002	2.187805577272520E+002	3.7930566E-001	-9.0077403E-005	2.8825619E+004	1.0527591E-002	1.000000000000000E+000	10	1.0399520E-002	8.0480136E-004	0	1.155744619064426E-004	7.7388301E-002	4.6768197E-005	7.7388316E-002	3.4625646E-002	1.0526543E+001	1.7420225E+004	1.7420229E+004	-8.9965378E+001	0.0000000E+000	0.0000000E+000	0.0000000E+000	8.9965378E+001	0.0000000E+000	0.0000000E+000	0.0000000E+000	-8.9965378E+001	0.0000000E+000	0.0000000E+000	0.0000000E+000	-3.4625646E-002	0.0000000E+000	0.0000000E+000	0.0000000E+000	3.4625646E-002	1.6547208E+003	8.9965378E+001	-3.500097537091472E-007
4.8076920E+002	1.2909686E+001	7.7040070E-003	1.2909688E+001	-3.4191929E-002	2.192458477226755E+002	3.7930918E-001	-1.3351643E-003	4.2970148E+004	1.5302721E-002	1.000000000000000E+000	10	1.0396905E-002	8.0535683E-004	0	1.154035482544374E-004	7.7461191E-002	4.6225879E-005	7.7461205E-002	3.4191929E-002	1.5304072E+001	2.5642932E+004	2.5642936E+004	-8.9965805E+001	0.0000000E+000	0.0000000E+000	0.0000000E+000	8.9965805E+001	0.0000000E+000	0.0000000E+000	0.0000000E+000	-8.9965805E+001	0.0000000E+000	0.0000000E+000	0.0000000E+000	-3.4191929E-002	0.0000000E+000	0.0000000E+000	0.0000000E+000	3.4191929E-002	1.6757106E+003	8.9965805E+001	-1.709136520051604E-007
3.2677771E+002	1.2901334E+001	1.7789196E-002	1.2901346E+001	-7.9003088E-002	2.197090368914032E+002	3.7930617E-001	-1.6637035E-003	2.7378609E+004	5.2053984E-002	1.000000000000000E+000	10	1.0401527E-002	8.0623582E-004	0	1.148028281950457E-004	7.7511214E-002	1.0687749E-004	7.7511288E-002	7.9003088E-002	5.2053520E+001	3.7751332E+004	3.7751367E+004	-8.9920998E+001	0.0000000E+000	0.0000000E+000	0.0000000E+000	8.9920998E+001	0.0000000E+000	0.0000000E+000	0.0000000E+000	-8.9920998E+001	0.0000000E+000	0.0000000E+000	0.0000000E+000	-7.9003088E-002	0.0000000E+000	0.0000000E+000	0.0000000E+000	7.9003088E-002	7.2523419E+002	8.9920998E+001	-6.007200593917790E-007
2.2206076E+002	1.2905831E+001	2.7627181E-002	1.2905861E+001	-1.2265141E-001	2.201702896599454E+002	3.7929827E-001	-7.4155518E-004	2.5942494E+004	1.1888058E-001	1.000000000000000E+000	10	1.0407250E-002	8.0639723E-004	0	1.154788314942368E-004	7.7483997E-002	1.6586800E-004	7.7484176E-002	1.2265141E-001	1.1887936E+002	5.5534176E+004	5.5534305E+004	-8.9877350E+001	0.0000000E+000	0.0000000E+000	0.0000000E+000	8.9877350E+001	0.0000000E+000	0.0000000E+000	0.0000000E+000	-8.9877350E+001	0.0000000E+000	0.0000000E+000	0.0000000E+000	-1.2265141E-001	0.0000000E+000	0.0000000E+000	0.0000000E+000	1.2265141E-001	4.6714252E+002	8.9877350E+001	6.760032991910984E-007
1.5101485E+002	1.2896921E+001	4.8713114E-002	1.2897013E+001	-2.1641156E-001	2.206318052018614E+002	3.7930372E-001	-8.0315501E-004	2.1634885E+004	3.0865133E-001	1.000000000000000E+000	10	1.0405642E-002	8.0682576E-004	0	1.149025379994871E-004	7.7536784E-002	2.9286512E-004	7.7537335E-002	2.1641156E-001	3.0864590E+002	8.1716211E+004	8.1716797E+004	-8.9783592E+001	0.0000000E+000	0.0000000E+000	0.0000000E+000	8.9783592E+001	0.0000000E+000	0.0000000E+000	0.0000000E+000	-8.9783592E+001	0.0000000E+000	0.0000000E+000	0.0000000E+000	-2.1641156E-001	0.0000000E+000	0.0000000E+000	0.0000000E+000	2.1641156E-001	2.6475256E+002	8.9783592E+001	-5.762934947496379E-007
1.0266736E+002	1.2901680E+001	6.5907724E-002	1.2901849E+001	-2.9269069E-001	2.211067087710690E+002	3.7931183E-001	-9.0395735E-004	2.3520762E+004	6.1379045E-001	1.000000000000000E+000	10	1.0406908E-002	8.0662145E-004	0	1.143869124126439E-004	7.7507257E-002	3.9594280E-004	7.7508271E-002	2.9269069E-001	6.1379767E+002	1.2015176E+005	1.2015333E+005	-8.9707306E+001	0.0000000E+000	0.0000000E+000	0.0000000E+000	8.9707306E+001	0.0000000E+000	0.0000000E+000	0.0000000E+000	-8.9707306E+001	0.0000000E+000	0.0000000E+000	0.0000000E+000	-2.9269069E-001	0.0000000E+000	0.0000000E+000	0.0000000E+000	2.9269069E-001	1.9575369E+002	8.9707306E+001	-5.156255868431697E-007
6.9754463E+001	1.2895532E+001	9.3620539E-002	1.2895871E+001	-4.1595554E-001	2.215748532733269E+002	3.7930498E-001	2.0672864E-004	2.4371205E+004	1.2844521E+000	1.000000000000000E+000	10	1.0407184E-002	8.0701674E-004	0	1.143322366580703E-004	7.7542156E-002	5.6294992E-004	7.7544197E-002	4.1595554E-001	1.2844492E+003	1.7692370E+005	1.7692836E+005	-8.9584045E+001	0.0000000E+000	0.0000000E+000	0.0000000E+000	8.9584045E+001	0.0000000E+000	0.0000000E+000	0.0000000E+000	-8.9584045E+001	0.0000000E+000	0.0000000E+000	0.0000000E+000	-4.1595554E-001	0.0000000E+000	0.0000000E+000	0.0000000E+000	4.1595554E-001	1.3774255E+002	8.9584045E+001	-5.467575457360522E-008
4.7444328E+001	1.2904166E+001	1.2199935E-001	1.2904743E+001	-5.4167306E-001	2.220188475877367E+002	3.7929732E-001	-2.6941211E-003	2.7496559E+004	2.4575062E+000	1.000000000000000E+000	10	1.0410377E-002	8.0670934E-004	0	1.137496711773597E-004	7.7487424E-002	7.3258625E-004	7.7490889E-002	5.4167306E-001	2.4575000E+003	2.5993638E+005	2.5994798E+005	-8.9458328E+001	0.0000000E+000	0.0000000E+000	0.0000000E+000	8.9458328E+001	0.0000000E+000	0.0000000E+000	0.0000000E+000	-8.9458328E+001	0.0000000E+000	0.0000000E+000	0.0000000E+000	-5.4167306E-001	0.0000000E+000	0.0000000E+000	0.0000000E+000	5.4167306E-001	1.0577242E+002	8.9458328E+001	-5.825654807105991E-007
3.2238655E+001	1.2909627E+001	1.8327557E-001	1.2910928E+001	-8.1336284E-001	2.224562674751942E+002	3.7928763E-001	-2.1247787E-003	2.6936344E+004	5.4279127E+000	1.000000000000000E+000	10	1.0414604E-002	8.0665032E-004	0	1.129196405872353E-004	7.7445969E-002	1.0994859E-003	7.7453770E-002	8.1336284E-001	5.4279087E+003	3.8233322E+005	3.8237175E+005	-8.9186638E+001	0.0000000E+000	0.0000000E+000	0.0000000E+000	8.9186638E+001	0.0000000E+000	0.0000000E+000	0.0000000E+000	-8.9186638E+001	0.0000000E+000	0.0000000E+000	0.0000000E+000	-8.1336284E-001	0.0000000E+000	0.0000000E+000	0.0000000E+000	8.1336284E-001	7.0438339E+001	8.9186638E+001	-8.300305901244045E-007
