EC-Lab ASCII FILE
Nb header lines : 63                          

Potentio Electrochemical Impedance Spectroscopy

Run on channel : 1 (SN 66412)
User : 
CE vs. WE compliance from -10 V to 10 V
Electrode connection : standard
Potential control : Ewe
Ewe ctrl range : min = -1.00 V, max = 1.00 V
Safety Limits :
	Do not start on E overload
Acquisition started on : 02/01/2024 14:47:09.385
Loaded Setting File :  C:\Users\NakamuraT\Documents\EC-Lab\Data\Yatsuzuka\20240126_2-102_Add_Na\20240201_2-102_014_preconditioning_elctrode6.mps
Saved on :
	File : 20240201_2-102_013_preconditioning_elctrode5_02_PEIS_C01.mpr
	Directory : C:\Users\NakamuraT\Documents\EC-Lab\Data\Yatsuzuka\20240126_2-102_Add_Na\
	Host : 192.109.209.100
Device : SP-150e (SN .003411)
Address : 192.109.209.236
EC-Lab for windows v11.50 (software)
Internet server v11.50 (firmware)
Command interpretor v11.50 (firmware)
Electrode material : 
Initial state : 
Electrolyte : 
Comments : 
Electrode surface area : 0.001 cm2
Characteristic mass : 0.001 g
Equivalent Weight : 0.000 g/eq.
Density : 0.000 g/cm3
Volume (V) : 0.001 cm3
Cycle Definition : Charge/Discharge alternance
Mode                Single sine         
E (V)               0.4000              
vs.                 Eoc                 
tE (h:m:s)          0:00:0.0000         
record              0                   
dI                  0.000               
unit dI             mA                  
dt (s)              0.000               
fi                  500.000             
unit fi             kHz                 
ff                  1.000               
unit ff             Hz                  
Nd                  6                   
Points              per decade          
spacing             Logarithmic         
Va (mV)             10.0                
pw                  0.10                
Na                  2                   
corr                0                   
E range min (V)     -1.000              
E range max (V)     1.000               
I Range             Auto                
Bandwidth           5                   
nc cycles           0                   
goto Ns'            0                   
nr cycles           0                   
inc. cycle          0                   

freq/Hz	Re(Z)/Ohm	-Im(Z)/Ohm	|Z|/Ohm	Phase(Z)/deg	time/s	<Ewe>/V	<I>/mA	Cs/uF	Cp/uF	cycle number	I Range	|Ewe|/V	|I|/A	Ns	(Q-Qo)/mA.h	Re(Y)/Ohm-1	Im(Y)/Ohm-1	|Y|/Ohm-1	Phase(Y)/deg	Re(C)/nF	Im(C)/nF	|C|/nF	Phase(C)/deg	Re(M)	Im(M)	|M|	Phase(M)/deg	Re(Permittivity)	Im(Permittivity)	|Permittivity|	Phase(Permittivity)/deg	Re(Resistivity)/Ohm.cm	Im(Resistivity)/Ohm.cm	|Resistivity|/Ohm.cm	Phase(Resistivity)/deg	Re(Conductivity)/mS/cm	Im(Conductivity)/mS/cm	|Conductivity|/mS/cm	Phase(Conductivity)/deg	Tan(Delta)	Loss Angle(Delta)/deg	dq/mA.h	
5.0001856E+005	2.9282867E+001	-1.9919626E-001	2.9283545E+001	3.8974768E-001	2.112098803008703E+002	3.1071365E-001	-8.4382258E-002	-1.5979118E+000	-7.3938034E-005	1.000000000000000E+000	10	1.0145375E-002	3.4645310E-004	0	-9.183559373908954E-005	3.4148082E-002	-2.3229182E-004	3.4148872E-002	-3.8974768E-001	-7.3938020E-002	1.0869267E+001	1.0869519E+001	-9.0389748E+001	0.0000000E+000	0.0000000E+000	0.0000000E+000	9.0389748E+001	0.0000000E+000	0.0000000E+000	0.0000000E+000	-9.0389748E+001	0.0000000E+000	0.0000000E+000	0.0000000E+000	3.8974768E-001	0.0000000E+000	0.0000000E+000	0.0000000E+000	-3.8974768E-001	1.4700510E+002	8.9610252E+001	-9.183559373908954E-005
3.3989941E+005	1.8001701E+001	-3.5225606E+000	1.8343109E+001	1.1071701E+001	2.116318825609196E+002	3.1065533E-001	-5.3124420E-002	-1.3292640E-001	-4.9021016E-003	1.000000000000000E+000	10	1.0538192E-002	5.7450408E-004	0	-9.867621380698014E-005	5.3501707E-002	-1.0469178E-002	5.4516386E-002	-1.1071701E+001	-4.9021015E+000	2.5051708E+001	2.5526823E+001	-1.0107170E+002	0.0000000E+000	0.0000000E+000	0.0000000E+000	1.0107170E+002	0.0000000E+000	0.0000000E+000	0.0000000E+000	-1.0107170E+002	0.0000000E+000	0.0000000E+000	0.0000000E+000	1.1071701E+001	0.0000000E+000	0.0000000E+000	0.0000000E+000	-1.1071701E+001	5.1104021E+000	7.8928299E+001	-6.840620067890597E-006
2.3106258E+005	1.3819467E+001	-2.2512236E+000	1.4001631E+001	9.2523441E+000	2.120538662875915E+002	3.1061366E-001	-3.9678626E-002	-3.0596510E-001	-7.9095522E-003	1.000000000000000E+000	10	1.0769222E-002	7.6914055E-004	0	-1.034015229791274E-004	7.0491061E-002	-1.1483159E-002	7.1420252E-002	-9.2523441E+000	-7.9095497E+000	4.8553947E+001	4.9193970E+001	-9.9252342E+001	0.0000000E+000	0.0000000E+000	0.0000000E+000	9.9252342E+001	0.0000000E+000	0.0000000E+000	0.0000000E+000	-9.9252342E+001	0.0000000E+000	0.0000000E+000	0.0000000E+000	9.2523441E+000	0.0000000E+000	0.0000000E+000	0.0000000E+000	-9.2523441E+000	6.1386471E+000	8.0747658E+001	-4.725309172147214E-006
1.5707578E+005	1.2545512E+001	-1.1493193E+000	1.2598048E+001	5.2343693E+000	2.126118748207955E+002	3.1062084E-001	-2.9557893E-002	-8.8159722E-001	-7.3374487E-003	1.000000000000000E+000	10	1.0077525E-002	7.9992745E-004	0	-1.080672496480272E-004	7.9046361E-002	-7.2415941E-003	7.9377376E-002	-5.2343693E+000	-7.3374462E+000	8.0092674E+001	8.0428070E+001	-9.5234367E+001	0.0000000E+000	0.0000000E+000	0.0000000E+000	9.5234367E+001	0.0000000E+000	0.0000000E+000	0.0000000E+000	-9.5234367E+001	0.0000000E+000	0.0000000E+000	0.0000000E+000	5.2343693E+000	0.0000000E+000	0.0000000E+000	0.0000000E+000	-5.2343693E+000	1.0915603E+001	8.4765633E+001	-4.665726668899868E-006
1.0678630E+005	1.2212339E+001	-5.9798902E-001	1.2226972E+001	2.8033042E+000	2.130338665741292E+002	3.1062007E-001	-2.6553763E-002	-2.4923637E+000	-5.9615616E-003	1.000000000000000E+000	10	1.0686241E-002	8.7398919E-004	0	-1.108579511477793E-004	8.1688531E-002	-3.9999578E-003	8.1786402E-002	-2.8033042E+000	-5.9615660E+000	1.2174908E+002	1.2189494E+002	-9.2803307E+001	0.0000000E+000	0.0000000E+000	0.0000000E+000	9.2803307E+001	0.0000000E+000	0.0000000E+000	0.0000000E+000	-9.2803307E+001	0.0000000E+000	0.0000000E+000	0.0000000E+000	2.8033042E+000	0.0000000E+000	0.0000000E+000	0.0000000E+000	-2.8033042E+000	2.0422348E+001	8.7196693E+001	-2.790701499752091E-006
7.2595008E+004	1.2099048E+001	-3.5544017E-001	1.2104267E+001	1.6827247E+000	2.134568708875595E+002	3.1062207E-001	-2.4887500E-002	-6.1680355E+000	-5.3186682E-003	1.000000000000000E+000	10	1.0579262E-002	8.7401096E-004	0	-1.124285356306128E-004	8.2579866E-002	-2.4259929E-003	8.2615495E-002	-1.6827247E+000	-5.3186655E+000	1.8104541E+002	1.8112352E+002	-9.1682724E+001	0.0000000E+000	0.0000000E+000	0.0000000E+000	9.1682724E+001	0.0000000E+000	0.0000000E+000	0.0000000E+000	-9.1682724E+001	0.0000000E+000	0.0000000E+000	0.0000000E+000	1.6827247E+000	0.0000000E+000	0.0000000E+000	0.0000000E+000	-1.6827247E+000	3.4039619E+001	8.8317276E+001	-1.570584482833497E-006
4.9352359E+004	1.2032070E+001	-2.2771263E-001	1.2034225E+001	1.0842204E+000	2.138788852276193E+002	3.1062219E-001	-2.4212038E-002	-1.4162016E+001	-5.0706440E-003	1.000000000000000E+000	10	1.0494584E-002	8.7206153E-004	0	-1.156713040100876E-004	8.3081461E-002	-1.5723561E-003	8.3096340E-002	-1.0842204E+000	-5.0706463E+000	2.6792691E+002	2.6797488E+002	-9.1084221E+001	0.0000000E+000	0.0000000E+000	0.0000000E+000	9.1084221E+001	0.0000000E+000	0.0000000E+000	0.0000000E+000	-9.1084221E+001	0.0000000E+000	0.0000000E+000	0.0000000E+000	1.0842204E+000	0.0000000E+000	0.0000000E+000	0.0000000E+000	-1.0842204E+000	5.2838837E+001	8.8915779E+001	-3.242768379474814E-006
3.3551066E+004	1.1992869E+001	-1.5258528E-001	1.1993840E+001	7.2893488E-001	2.143008730610163E+002	3.1063294E-001	-2.2982402E-002	-3.1088600E+001	-5.0316444E-003	1.000000000000000E+000	10	1.0397857E-002	8.6693309E-004	0	-1.199012557415667E-004	8.3369382E-002	-1.0607087E-003	8.3376132E-002	-7.2893488E-001	-5.0316472E+000	3.9547626E+002	3.9550827E+002	-9.0728935E+001	0.0000000E+000	0.0000000E+000	0.0000000E+000	9.0728935E+001	0.0000000E+000	0.0000000E+000	0.0000000E+000	-9.0728935E+001	0.0000000E+000	0.0000000E+000	0.0000000E+000	7.2893488E-001	0.0000000E+000	0.0000000E+000	0.0000000E+000	-7.2893488E-001	7.8597809E+001	8.9271065E+001	-4.229951731479057E-006
2.2806563E+004	1.1990158E+001	-1.0259575E-001	1.1990597E+001	4.9024877E-001	2.147238846277614E+002	3.1063208E-001	-2.2566302E-002	-6.8019104E+001	-4.9797562E-003	1.000000000000000E+000	10	1.0285365E-002	8.5778593E-004	0	-1.219377435005024E-004	8.3395630E-002	-7.1358838E-004	8.3398685E-002	-4.9024877E-001	-4.9797649E+000	5.8197400E+002	5.8199530E+002	-9.0490250E+001	0.0000000E+000	0.0000000E+000	0.0000000E+000	9.0490250E+001	0.0000000E+000	0.0000000E+000	0.0000000E+000	-9.0490250E+001	0.0000000E+000	0.0000000E+000	0.0000000E+000	4.9024877E-001	0.0000000E+000	0.0000000E+000	0.0000000E+000	-4.9024877E-001	1.1686797E+002	8.9509750E+001	-2.036487758935731E-006
1.5504379E+004	1.1989431E+001	-7.2765969E-002	1.1989653E+001	3.4773389E-001	2.151468875278515E+002	3.1062946E-001	-2.2704380E-002	-1.4107091E+002	-5.1961406E-003	1.000000000000000E+000	10	1.0242823E-002	8.5430522E-004	0	-1.258453417355518E-004	8.3403714E-002	-5.0619181E-004	8.3405249E-002	-3.4773389E-001	-5.1961198E+000	8.5615253E+002	8.5616827E+002	-9.0347733E+001	0.0000000E+000	0.0000000E+000	0.0000000E+000	9.0347733E+001	0.0000000E+000	0.0000000E+000	0.0000000E+000	-9.0347733E+001	0.0000000E+000	0.0000000E+000	0.0000000E+000	3.4773389E-001	0.0000000E+000	0.0000000E+000	0.0000000E+000	-3.4773389E-001	1.6476701E+002	8.9652267E+001	-3.907598235049391E-006
1.0540381E+004	1.1974677E+001	-4.9216300E-002	1.1974778E+001	2.3548613E-001	2.155688790945715E+002	3.1063393E-001	-2.1323601E-002	-3.0679965E+002	-5.1824828E-003	1.000000000000000E+000	10	1.0105745E-002	8.4391917E-004	0	-1.278333102147347E-004	8.3508149E-002	-3.4322112E-004	8.3508857E-002	-2.3548613E-001	-5.1825433E+000	1.2609351E+003	1.2609457E+003	-9.0235489E+001	0.0000000E+000	0.0000000E+000	0.0000000E+000	9.0235489E+001	0.0000000E+000	0.0000000E+000	0.0000000E+000	-9.0235489E+001	0.0000000E+000	0.0000000E+000	0.0000000E+000	2.3548613E-001	0.0000000E+000	0.0000000E+000	0.0000000E+000	-2.3548613E-001	2.4330714E+002	8.9764511E+001	-1.987968479182924E-006
7.1637817E+003	1.1986402E+001	-4.0437039E-002	1.1986470E+001	1.9329093E-001	2.159254602581932E+002	3.1063527E-001	-1.9853257E-002	-5.4941235E+002	-6.2527996E-003	1.000000000000000E+000	10	1.0690792E-002	8.9190487E-004	0	-1.303681691080435E-004	8.3426923E-002	-2.8144708E-004	8.3427399E-002	-1.9329093E-001	-6.2527919E+000	1.8534633E+003	1.8534738E+003	-9.0193291E+001	0.0000000E+000	0.0000000E+000	0.0000000E+000	9.0193291E+001	0.0000000E+000	0.0000000E+000	0.0000000E+000	-9.0193291E+001	0.0000000E+000	0.0000000E+000	0.0000000E+000	1.9329093E-001	0.0000000E+000	0.0000000E+000	0.0000000E+000	-1.9329093E-001	2.9642136E+002	8.9806709E+001	-2.534858893308797E-006
4.8715591E+003	1.1975433E+001	-2.0729238E-002	1.1975451E+001	9.9177763E-002	2.163940876671331E+002	3.1064191E-001	-1.8756097E-002	-1.5760458E+003	-4.7222800E-003	1.000000000000000E+000	10	1.0986124E-002	9.1738702E-004	0	-1.319475403585529E-004	8.3504029E-002	-1.4454382E-004	8.3504155E-002	-9.9177763E-002	-4.7221246E+000	2.7280957E+003	2.7280999E+003	-9.0099174E+001	0.0000000E+000	0.0000000E+000	0.0000000E+000	9.0099174E+001	0.0000000E+000	0.0000000E+000	0.0000000E+000	-9.0099174E+001	0.0000000E+000	0.0000000E+000	0.0000000E+000	9.9177763E-002	0.0000000E+000	0.0000000E+000	0.0000000E+000	-9.9177763E-002	5.7770734E+002	8.9900826E+001	-1.579371250509426E-006
3.3110596E+003	1.1968617E+001	-1.9010661E-002	1.1968633E+001	9.1007151E-002	2.170810705264303E+002	3.1064481E-001	-1.7435033E-002	-2.5284590E+003	-6.3791275E-003	1.000000000000000E+000	10	1.0166528E-002	8.4943097E-004	0	-1.352009549101866E-004	8.3551630E-002	-1.3271139E-004	8.3551735E-002	-9.1007151E-002	-6.3788667E+000	4.0161331E+003	4.0161382E+003	-9.0091003E+001	0.0000000E+000	0.0000000E+000	0.0000000E+000	9.0091003E+001	0.0000000E+000	0.0000000E+000	0.0000000E+000	-9.0091003E+001	0.0000000E+000	0.0000000E+000	0.0000000E+000	9.1007151E-002	0.0000000E+000	0.0000000E+000	0.0000000E+000	-9.1007151E-002	6.2957397E+002	8.9908997E+001	-3.253414551633680E-006
2.2507205E+003	1.1979266E+001	-1.0030554E-002	1.1979270E+001	4.7975250E-002	2.175460661751858E+002	3.1065762E-001	-1.5839674E-002	-7.0497495E+003	-4.9426835E-003	1.000000000000000E+000	10	1.0237638E-002	8.5461285E-004	0	-1.366745174031368E-004	8.3477512E-002	-6.9897913E-005	8.3477542E-002	-4.7975250E-002	-4.9425168E+000	5.9029360E+003	5.9029380E+003	-9.0047974E+001	0.0000000E+000	0.0000000E+000	0.0000000E+000	9.0047974E+001	0.0000000E+000	0.0000000E+000	0.0000000E+000	-9.0047974E+001	0.0000000E+000	0.0000000E+000	0.0000000E+000	4.7975250E-002	0.0000000E+000	0.0000000E+000	0.0000000E+000	-4.7975250E-002	1.1942777E+003	8.9952026E+001	-1.473562492950212E-006
1.5304901E+003	1.1965937E+001	4.6318644E-003	1.1965938E+001	-2.2178479E-002	2.180110878772757E+002	3.1065488E-001	-1.6029997E-002	2.2450902E+004	3.3639690E-003	1.000000000000000E+000	10	1.0265219E-002	8.5786998E-004	0	-1.380873226061166E-004	8.3570540E-002	3.2349111E-005	8.3570547E-002	2.2178479E-002	3.3639948E+000	8.6904609E+003	8.6904619E+003	-8.9977821E+001	0.0000000E+000	0.0000000E+000	0.0000000E+000	8.9977821E+001	0.0000000E+000	0.0000000E+000	0.0000000E+000	-8.9977821E+001	0.0000000E+000	0.0000000E+000	0.0000000E+000	-2.2178479E-002	0.0000000E+000	0.0000000E+000	0.0000000E+000	2.2178479E-002	2.5833953E+003	8.9977821E+001	-1.412805202979738E-006
1.0403328E+003	1.1964407E+001	5.9301574E-003	1.1964409E+001	-2.8398646E-002	2.184760704060245E+002	3.1065714E-001	-1.6089704E-002	2.5797740E+004	6.3376985E-003	1.000000000000000E+000	10	1.0277577E-002	8.5901248E-004	0	-1.408638000748049E-004	8.3581224E-002	4.1427025E-005	8.3581232E-002	2.8398646E-002	6.3372445E+000	1.2786645E+004	1.2786646E+004	-8.9971603E+001	0.0000000E+000	0.0000000E+000	0.0000000E+000	8.9971603E+001	0.0000000E+000	0.0000000E+000	0.0000000E+000	-8.9971603E+001	0.0000000E+000	0.0000000E+000	0.0000000E+000	-2.8398646E-002	0.0000000E+000	0.0000000E+000	0.0000000E+000	2.8398646E-002	2.0175530E+003	8.9971603E+001	-2.776477468688327E-006
7.0703625E+002	1.1974014E+001	4.8155589E-003	1.1974015E+001	-2.3042496E-002	2.189405596280267E+002	3.1065464E-001	-1.7852996E-002	4.6744633E+004	7.5604129E-003	1.000000000000000E+000	10	1.0294277E-002	8.5971807E-004	0	-1.425189041801108E-004	8.3514169E-002	3.3586679E-005	8.3514176E-002	2.3042496E-002	7.5598469E+000	1.8799166E+004	1.8799168E+004	-8.9976959E+001	0.0000000E+000	0.0000000E+000	0.0000000E+000	8.9976959E+001	0.0000000E+000	0.0000000E+000	0.0000000E+000	-8.9976959E+001	0.0000000E+000	0.0000000E+000	0.0000000E+000	-2.3042496E-002	0.0000000E+000	0.0000000E+000	0.0000000E+000	2.3042496E-002	2.4865264E+003	8.9976959E+001	-1.655104105305848E-006
4.8076920E+002	1.1971433E+001	2.7602954E-002	1.1971464E+001	-1.3210866E-001	2.194058324501530E+002	3.1065199E-001	-1.6586039E-002	1.1993003E+004	6.3759446E-002	1.000000000000000E+000	10	1.0295258E-002	8.5998321E-004	0	-1.442163463004011E-004	8.3531745E-002	1.9260208E-004	8.3531968E-002	1.3210866E-001	6.3760372E+001	2.7652541E+004	2.7652615E+004	-8.9867889E+001	0.0000000E+000	0.0000000E+000	0.0000000E+000	8.9867889E+001	0.0000000E+000	0.0000000E+000	0.0000000E+000	-8.9867889E+001	0.0000000E+000	0.0000000E+000	0.0000000E+000	-1.3210866E-001	0.0000000E+000	0.0000000E+000	0.0000000E+000	1.3210866E-001	4.3370114E+002	8.9867889E+001	-1.697442120290351E-006
3.2677771E+002	1.1972041E+001	3.5823002E-002	1.1972095E+001	-1.7144117E-001	2.198690680188593E+002	3.1064874E-001	-1.5526199E-002	1.3595830E+004	1.2172771E-001	1.000000000000000E+000	10	1.0299643E-002	8.6030416E-004	0	-1.458811282502267E-004	8.3527200E-002	2.4993191E-004	8.3527572E-002	1.7144117E-001	1.2172695E+002	4.0681371E+004	4.0681555E+004	-8.9828560E+001	0.0000000E+000	0.0000000E+000	0.0000000E+000	8.9828560E+001	0.0000000E+000	0.0000000E+000	0.0000000E+000	-8.9828560E+001	0.0000000E+000	0.0000000E+000	0.0000000E+000	-1.7144117E-001	0.0000000E+000	0.0000000E+000	0.0000000E+000	1.7144117E-001	3.3419983E+002	8.9828560E+001	-1.664781949825626E-006
2.2206076E+002	1.1970270E+001	5.0327655E-002	1.1970376E+001	-2.4089223E-001	2.203302728407580E+002	3.1064051E-001	-1.6171806E-002	1.4241037E+004	2.5173259E-001	1.000000000000000E+000	10	1.0302523E-002	8.6066831E-004	0	-1.484490846116419E-004	8.3538830E-002	3.5122960E-004	8.3539568E-002	2.4089223E-001	2.5173076E+002	5.9873781E+004	5.9874309E+004	-8.9759109E+001	0.0000000E+000	0.0000000E+000	0.0000000E+000	8.9759109E+001	0.0000000E+000	0.0000000E+000	0.0000000E+000	-8.9759109E+001	0.0000000E+000	0.0000000E+000	0.0000000E+000	-2.4089223E-001	0.0000000E+000	0.0000000E+000	0.0000000E+000	2.4089223E-001	2.3784677E+002	8.9759109E+001	-2.567956361415195E-006
1.5101485E+002	1.1980116E+001	6.4556532E-002	1.1980289E+001	-3.0874333E-001	2.207918072893081E+002	3.1065336E-001	-1.7095435E-002	1.6325268E+004	4.7403026E-001	1.000000000000000E+000	10	1.0303539E-002	8.6004095E-004	0	-1.504920913007291E-004	8.3469220E-002	4.4978558E-004	8.3470434E-002	3.0874333E-001	4.7403482E+002	8.7968438E+004	8.7969711E+004	-8.9691254E+001	0.0000000E+000	0.0000000E+000	0.0000000E+000	8.9691254E+001	0.0000000E+000	0.0000000E+000	0.0000000E+000	-8.9691254E+001	0.0000000E+000	0.0000000E+000	0.0000000E+000	-3.0874333E-001	0.0000000E+000	0.0000000E+000	0.0000000E+000	3.0874333E-001	1.8557558E+002	8.9691254E+001	-2.043006689087212E-006
1.0266736E+002	1.1973933E+001	9.8747201E-002	1.1974340E+001	-4.7249883E-001	2.212667023518734E+002	3.1066006E-001	-1.7267099E-002	1.5698672E+004	1.0676018E+000	1.000000000000000E+000	10	1.0303725E-002	8.6048379E-004	0	-1.531648939925459E-004	8.3509065E-002	6.8868650E-004	8.3511904E-002	4.7249883E-001	1.0675955E+003	1.2945576E+005	1.2946016E+005	-8.9527504E+001	0.0000000E+000	0.0000000E+000	0.0000000E+000	8.9527504E+001	0.0000000E+000	0.0000000E+000	0.0000000E+000	-8.9527504E+001	0.0000000E+000	0.0000000E+000	0.0000000E+000	-4.7249883E-001	0.0000000E+000	0.0000000E+000	0.0000000E+000	4.7249883E-001	1.2125845E+002	8.9527504E+001	-2.672802691816800E-006
6.9754463E+001	1.1987880E+001	1.3861519E-001	1.1988681E+001	-6.6247839E-001	2.217338662407274E+002	3.1064481E-001	-1.6899513E-002	1.6460283E+004	2.2004735E+000	1.000000000000000E+000	10	1.0310470E-002	8.6001708E-004	0	-1.558619533978183E-004	8.3406441E-002	9.6442399E-004	8.3412014E-002	6.6247839E-001	2.2004641E+003	1.9030391E+005	1.9031663E+005	-8.9337524E+001	0.0000000E+000	0.0000000E+000	0.0000000E+000	8.9337524E+001	0.0000000E+000	0.0000000E+000	0.0000000E+000	-8.9337524E+001	0.0000000E+000	0.0000000E+000	0.0000000E+000	-6.6247839E-001	0.0000000E+000	0.0000000E+000	0.0000000E+000	6.6247839E-001	8.6483162E+001	8.9337524E+001	-2.697059405272332E-006
4.7444328E+001	1.1990221E+001	1.8960279E-001	1.1991720E+001	-9.0594947E-001	2.221778604751598E+002	3.1064081E-001	-1.5302289E-002	1.7692578E+004	4.4230065E+000	1.000000000000000E+000	10	1.0305296E-002	8.5936760E-004	0	-1.586605814105909E-004	8.3380446E-002	1.3185049E-003	8.3390869E-002	9.0594947E-001	4.4230210E+003	2.7970488E+005	2.7973984E+005	-8.9094048E+001	0.0000000E+000	0.0000000E+000	0.0000000E+000	8.9094048E+001	0.0000000E+000	0.0000000E+000	0.0000000E+000	-8.9094048E+001	0.0000000E+000	0.0000000E+000	0.0000000E+000	-9.0594947E-001	0.0000000E+000	0.0000000E+000	0.0000000E+000	9.0594947E-001	6.3238632E+001	8.9094048E+001	-2.798628012772600E-006
