EC-Lab ASCII FILE
Nb header lines : 63                          

Potentio Electrochemical Impedance Spectroscopy

Run on channel : 2 (SN 66414)
User : 
CE vs. WE compliance from -10 V to 10 V
Electrode connection : standard
Potential control : Ewe
Ewe ctrl range : min = -1.00 V, max = 1.00 V
Safety Limits :
	Do not start on E overload
Acquisition started on : 01/26/2024 17:15:30.810
Loaded Setting File :  C:\Users\NakamuraT\Documents\EC-Lab\Data\Yatsuzuka\20240126_2-102_Add_Na\20240125_2-102_007_preconditioning_elctrode3.mps
Saved on :
	File : 20240125_2-102_008_preconditiioning_elctrode4_02_PEIS_C02.mpr
	Directory : C:\Users\NakamuraT\Documents\EC-Lab\Data\Yatsuzuka\20240126_2-102_Add_Na\
	Host : 192.109.209.100
Device : SP-150e (SN .003411)
Address : 192.109.209.236
EC-Lab for windows v11.50 (software)
Internet server v11.50 (firmware)
Command interpretor v11.50 (firmware)
Electrode material : 
Initial state : 
Electrolyte : 
Comments : 
Electrode surface area : 0.001 cm2
Characteristic mass : 0.001 g
Equivalent Weight : 0.000 g/eq.
Density : 0.000 g/cm3
Volume (V) : 0.001 cm3
Cycle Definition : Charge/Discharge alternance
Mode                Single sine         
E (V)               0.4000              
vs.                 Eoc                 
tE (h:m:s)          0:00:0.0000         
record              0                   
dI                  0.000               
unit dI             mA                  
dt (s)              0.000               
fi                  500.000             
unit fi             kHz                 
ff                  1.000               
unit ff             Hz                  
Nd                  6                   
Points              per decade          
spacing             Logarithmic         
Va (mV)             10.0                
pw                  0.10                
Na                  2                   
corr                0                   
E range min (V)     -1.000              
E range max (V)     1.000               
I Range             Auto                
Bandwidth           5                   
nc cycles           0                   
goto Ns'            0                   
nr cycles           0                   
inc. cycle          0                   

freq/Hz	Re(Z)/Ohm	-Im(Z)/Ohm	|Z|/Ohm	Phase(Z)/deg	time/s	<Ewe>/V	<I>/mA	Cs/uF	Cp/uF	cycle number	I Range	|Ewe|/V	|I|/A	Ns	(Q-Qo)/mA.h	Re(Y)/Ohm-1	Im(Y)/Ohm-1	|Y|/Ohm-1	Phase(Y)/deg	Re(C)/nF	Im(C)/nF	|C|/nF	Phase(C)/deg	Re(M)	Im(M)	|M|	Phase(M)/deg	Re(Permittivity)	Im(Permittivity)	|Permittivity|	Phase(Permittivity)/deg	Re(Resistivity)/Ohm.cm	Im(Resistivity)/Ohm.cm	|Resistivity|/Ohm.cm	Phase(Resistivity)/deg	Re(Conductivity)/mS/cm	Im(Conductivity)/mS/cm	|Conductivity|/mS/cm	Phase(Conductivity)/deg	Tan(Delta)	Loss Angle(Delta)/deg	dq/mA.h	
5.0001856E+005	3.1669756E+001	7.0590239E+000	3.2446930E+001	-1.2565525E+001	2.112058673676365E+002	3.2919198E-001	-1.1634620E-001	4.5090947E-002	2.1341820E-003	1.000000000000000E+000	10	1.0303952E-002	3.1756324E-004	0	-1.045467564116742E-004	3.0081363E-002	6.7049796E-003	3.0819558E-002	1.2565525E+001	2.1341815E+000	9.5748396E+000	9.8098059E+000	-7.7434479E+001	0.0000000E+000	0.0000000E+000	0.0000000E+000	7.7434479E+001	0.0000000E+000	0.0000000E+000	0.0000000E+000	-7.7434479E+001	0.0000000E+000	0.0000000E+000	0.0000000E+000	-1.2565525E+001	0.0000000E+000	0.0000000E+000	0.0000000E+000	1.2565525E+001	4.4864216E+000	7.7434479E+001	-1.045467564116742E-004
3.3989941E+005	2.0786793E+001	-3.4314952E+000	2.1068125E+001	9.3738775E+000	2.116278709343314E+002	3.2912326E-001	-5.6311309E-002	-1.3645402E-001	-3.6199398E-003	1.000000000000000E+000	10	1.0647360E-002	5.0537771E-004	0	-1.134276849648369E-004	4.6831243E-002	-7.7309273E-003	4.7465067E-002	-9.3738775E+000	-3.6199400E+000	2.1928324E+001	2.2225107E+001	-9.9373878E+001	0.0000000E+000	0.0000000E+000	0.0000000E+000	9.9373878E+001	0.0000000E+000	0.0000000E+000	0.0000000E+000	-9.9373878E+001	0.0000000E+000	0.0000000E+000	0.0000000E+000	9.3738775E+000	0.0000000E+000	0.0000000E+000	0.0000000E+000	-9.3738775E+000	6.0576487E+000	8.0626122E+001	-8.880928553162647E-006
2.3106258E+005	1.4002697E+001	-3.2255764E+000	1.4369408E+001	1.2972023E+001	2.120498871143936E+002	3.2909563E-001	-3.2555699E-002	-2.1354194E-001	-1.0760195E-002	1.000000000000000E+000	10	1.0570443E-002	7.3562138E-004	0	-1.187784670957804E-004	6.7816280E-002	-1.5621747E-002	6.9592290E-002	-1.2972023E+001	-1.0760194E+001	4.6711571E+001	4.7934879E+001	-1.0297202E+002	0.0000000E+000	0.0000000E+000	0.0000000E+000	1.0297202E+002	0.0000000E+000	0.0000000E+000	0.0000000E+000	-1.0297202E+002	0.0000000E+000	0.0000000E+000	0.0000000E+000	1.2972023E+001	0.0000000E+000	0.0000000E+000	0.0000000E+000	-1.2972023E+001	4.3411455E+000	7.7027977E+001	-5.350782130943528E-006
1.5707578E+005	1.1832705E+001	-1.7420529E+000	1.1960254E+001	8.3751240E+000	2.124728769211360E+002	3.2910481E-001	-2.2817127E-002	-5.8163369E-001	-1.2339327E-002	1.000000000000000E+000	10	1.0859068E-002	9.0792961E-004	0	-1.218564982239687E-004	8.2718618E-002	-1.2178129E-002	8.3610266E-002	-8.3751240E+000	-1.2339323E+001	8.3813538E+001	8.4716988E+001	-9.8375122E+001	0.0000000E+000	0.0000000E+000	0.0000000E+000	9.8375122E+001	0.0000000E+000	0.0000000E+000	0.0000000E+000	-9.8375122E+001	0.0000000E+000	0.0000000E+000	0.0000000E+000	8.3751240E+000	0.0000000E+000	0.0000000E+000	0.0000000E+000	-8.3751240E+000	6.7923918E+000	8.1624878E+001	-3.078031128188338E-006
1.0678630E+005	1.1286093E+001	-9.2106140E-001	1.1323614E+001	4.6655860E+000	2.128948876878276E+002	3.2912099E-001	-1.7827442E-002	-1.6181397E+000	-1.0705898E-002	1.000000000000000E+000	10	1.0819436E-002	9.5547555E-004	0	-1.248802337848724E-004	8.8018395E-002	-7.1832077E-003	8.8311024E-002	-4.6655860E+000	-1.0705902E+001	1.3118317E+002	1.3161929E+002	-9.4665588E+001	0.0000000E+000	0.0000000E+000	0.0000000E+000	9.4665588E+001	0.0000000E+000	0.0000000E+000	0.0000000E+000	-9.4665588E+001	0.0000000E+000	0.0000000E+000	0.0000000E+000	4.6655860E+000	0.0000000E+000	0.0000000E+000	0.0000000E+000	-4.6655860E+000	1.2253356E+001	8.5334412E+001	-3.023735560903624E-006
7.2595008E+004	1.1113731E+001	-5.8108431E-001	1.1128912E+001	2.9929991E+000	2.133168864545441E+002	3.2912406E-001	-1.5914075E-002	-3.7728910E+000	-1.0286015E-002	1.000000000000000E+000	10	1.0607787E-002	9.5317379E-004	0	-1.284992519116624E-004	8.9733474E-002	-4.6917377E-003	8.9856043E-002	-2.9929991E+000	-1.0286004E+001	1.9672876E+002	1.9699748E+002	-9.2992996E+001	0.0000000E+000	0.0000000E+000	0.0000000E+000	9.2992996E+001	0.0000000E+000	0.0000000E+000	0.0000000E+000	-9.2992996E+001	0.0000000E+000	0.0000000E+000	0.0000000E+000	2.9929991E+000	0.0000000E+000	0.0000000E+000	0.0000000E+000	-2.9929991E+000	1.9125851E+001	8.7007004E+001	-3.619018126790061E-006
4.9352359E+004	1.1027299E+001	-3.6069199E-001	1.1033196E+001	1.8734201E+000	2.137388710345986E+002	3.2912511E-001	-1.2886290E-002	-8.9407864E+000	-9.5553370E-003	1.000000000000000E+000	10	1.0531288E-002	9.5450925E-004	0	-1.299317346764146E-004	9.0587124E-002	-2.9630149E-003	9.0635568E-002	-1.8734201E+000	-9.5553408E+000	2.9213171E+002	2.9228793E+002	-9.1873421E+001	0.0000000E+000	0.0000000E+000	0.0000000E+000	9.1873421E+001	0.0000000E+000	0.0000000E+000	0.0000000E+000	-9.1873421E+001	0.0000000E+000	0.0000000E+000	0.0000000E+000	1.8734201E+000	0.0000000E+000	0.0000000E+000	0.0000000E+000	-1.8734201E+000	3.0572618E+001	8.8126579E+001	-1.432482764752215E-006
3.3551066E+004	1.0978175E+001	-2.4097994E-001	1.0980820E+001	1.2574873E+000	2.141608879879495E+002	3.2912886E-001	-1.0330780E-002	-1.9684887E+001	-9.4803674E-003	1.000000000000000E+000	10	1.0393570E-002	9.4652042E-004	0	-1.306819642757441E-004	9.1045946E-002	-1.9985330E-003	9.1067880E-002	-1.2574873E+000	-9.4803448E+000	4.3189127E+002	4.3199530E+002	-9.1257484E+001	0.0000000E+000	0.0000000E+000	0.0000000E+000	9.1257484E+001	0.0000000E+000	0.0000000E+000	0.0000000E+000	-9.1257484E+001	0.0000000E+000	0.0000000E+000	0.0000000E+000	1.2574873E+000	0.0000000E+000	0.0000000E+000	0.0000000E+000	-1.2574873E+000	4.5556385E+001	8.8742516E+001	-7.502295993294487E-007
2.2806563E+004	1.0965645E+001	-1.6056947E-001	1.0966821E+001	8.3891970E-001	2.145828829147067E+002	3.2913738E-001	-8.2438113E-003	-4.3460762E+001	-9.3166931E-003	1.000000000000000E+000	10	1.0377832E-002	9.4629353E-004	0	-1.324579815303118E-004	9.1174357E-002	-1.3350622E-003	9.1184132E-002	-8.3891970E-001	-9.3167038E+000	6.3625763E+002	6.3632587E+002	-9.0838921E+001	0.0000000E+000	0.0000000E+000	0.0000000E+000	9.0838921E+001	0.0000000E+000	0.0000000E+000	0.0000000E+000	-9.0838921E+001	0.0000000E+000	0.0000000E+000	0.0000000E+000	8.3891970E-001	0.0000000E+000	0.0000000E+000	0.0000000E+000	-8.3891970E-001	6.8292213E+001	8.9161079E+001	-1.776017254567693E-006
1.5504379E+004	1.0951692E+001	-1.1701353E-001	1.0952316E+001	6.1215442E-001	2.150048756280594E+002	3.2913125E-001	-8.4472829E-003	-8.7726280E+001	-1.0013592E-002	1.000000000000000E+000	10	1.0210538E-002	9.3227206E-004	0	-1.336248330342480E-004	9.1299675E-002	-9.7549288E-004	9.1304883E-002	-6.1215442E-001	-1.0013555E+001	9.3720593E+002	9.3725940E+002	-9.0612152E+001	0.0000000E+000	0.0000000E+000	0.0000000E+000	9.0612152E+001	0.0000000E+000	0.0000000E+000	0.0000000E+000	-9.0612152E+001	0.0000000E+000	0.0000000E+000	0.0000000E+000	6.1215442E-001	0.0000000E+000	0.0000000E+000	0.0000000E+000	-6.1215442E-001	9.3593376E+001	8.9387848E+001	-1.166851503936218E-006
1.0540381E+004	1.0946800E+001	-7.8178532E-002	1.0947080E+001	4.0918109E-001	2.154268734347570E+002	3.2913306E-001	-8.8803563E-003	-1.9314182E+002	-9.8504210E-003	1.000000000000000E+000	10	1.0138696E-002	9.2615531E-004	0	-1.342292119666429E-004	9.1346234E-002	-6.5236544E-004	9.1348566E-002	-4.0918109E-001	-9.8503866E+000	1.3792864E+003	1.3793215E+003	-9.0409180E+001	0.0000000E+000	0.0000000E+000	0.0000000E+000	9.0409180E+001	0.0000000E+000	0.0000000E+000	0.0000000E+000	-9.0409180E+001	0.0000000E+000	0.0000000E+000	0.0000000E+000	4.0918109E-001	0.0000000E+000	0.0000000E+000	0.0000000E+000	-4.0918109E-001	1.4002310E+002	8.9590820E+001	-6.043789323949527E-007
7.1637817E+003	1.0937751E+001	-3.9165508E-002	1.0937821E+001	2.0516181E-001	2.157834789983899E+002	3.2911351E-001	-1.1064393E-002	-5.6724939E+002	-7.2731059E-003	1.000000000000000E+000	10	1.0793333E-002	9.8679005E-004	0	-1.354998792304282E-004	9.1425300E-002	-3.2737246E-004	9.1425888E-002	-2.0516181E-001	-7.2731142E+000	2.0311600E+003	2.0311731E+003	-9.0205162E+001	0.0000000E+000	0.0000000E+000	0.0000000E+000	9.0205162E+001	0.0000000E+000	0.0000000E+000	0.0000000E+000	-9.0205162E+001	0.0000000E+000	0.0000000E+000	0.0000000E+000	2.0516181E-001	0.0000000E+000	0.0000000E+000	0.0000000E+000	-2.0516181E-001	2.7926999E+002	8.9794838E+001	-1.270667263785288E-006
4.8715591E+003	1.0937532E+001	-3.0738473E-002	1.0937575E+001	1.6102171E-001	2.164720779111303E+002	3.2915425E-001	-5.6211008E-003	-1.0628448E+003	-8.3944518E-003	1.000000000000000E+000	10	1.0082860E-002	9.2185510E-004	0	-1.368592879633005E-004	9.1427587E-002	-2.5694500E-004	9.1427945E-002	-1.6102171E-001	-8.3942776E+000	2.9869600E+003	2.9869717E+003	-9.0161018E+001	0.0000000E+000	0.0000000E+000	0.0000000E+000	9.0161018E+001	0.0000000E+000	0.0000000E+000	0.0000000E+000	-9.0161018E+001	0.0000000E+000	0.0000000E+000	0.0000000E+000	1.6102171E-001	0.0000000E+000	0.0000000E+000	0.0000000E+000	-1.6102171E-001	3.5582550E+002	8.9838982E+001	-1.359408732872294E-006
3.3110596E+003	1.0930918E+001	-1.6318645E-002	1.0930930E+001	8.5536167E-002	2.169370853465516E+002	3.2914212E-001	-4.9546896E-003	-2.9455679E+003	-6.5648230E-003	1.000000000000000E+000	10	1.0240415E-002	9.3682925E-004	0	-1.372801047963213E-004	9.1483422E-002	-1.3657458E-004	9.1483526E-002	-8.5536167E-002	-6.5645905E+000	4.3973955E+003	4.3974004E+003	-9.0085533E+001	0.0000000E+000	0.0000000E+000	0.0000000E+000	9.0085533E+001	0.0000000E+000	0.0000000E+000	0.0000000E+000	-9.0085533E+001	0.0000000E+000	0.0000000E+000	0.0000000E+000	8.5536167E-002	0.0000000E+000	0.0000000E+000	0.0000000E+000	-8.5536167E-002	6.6984222E+002	8.9914467E+001	-4.208168330207911E-007
2.2507205E+003	1.0947865E+001	-1.5245548E-002	1.0947875E+001	7.9787709E-002	2.174020823286410E+002	3.2914528E-001	-4.6709510E-003	-4.6382646E+003	-8.9946026E-003	1.000000000000000E+000	10	1.0335790E-002	9.4409095E-004	0	-1.376508865378952E-004	9.1341838E-002	-1.2719892E-004	9.1341928E-002	-7.9787709E-002	-8.9946585E+000	6.4590449E+003	6.4590513E+003	-9.0079788E+001	0.0000000E+000	0.0000000E+000	0.0000000E+000	9.0079788E+001	0.0000000E+000	0.0000000E+000	0.0000000E+000	-9.0079788E+001	0.0000000E+000	0.0000000E+000	0.0000000E+000	7.9787709E-002	0.0000000E+000	0.0000000E+000	0.0000000E+000	-7.9787709E-002	7.1810236E+002	8.9920212E+001	-3.707817415738975E-007
1.5304901E+003	1.0935723E+001	-4.9085300E-003	1.0935724E+001	2.5717370E-002	2.178671041107227E+002	3.2914743E-001	-5.7424363E-003	-2.1185473E+004	-4.2682118E-003	1.000000000000000E+000	10	1.0362823E-002	9.4761193E-004	0	-1.384696510983049E-004	9.1443412E-002	-4.1044634E-005	9.1443419E-002	-2.5717370E-002	-4.2684307E+000	9.5091572E+003	9.5091582E+003	-9.0025719E+001	0.0000000E+000	0.0000000E+000	0.0000000E+000	9.0025719E+001	0.0000000E+000	0.0000000E+000	0.0000000E+000	-9.0025719E+001	0.0000000E+000	0.0000000E+000	0.0000000E+000	2.5717370E-002	0.0000000E+000	0.0000000E+000	0.0000000E+000	-2.5717370E-002	2.2279019E+003	8.9974281E+001	-8.187645604096707E-007
1.0403328E+003	1.0943144E+001	-1.8935172E-003	1.0943144E+001	9.9140191E-003	2.183320911194751E+002	3.2914084E-001	-5.8059040E-003	-8.0793906E+004	-2.4189835E-003	1.000000000000000E+000	10	1.0385020E-002	9.4899785E-004	0	-1.396219851530493E-004	9.1381416E-002	-1.5811935E-005	9.1381416E-002	-9.9140191E-003	-2.4181449E+000	1.3979954E+004	1.3979954E+004	-9.0009911E+001	0.0000000E+000	0.0000000E+000	0.0000000E+000	9.0009911E+001	0.0000000E+000	0.0000000E+000	0.0000000E+000	-9.0009911E+001	0.0000000E+000	0.0000000E+000	0.0000000E+000	9.9140191E-003	0.0000000E+000	0.0000000E+000	0.0000000E+000	-9.9140191E-003	5.7792681E+003	8.9990089E+001	-1.152334054744456E-006
7.0703625E+002	1.0931920E+001	1.6734543E-003	1.0931920E+001	-8.7708170E-003	2.187965626081714E+002	3.2913929E-001	-6.2053772E-003	1.3451309E+005	3.1520957E-003	1.000000000000000E+000	10	1.0386139E-002	9.5007452E-004	0	-1.402934528089520E-004	9.1475241E-002	1.4002996E-005	9.1475241E-002	8.7708170E-003	3.1531694E+000	2.0591217E+004	2.0591217E+004	-8.9991226E+001	0.0000000E+000	0.0000000E+000	0.0000000E+000	8.9991226E+001	0.0000000E+000	0.0000000E+000	0.0000000E+000	-8.9991226E+001	0.0000000E+000	0.0000000E+000	0.0000000E+000	-8.7708170E-003	0.0000000E+000	0.0000000E+000	0.0000000E+000	8.7708170E-003	6.5325479E+003	8.9991226E+001	-6.714676559026308E-007
4.8076920E+002	1.0929966E+001	1.7482394E-002	1.0929980E+001	-9.1644064E-002	2.192618366035895E+002	3.2913691E-001	-5.1413584E-003	1.8935754E+004	4.8444632E-002	1.000000000000000E+000	10	1.0386938E-002	9.5031632E-004	0	-1.408087468456352E-004	9.1491356E-002	1.4633969E-004	9.1491476E-002	9.1644064E-002	4.8444748E+001	3.0287510E+004	3.0287549E+004	-8.9908356E+001	0.0000000E+000	0.0000000E+000	0.0000000E+000	8.9908356E+001	0.0000000E+000	0.0000000E+000	0.0000000E+000	-8.9908356E+001	0.0000000E+000	0.0000000E+000	0.0000000E+000	-9.1644064E-002	0.0000000E+000	0.0000000E+000	0.0000000E+000	9.1644064E-002	6.2519849E+002	8.9908356E+001	-5.152940366832709E-007
3.2677771E+002	1.0944111E+001	4.1358713E-003	1.0944112E+001	-2.1652553E-002	2.197250584389767E+002	3.2914522E-001	-3.6293331E-003	1.1776079E+005	1.6817974E-002	1.000000000000000E+000	10	1.0407441E-002	9.5096265E-004	0	-1.417806791311596E-004	9.1373324E-002	3.4530745E-005	9.1373332E-002	2.1652553E-002	1.6817717E+001	4.4502781E+004	4.4502785E+004	-8.9978348E+001	0.0000000E+000	0.0000000E+000	0.0000000E+000	8.9978348E+001	0.0000000E+000	0.0000000E+000	0.0000000E+000	-8.9978348E+001	0.0000000E+000	0.0000000E+000	0.0000000E+000	-2.1652553E-002	0.0000000E+000	0.0000000E+000	0.0000000E+000	2.1652553E-002	2.6461440E+003	8.9978348E+001	-9.719322855243075E-007
2.2206076E+002	1.0941628E+001	2.7937146E-002	1.0941664E+001	-1.4629240E-001	2.201863146741962E+002	3.2913354E-001	-3.4333281E-003	2.5654660E+004	1.6724904E-001	1.000000000000000E+000	10	1.0399762E-002	9.5047354E-004	0	-1.415572488155061E-004	9.1393478E-002	2.3335402E-004	9.1393776E-002	1.4629240E-001	1.6725044E+002	6.5503348E+004	6.5503563E+004	-8.9853706E+001	0.0000000E+000	0.0000000E+000	0.0000000E+000	8.9853706E+001	0.0000000E+000	0.0000000E+000	0.0000000E+000	-8.9853706E+001	0.0000000E+000	0.0000000E+000	0.0000000E+000	-1.4629240E-001	0.0000000E+000	0.0000000E+000	0.0000000E+000	1.4629240E-001	3.9165161E+002	8.9853706E+001	2.234303156534861E-007
1.5101485E+002	1.0942848E+001	4.5871165E-002	1.0942945E+001	-2.4017592E-001	2.206478229360800E+002	3.2913622E-001	-3.5695990E-003	2.2975277E+004	4.0371218E-001	1.000000000000000E+000	10	1.0401040E-002	9.5047912E-004	0	-1.424705295998679E-004	9.1382280E-002	3.8306403E-004	9.1383085E-002	2.4017592E-001	4.0370782E+002	9.6308023E+004	9.6308867E+004	-8.9759827E+001	0.0000000E+000	0.0000000E+000	0.0000000E+000	8.9759827E+001	0.0000000E+000	0.0000000E+000	0.0000000E+000	-8.9759827E+001	0.0000000E+000	0.0000000E+000	0.0000000E+000	-2.4017592E-001	0.0000000E+000	0.0000000E+000	0.0000000E+000	2.4017592E-001	2.3855615E+002	8.9759827E+001	-9.132807843618355E-007
1.0266736E+002	1.0943667E+001	5.1840510E-002	1.0943790E+001	-2.7140996E-001	2.211226868519589E+002	3.2915008E-001	-3.1346576E-003	2.9903256E+004	6.7099833E-001	1.000000000000000E+000	10	1.0400915E-002	9.5039420E-004	0	-1.436292634203172E-004	9.1374993E-002	4.3284637E-004	9.1376022E-002	2.7140996E-001	6.7099377E+002	1.4164952E+005	1.4165111E+005	-8.9728592E+001	0.0000000E+000	0.0000000E+000	0.0000000E+000	8.9728592E+001	0.0000000E+000	0.0000000E+000	0.0000000E+000	-8.9728592E+001	0.0000000E+000	0.0000000E+000	0.0000000E+000	-2.7140996E-001	0.0000000E+000	0.0000000E+000	0.0000000E+000	2.7140996E-001	2.1110262E+002	8.9728592E+001	-1.158733820449330E-006
6.9754463E+001	1.0939557E+001	6.9079012E-002	1.0939775E+001	-3.6179554E-001	2.215898629275180E+002	3.2913771E-001	-3.0898566E-003	3.3029504E+004	1.3169748E+000	1.000000000000000E+000	10	1.0403020E-002	9.5093541E-004	0	-1.443625477958570E-004	9.1407731E-002	5.7720393E-004	9.1409557E-002	3.6179554E-001	1.3169673E+003	2.0856003E+005	2.0856419E+005	-8.9638206E+001	0.0000000E+000	0.0000000E+000	0.0000000E+000	8.9638206E+001	0.0000000E+000	0.0000000E+000	0.0000000E+000	-8.9638206E+001	0.0000000E+000	0.0000000E+000	0.0000000E+000	-3.6179554E-001	0.0000000E+000	0.0000000E+000	0.0000000E+000	3.6179554E-001	1.5836296E+002	8.9638206E+001	-7.332843755397667E-007
4.7444328E+001	1.0945387E+001	1.0189446E-001	1.0945861E+001	-5.3337115E-001	2.220338165752619E+002	3.2912973E-001	-4.5664157E-003	3.2921930E+004	2.8529000E+000	1.000000000000000E+000	10	1.0412239E-002	9.5124904E-004	0	-1.456446416886316E-004	9.1354780E-002	8.5045374E-004	9.1358736E-002	5.3337115E-001	2.8528987E+003	3.0645525E+005	3.0646853E+005	-8.9466629E+001	0.0000000E+000	0.0000000E+000	0.0000000E+000	8.9466629E+001	0.0000000E+000	0.0000000E+000	0.0000000E+000	-8.9466629E+001	0.0000000E+000	0.0000000E+000	0.0000000E+000	-5.3337115E-001	0.0000000E+000	0.0000000E+000	0.0000000E+000	5.3337115E-001	1.0741886E+002	8.9466629E+001	-1.282093892774570E-006
