EC-Lab ASCII FILE
Nb header lines : 63                          

Potentio Electrochemical Impedance Spectroscopy

Run on channel : 2 (SN 68855)
User : 
CE vs. WE compliance from -10 V to 10 V
Electrode connection : standard
Potential control : Ewe
Ewe ctrl range : min = -1.00 V, max = 1.00 V
Safety Limits :
	Do not start on E overload
Acquisition started on : 05/17/2024 15:55:37.422
Loaded Setting File :  C:\Users\HZ-7000\Documents\EC-Lab\Data\Yatsuzuka\20240517_2-140_kinetic_CA\20240517_2-140_kinetic_CA_K-1_r.mps
Saved on :
	File : 20240517_2-140_kinetic_CA_K-1_02_PEIS_C02.mpr
	Directory : C:\Users\HZ-7000\Documents\EC-Lab\Data\Yatsuzuka\20240517_2-140_kinetic_CA\
	Host : 192.109.209.100
Device : SP-150e (SN .003466)
Address : 192.109.209.128
EC-Lab for windows v11.50 (software)
Internet server v11.50 (firmware)
Command interpretor v11.50 (firmware)
Electrode material : 
Initial state : 
Electrolyte : 
Comments : 
Electrode surface area : 0.001 cm2
Characteristic mass : 0.001 g
Equivalent Weight : 0.000 g/eq.
Density : 0.000 g/cm3
Volume (V) : 0.001 cm3
Cycle Definition : Charge/Discharge alternance
Mode                Single sine         
E (V)               0.4500              
vs.                 Ref                 
tE (h:m:s)          0:00:0.0000         
record              0                   
dI                  0.000               
unit dI             mA                  
dt (s)              0.000               
fi                  500.000             
unit fi             kHz                 
ff                  1.000               
unit ff             Hz                  
Nd                  6                   
Points              per decade          
spacing             Logarithmic         
Va (mV)             10.0                
pw                  0.10                
Na                  2                   
corr                0                   
E range min (V)     -1.000              
E range max (V)     1.000               
I Range             Auto                
Bandwidth           5                   
nc cycles           0                   
goto Ns'            0                   
nr cycles           0                   
inc. cycle          0                   

freq/Hz	Re(Z)/Ohm	-Im(Z)/Ohm	|Z|/Ohm	Phase(Z)/deg	time/s	<Ewe>/V	<I>/mA	Cs/uF	Cp/uF	cycle number	I Range	|Ewe|/V	|I|/A	Ns	(Q-Qo)/mA.h	Re(Y)/Ohm-1	Im(Y)/Ohm-1	|Y|/Ohm-1	Phase(Y)/deg	Re(C)/nF	Im(C)/nF	|C|/nF	Phase(C)/deg	Re(M)	Im(M)	|M|	Phase(M)/deg	Re(Permittivity)	Im(Permittivity)	|Permittivity|	Phase(Permittivity)/deg	Re(Resistivity)/Ohm.cm	Im(Resistivity)/Ohm.cm	|Resistivity|/Ohm.cm	Phase(Resistivity)/deg	Re(Conductivity)/mS/cm	Im(Conductivity)/mS/cm	|Conductivity|/mS/cm	Phase(Conductivity)/deg	Tan(Delta)	Loss Angle(Delta)/deg	dq/mA.h	
5.0001856E+005	4.0655781E+001	9.8292571E-001	4.0667660E+001	-1.3849574E+000	2.004798900692404E+002	4.4942102E-001	3.0842283E-001	3.2382718E-001	1.8917178E-004	1.000000000000000E+000	11	8.8781426E-003	2.1830965E-004	0	1.336210685975936E-004	2.4582379E-002	5.9432269E-004	2.4589563E-002	1.3849574E+000	1.8917161E-001	7.8245239E+000	7.8268104E+000	-8.8615044E+001	0.0000000E+000	0.0000000E+000	0.0000000E+000	8.8615044E+001	0.0000000E+000	0.0000000E+000	0.0000000E+000	-8.8615044E+001	0.0000000E+000	0.0000000E+000	0.0000000E+000	-1.3849574E+000	0.0000000E+000	0.0000000E+000	0.0000000E+000	1.3849574E+000	4.1362007E+001	8.8615044E+001	1.336210685975936E-004
3.3989941E+005	3.1462687E+001	-1.9804028E+000	3.1524952E+001	3.6017022E+000	2.013408841101482E+002	4.4911525E-001	5.6458119E-002	-2.3643740E-001	-9.3307038E-004	1.000000000000000E+000	10	9.9220332E-003	3.1473587E-004	0	1.540213181613686E-004	3.1658255E-002	-1.9927127E-003	3.1720906E-002	-3.6017022E+000	-9.3306977E-001	1.4823701E+001	1.4853038E+001	-9.3601700E+001	0.0000000E+000	0.0000000E+000	0.0000000E+000	9.3601700E+001	0.0000000E+000	0.0000000E+000	0.0000000E+000	-9.3601700E+001	0.0000000E+000	0.0000000E+000	0.0000000E+000	3.6017022E+000	0.0000000E+000	0.0000000E+000	0.0000000E+000	-3.6017022E+000	1.5887013E+001	8.6398300E+001	2.040024956377501E-005
2.3106258E+005	2.7248817E+001	-1.5127599E+000	2.7290777E+001	3.1776013E+000	2.017628665568336E+002	4.4908059E-001	4.7511477E-002	-4.5532396E-001	-1.3990354E-003	1.000000000000000E+000	10	1.0885349E-002	3.9886549E-004	0	1.599323938888233E-004	3.6586080E-002	-2.0311323E-003	3.6642417E-002	-3.1776013E+000	-1.3990370E+000	2.5200338E+001	2.5239143E+001	-9.3177605E+001	0.0000000E+000	0.0000000E+000	0.0000000E+000	9.3177605E+001	0.0000000E+000	0.0000000E+000	0.0000000E+000	-9.3177605E+001	0.0000000E+000	0.0000000E+000	0.0000000E+000	3.1776013E+000	0.0000000E+000	0.0000000E+000	0.0000000E+000	-3.1776013E+000	1.8012651E+001	8.6822395E+001	5.911075727454680E-006
1.5707578E+005	2.5774260E+001	-8.2510382E-001	2.5787462E+001	1.8335668E+000	2.023208779966953E+002	4.4907582E-001	4.3793973E-002	-1.2280111E+000	-1.2571940E-003	1.000000000000000E+000	10	1.0105986E-002	3.9189533E-004	0	1.652326861068755E-004	3.8758680E-002	-1.2407702E-003	3.8778536E-002	-1.8335668E+000	-1.2571925E+000	3.9271713E+001	3.9291832E+001	-9.1833565E+001	0.0000000E+000	0.0000000E+000	0.0000000E+000	9.1833565E+001	0.0000000E+000	0.0000000E+000	0.0000000E+000	-9.1833565E+001	0.0000000E+000	0.0000000E+000	0.0000000E+000	1.8335668E+000	0.0000000E+000	0.0000000E+000	0.0000000E+000	-1.8335668E+000	3.1237597E+001	8.8166435E+001	5.300292218052266E-006
1.0678630E+005	2.5267193E+001	-3.8819098E-001	2.5270174E+001	8.8019103E-001	2.027438832700864E+002	4.4907838E-001	4.1326832E-002	-3.8393631E+000	-9.0601126E-004	1.000000000000000E+000	10	1.0639394E-002	4.2102573E-004	0	1.702686355090441E-004	3.9567675E-002	-6.0789561E-004	3.9572343E-002	-8.8019103E-001	-9.0600812E-001	5.8971901E+001	5.8978859E+001	-9.0880188E+001	0.0000000E+000	0.0000000E+000	0.0000000E+000	9.0880188E+001	0.0000000E+000	0.0000000E+000	0.0000000E+000	-9.0880188E+001	0.0000000E+000	0.0000000E+000	0.0000000E+000	8.8019103E-001	0.0000000E+000	0.0000000E+000	0.0000000E+000	-8.8019103E-001	6.5089592E+001	8.9119812E+001	5.035949402168612E-006
7.2595008E+004	2.5089869E+001	-2.3243001E-001	2.5090944E+001	5.3076714E-001	2.031658880901668E+002	4.4907969E-001	4.0080205E-002	-9.4323778E+000	-8.0941559E-004	1.000000000000000E+000	10	1.0503267E-002	4.1860787E-004	0	1.742964505822945E-004	3.9853308E-002	-3.6919702E-004	3.9855018E-002	-5.3076714E-001	-8.0941892E-001	8.7373100E+001	8.7376846E+001	-9.0530769E+001	0.0000000E+000	0.0000000E+000	0.0000000E+000	9.0530769E+001	0.0000000E+000	0.0000000E+000	0.0000000E+000	-9.0530769E+001	0.0000000E+000	0.0000000E+000	0.0000000E+000	5.3076714E-001	0.0000000E+000	0.0000000E+000	0.0000000E+000	-5.3076714E-001	1.0794591E+002	8.9469231E+001	4.027815073250383E-006
4.9352359E+004	2.4983561E+001	-1.1433519E-001	2.4983822E+001	2.6220754E-001	2.035878709901735E+002	4.4908246E-001	3.9051916E-002	-2.8205400E+001	-5.9071003E-004	1.000000000000000E+000	10	1.0395997E-002	4.1610916E-004	0	1.785128536250272E-004	4.0025480E-002	-1.8317330E-004	4.0025901E-002	-2.6220754E-001	-5.9070885E-001	1.2907697E+002	1.2907832E+002	-9.0262207E+001	0.0000000E+000	0.0000000E+000	0.0000000E+000	9.0262207E+001	0.0000000E+000	0.0000000E+000	0.0000000E+000	-9.0262207E+001	0.0000000E+000	0.0000000E+000	0.0000000E+000	2.6220754E-001	0.0000000E+000	0.0000000E+000	0.0000000E+000	-2.6220754E-001	2.1851157E+002	8.9737793E+001	4.216403042732654E-006
3.3551066E+004	2.4917559E+001	-1.0998964E-001	2.4917801E+001	2.5291005E-001	2.040098917035648E+002	4.4908810E-001	3.8159862E-002	-4.3128273E+001	-8.4032281E-004	1.000000000000000E+000	10	1.0304854E-002	4.1355391E-004	0	1.821511299511173E-004	4.0131561E-002	-1.7714640E-004	4.0131953E-002	-2.5291005E-001	-8.4031200E-001	1.9037059E+002	1.9037245E+002	-9.0252907E+001	0.0000000E+000	0.0000000E+000	0.0000000E+000	9.0252907E+001	0.0000000E+000	0.0000000E+000	0.0000000E+000	-9.0252907E+001	0.0000000E+000	0.0000000E+000	0.0000000E+000	2.5291005E-001	0.0000000E+000	0.0000000E+000	0.0000000E+000	-2.5291005E-001	2.2654460E+002	8.9747093E+001	3.638276326090110E-006
2.2806563E+004	2.4883942E+001	-6.3299246E-002	2.4884022E+001	1.4574748E-001	2.044318840169726E+002	4.4907853E-001	3.7006542E-002	-1.1024573E+002	-7.1337470E-004	1.000000000000000E+000	10	1.0250838E-002	4.1194458E-004	0	1.863324133490055E-004	4.0186301E-002	-1.0222507E-004	4.0186431E-002	-1.4574748E-001	-7.1335924E-001	2.8043893E+002	2.8043985E+002	-9.0145744E+001	0.0000000E+000	0.0000000E+000	0.0000000E+000	9.0145744E+001	0.0000000E+000	0.0000000E+000	0.0000000E+000	-9.0145744E+001	0.0000000E+000	0.0000000E+000	0.0000000E+000	1.4574748E-001	0.0000000E+000	0.0000000E+000	0.0000000E+000	-1.4574748E-001	3.9311594E+002	8.9854256E+001	4.181283397888266E-006
1.5504379E+004	2.4906429E+001	-1.7942881E-002	2.4906435E+001	4.1276541E-002	2.048538669970148E+002	4.4908795E-001	3.6215264E-002	-5.7210217E+002	-2.9691684E-004	1.000000000000000E+000	10	1.0160618E-002	4.0795151E-004	0	1.904468631126070E-004	4.0150255E-002	-2.8924713E-005	4.0150266E-002	-4.1276541E-002	-2.9690593E-001	4.1214883E+002	4.1214896E+002	-9.0041275E+001	0.0000000E+000	0.0000000E+000	0.0000000E+000	9.0041275E+001	0.0000000E+000	0.0000000E+000	0.0000000E+000	-9.0041275E+001	0.0000000E+000	0.0000000E+000	0.0000000E+000	4.1276541E-002	0.0000000E+000	0.0000000E+000	0.0000000E+000	-4.1276541E-002	1.3880953E+003	8.9958725E+001	4.114449763601438E-006
1.0540381E+004	2.4876497E+001	1.2091125E-002	2.4876501E+001	-2.7848389E-002	2.051398843705683E+002	4.4908348E-001	3.6226463E-002	1.2488121E+003	2.9502035E-004	1.000000000000000E+000	10	1.0696000E-002	4.2996401E-004	0	1.933404930985841E-004	4.0198576E-002	1.9538362E-005	4.0198579E-002	2.7848389E-002	2.9500872E-001	6.0698016E+002	6.0698022E+002	-8.9972153E+001	0.0000000E+000	0.0000000E+000	0.0000000E+000	8.9972153E+001	0.0000000E+000	0.0000000E+000	0.0000000E+000	-8.9972153E+001	0.0000000E+000	0.0000000E+000	0.0000000E+000	-2.7848389E-002	0.0000000E+000	0.0000000E+000	0.0000000E+000	2.7848389E-002	2.0574180E+003	8.9972153E+001	2.893629985977083E-006
7.1637817E+003	2.4896107E+001	-4.0254429E-002	2.4896139E+001	9.2641272E-002	2.054964862542256E+002	4.4905922E-001	3.4162432E-002	-5.5190472E+002	-1.4428708E-003	1.000000000000000E+000	10	1.0974760E-002	4.4082178E-004	0	1.962724488612269E-004	4.0166818E-002	-6.4945591E-005	4.0166870E-002	-9.2641272E-002	-1.4429094E+000	8.9237054E+002	8.9237170E+002	-9.0092644E+001	0.0000000E+000	0.0000000E+000	0.0000000E+000	9.0092644E+001	0.0000000E+000	0.0000000E+000	0.0000000E+000	-9.0092644E+001	0.0000000E+000	0.0000000E+000	0.0000000E+000	9.2641272E-002	0.0000000E+000	0.0000000E+000	0.0000000E+000	-9.2641272E-002	6.1846875E+002	8.9907356E+001	2.931955762642874E-006
4.8715591E+003	2.4893545E+001	1.0117464E-002	2.4893547E+001	-2.3286676E-002	2.061861074869958E+002	4.4910702E-001	3.5377335E-002	3.2290928E+003	5.3339661E-004	1.000000000000000E+000	10	1.0027832E-002	4.0282859E-004	0	2.030775892452228E-004	4.0171050E-002	1.6326687E-005	4.0171053E-002	2.3286676E-002	5.3335619E-001	1.3123973E+003	1.3123975E+003	-8.9976715E+001	0.0000000E+000	0.0000000E+000	0.0000000E+000	8.9976715E+001	0.0000000E+000	0.0000000E+000	0.0000000E+000	-8.9976715E+001	0.0000000E+000	0.0000000E+000	0.0000000E+000	-2.3286676E-002	0.0000000E+000	0.0000000E+000	0.0000000E+000	2.3286676E-002	2.4604531E+003	8.9976715E+001	6.805140383995905E-006
3.3110596E+003	2.4898500E+001	9.1134664E-003	2.4898502E+001	-2.0971669E-002	2.066511067090833E+002	4.4911110E-001	3.5020888E-002	5.2743574E+003	7.0662709E-004	1.000000000000000E+000	10	1.0083532E-002	4.0498548E-004	0	2.078104628670561E-004	4.0163055E-002	1.4700670E-005	4.0163059E-002	2.0971669E-002	7.0667881E-001	1.9305447E+003	1.9305448E+003	-8.9979027E+001	0.0000000E+000	0.0000000E+000	0.0000000E+000	8.9979027E+001	0.0000000E+000	0.0000000E+000	0.0000000E+000	-8.9979027E+001	0.0000000E+000	0.0000000E+000	0.0000000E+000	-2.0971669E-002	0.0000000E+000	0.0000000E+000	0.0000000E+000	2.0971669E-002	2.7320559E+003	8.9979027E+001	4.732873621833290E-006
2.2507205E+003	2.4868410E+001	1.2871687E-002	2.4868414E+001	-2.9655827E-002	2.071161085711647E+002	4.4911438E-001	3.4378909E-002	5.4936768E+003	1.4717630E-003	1.000000000000000E+000	10	1.0120148E-002	4.0694786E-004	0	2.118306672618500E-004	4.0211648E-002	2.0813221E-005	4.0211651E-002	2.9655827E-002	1.4717445E+000	2.8434814E+003	2.8434819E+003	-8.9970345E+001	0.0000000E+000	0.0000000E+000	0.0000000E+000	8.9970345E+001	0.0000000E+000	0.0000000E+000	0.0000000E+000	-8.9970345E+001	0.0000000E+000	0.0000000E+000	0.0000000E+000	-2.9655827E-002	0.0000000E+000	0.0000000E+000	0.0000000E+000	2.9655827E-002	1.9320240E+003	8.9970345E+001	4.020204394793847E-006
1.5304901E+003	2.4894707E+001	5.8804583E-003	2.4894707E+001	-1.3534020E-002	2.075811047265888E+002	4.4911370E-001	3.4220278E-002	1.7683916E+004	9.8670367E-004	1.000000000000000E+000	10	1.0129382E-002	4.0688898E-004	0	2.158027901826984E-004	4.0169183E-002	9.4884917E-006	4.0169183E-002	1.3534020E-002	9.8674208E-001	4.1771743E+003	4.1771743E+003	-8.9986465E+001	0.0000000E+000	0.0000000E+000	0.0000000E+000	8.9986465E+001	0.0000000E+000	0.0000000E+000	0.0000000E+000	-8.9986465E+001	0.0000000E+000	0.0000000E+000	0.0000000E+000	-1.3534020E-002	0.0000000E+000	0.0000000E+000	0.0000000E+000	1.3534020E-002	4.2334639E+003	8.9986465E+001	3.972122920848449E-006
1.0403328E+003	2.4890045E+001	2.8877554E-002	2.4890062E+001	-6.6474818E-002	2.080460802686721E+002	4.4911402E-001	3.3761192E-002	5.2977007E+003	7.1310964E-003	1.000000000000000E+000	10	1.0133998E-002	4.0715034E-004	0	2.201996915916020E-004	4.0176652E-002	4.6613150E-005	4.0176678E-002	6.6474818E-002	7.1311064E+000	6.1464106E+003	6.1464146E+003	-8.9933525E+001	0.0000000E+000	0.0000000E+000	0.0000000E+000	8.9933525E+001	0.0000000E+000	0.0000000E+000	0.0000000E+000	-8.9933525E+001	0.0000000E+000	0.0000000E+000	0.0000000E+000	-6.6474818E-002	0.0000000E+000	0.0000000E+000	0.0000000E+000	6.6474818E-002	8.6191663E+002	8.9933525E+001	4.396901408903618E-006
7.0703625E+002	2.4886288E+001	5.1058799E-002	2.4886339E+001	-1.1755268E-001	2.085105778640282E+002	4.4910559E-001	3.3423405E-002	4.4086724E+003	1.8557822E-002	1.000000000000000E+000	10	1.0143925E-002	4.0761021E-004	0	2.242287177254143E-004	4.0182602E-002	8.2442006E-005	4.0182687E-002	1.1755268E-001	1.8557985E+001	9.0451660E+003	9.0451846E+003	-8.9882446E+001	0.0000000E+000	0.0000000E+000	0.0000000E+000	8.9882446E+001	0.0000000E+000	0.0000000E+000	0.0000000E+000	-8.9882446E+001	0.0000000E+000	0.0000000E+000	0.0000000E+000	-1.1755268E-001	0.0000000E+000	0.0000000E+000	0.0000000E+000	1.1755268E-001	4.8740448E+002	8.9882446E+001	4.029026133812303E-006
4.8076920E+002	2.4873890E+001	9.6860930E-002	2.4874079E+001	-2.2311325E-001	2.089758053528058E+002	4.4911325E-001	3.2693714E-002	3.4177073E+003	5.1824857E-002	1.000000000000000E+000	10	1.0144526E-002	4.0783524E-004	0	2.281406266936821E-004	4.0202189E-002	1.5655057E-004	4.0202495E-002	2.2311325E-001	5.1825035E+001	1.3308625E+004	1.3308726E+004	-8.9776886E+001	0.0000000E+000	0.0000000E+000	0.0000000E+000	8.9776886E+001	0.0000000E+000	0.0000000E+000	0.0000000E+000	-8.9776886E+001	0.0000000E+000	0.0000000E+000	0.0000000E+000	-2.2311325E-001	0.0000000E+000	0.0000000E+000	0.0000000E+000	2.2311325E-001	2.5680002E+002	8.9776886E+001	3.911908968267703E-006
3.2677771E+002	2.4882380E+001	1.3862507E-001	2.4882765E+001	-3.1920376E-001	2.094390580681720E+002	4.4911063E-001	3.2075994E-002	3.5133867E+003	1.0904662E-001	1.000000000000000E+000	10	1.0149065E-002	4.0787531E-004	0	2.319807730480364E-004	4.0187839E-002	2.2389505E-004	4.0188462E-002	3.1920376E-001	1.0904747E+002	1.9573223E+004	1.9573527E+004	-8.9680794E+001	0.0000000E+000	0.0000000E+000	0.0000000E+000	8.9680794E+001	0.0000000E+000	0.0000000E+000	0.0000000E+000	-8.9680794E+001	0.0000000E+000	0.0000000E+000	0.0000000E+000	-3.1920376E-001	0.0000000E+000	0.0000000E+000	0.0000000E+000	3.1920376E-001	1.7949408E+002	8.9680794E+001	3.840146354354353E-006
2.2206076E+002	2.4866335E+001	1.9542797E-001	2.4867104E+001	-4.5028621E-001	2.099002920633793E+002	4.4910961E-001	3.3057626E-002	3.6674277E+003	2.2650856E-001	1.000000000000000E+000	10	1.0141356E-002	4.0782217E-004	0	2.364650297843368E-004	4.0212531E-002	3.1603585E-004	4.0213771E-002	4.5028621E-001	2.2650890E+002	2.8821041E+004	2.8821932E+004	-8.9549713E+001	0.0000000E+000	0.0000000E+000	0.0000000E+000	8.9549713E+001	0.0000000E+000	0.0000000E+000	0.0000000E+000	-8.9549713E+001	0.0000000E+000	0.0000000E+000	0.0000000E+000	-4.5028621E-001	0.0000000E+000	0.0000000E+000	0.0000000E+000	4.5028621E-001	1.2724041E+002	8.9549713E+001	4.484256736300371E-006
1.5101485E+002	2.4955133E+001	2.4532874E-001	2.4956339E+001	-5.6324476E-001	2.106158018306742E+002	4.4909492E-001	9.0796379E-003	4.2958794E+003	4.1513291E-001	1.000000000000000E+000	11	1.0144258E-002	4.0648022E-004	0	2.391870369828838E-004	4.0068042E-002	3.9390061E-004	4.0069979E-002	5.6324476E-001	4.1513507E+002	4.2227820E+004	4.2229859E+004	-8.9436752E+001	0.0000000E+000	0.0000000E+000	0.0000000E+000	8.9436752E+001	0.0000000E+000	0.0000000E+000	0.0000000E+000	-8.9436752E+001	0.0000000E+000	0.0000000E+000	0.0000000E+000	-5.6324476E-001	0.0000000E+000	0.0000000E+000	0.0000000E+000	5.6324476E-001	1.0172120E+002	8.9436752E+001	2.722007198547048E-006
1.0266736E+002	2.4966059E+001	3.4621590E-001	2.4968460E+001	-7.9449612E-001	2.110907147865655E+002	4.4909304E-001	1.0023008E-002	4.4775527E+003	8.6089706E-001	1.000000000000000E+000	11	1.0144876E-002	4.0630763E-004	0	2.403620224598069E-004	4.0046677E-002	5.5534579E-004	4.0050529E-002	7.9449612E-001	8.6089539E+002	6.2080359E+004	6.2086328E+004	-8.9205505E+001	0.0000000E+000	0.0000000E+000	0.0000000E+000	8.9205505E+001	0.0000000E+000	0.0000000E+000	0.0000000E+000	-8.9205505E+001	0.0000000E+000	0.0000000E+000	0.0000000E+000	-7.9449612E-001	0.0000000E+000	0.0000000E+000	0.0000000E+000	7.9449612E-001	7.2111244E+001	8.9205505E+001	1.174985476923101E-006
6.9754463E+001	2.4987295E+001	4.9278620E-001	2.4992153E+001	-1.1298106E+000	2.115578752620640E+002	4.4909140E-001	9.0637747E-003	4.6300918E+003	1.8001112E+000	1.000000000000000E+000	11	1.0146866E-002	4.0600207E-004	0	2.416573364446215E-004	4.0004779E-002	7.8895304E-004	4.0012557E-002	1.1298106E+000	1.8001168E+003	9.1276719E+004	9.1294469E+004	-8.8870186E+001	0.0000000E+000	0.0000000E+000	0.0000000E+000	8.8870186E+001	0.0000000E+000	0.0000000E+000	0.0000000E+000	-8.8870186E+001	0.0000000E+000	0.0000000E+000	0.0000000E+000	-1.1298106E+000	0.0000000E+000	0.0000000E+000	0.0000000E+000	1.1298106E+000	5.0706158E+001	8.8870186E+001	1.295313984814528E-006
4.7444328E+001	2.5015755E+001	6.7874271E-001	2.5024961E+001	-1.5542027E+000	2.120018193365104E+002	4.4908598E-001	8.8049313E-003	4.9423174E+003	3.6357515E+000	1.000000000000000E+000	11	1.0145416E-002	4.0541185E-004	0	2.427025242149131E-004	3.9945401E-002	1.0838229E-003	3.9960101E-002	1.5542027E+000	3.6357437E+003	1.3399934E+005	1.3404866E+005	-8.8445801E+001	0.0000000E+000	0.0000000E+000	0.0000000E+000	8.8445801E+001	0.0000000E+000	0.0000000E+000	0.0000000E+000	-8.8445801E+001	0.0000000E+000	0.0000000E+000	0.0000000E+000	-1.5542027E+000	0.0000000E+000	0.0000000E+000	0.0000000E+000	1.5542027E+000	3.6856018E+001	8.8445801E+001	1.045187770291612E-006
3.2238655E+001	2.5057449E+001	9.8483038E-001	2.5076796E+001	-2.2507317E+000	2.124392678106524E+002	4.4908467E-001	9.0049896E-003	5.0128159E+003	7.7314429E+000	1.000000000000000E+000	11	1.0149988E-002	4.0475620E-004	0	2.434498203004958E-004	3.9846741E-002	1.5660924E-003	3.9877504E-002	2.2507317E+000	7.7314453E+003	1.9671433E+005	1.9686620E+005	-8.7749268E+001	0.0000000E+000	0.0000000E+000	0.0000000E+000	8.7749268E+001	0.0000000E+000	0.0000000E+000	0.0000000E+000	-8.7749268E+001	0.0000000E+000	0.0000000E+000	0.0000000E+000	-2.2507317E+000	0.0000000E+000	0.0000000E+000	0.0000000E+000	2.2507317E+000	2.5443417E+001	8.7749268E+001	7.472960855827804E-007
