EC-Lab ASCII FILE
Nb header lines : 63                          

Potentio Electrochemical Impedance Spectroscopy

Run on channel : 2 (SN 69290)
User : 
CE vs. WE compliance from -10 V to 10 V
Electrode connection : standard
Potential control : Ewe
Ewe ctrl range : min = -1.00 V, max = 1.00 V
Safety Limits :
	Do not start on E overload
Acquisition started on : 11/12/2025 14:40:45.077
Loaded Setting File :  C:\Users\User\Documents\EC-Lab\Data\Yatsuzuka\20251112_2-148_alpha_reproducibility\20251112_2-148_002_alpha_reproducibility_2_K1.mps
Saved on :
	File : 20251112_2-148_002_alpha_reproducibility_2_K2_02_PEIS_C02.mpr
	Directory : C:\Users\User\Documents\EC-Lab\Data\Yatsuzuka\20251112_2-148_alpha_reproducibility\
	Host : 192.109.209.127
Device : SP-150e (SN .003883)
Address : 192.109.209.128
EC-LAB for windows v11.52 (software)
Internet server v11.52 (firmware)
Command interpretor v11.50 (firmware)
Electrode material : 
Initial state : 
Electrolyte : 
Comments : 
Electrode surface area : 0.001 cm2
Characteristic mass : 0.001 g
Equivalent Weight : 0.000 g/eq.
Density : 0.000 g/cm3
Volume (V) : 0.001 cm3
Cycle Definition : Charge/Discharge alternance
Mode                Single sine         
E (V)               0.4500              
vs.                 Ref                 
tE (h:m:s)          0:00:0.0000         
record              0                   
dI                  0.000               
unit dI             mA                  
dt (s)              0.000               
fi                  500.000             
unit fi             kHz                 
ff                  1.000               
unit ff             Hz                  
Nd                  6                   
Points              per decade          
spacing             Logarithmic         
Va (mV)             10.0                
pw                  0.10                
Na                  2                   
corr                0                   
E range min (V)     -1.000              
E range max (V)     1.000               
I Range             Auto                
Bandwidth           5                   
nc cycles           0                   
goto Ns'            0                   
nr cycles           0                   
inc. cycle          0                   

freq/Hz	Re(Z)/Ohm	-Im(Z)/Ohm	|Z|/Ohm	Phase(Z)/deg	time/s	<Ewe>/V	<I>/mA	Cs/uF	Cp/uF	cycle number	I Range	|Ewe|/V	|I|/A	Ns	(Q-Qo)/mA.h	Re(Y)/Ohm-1	Im(Y)/Ohm-1	|Y|/Ohm-1	Phase(Y)/deg	Re(C)/nF	Im(C)/nF	|C|/nF	Phase(C)/deg	Re(M)	Im(M)	|M|	Phase(M)/deg	Re(Permittivity)	Im(Permittivity)	|Permittivity|	Phase(Permittivity)/deg	Re(Resistivity)/Ohm.cm	Im(Resistivity)/Ohm.cm	|Resistivity|/Ohm.cm	Phase(Resistivity)/deg	Re(Conductivity)/mS/cm	Im(Conductivity)/mS/cm	|Conductivity|/mS/cm	Phase(Conductivity)/deg	Tan(Delta)	Loss Angle(Delta)/deg	dq/mA.h	Pwe/W	Rwe/Ohm	
5.0001856E+005	1.2590763E+001	-2.3267801E+000	1.2803953E+001	1.0470168E+001	2.018200809282862E+002	4.4976869E-001	1.8002326E-002	-1.3679765E-001	-4.5175315E-003	1.000000000000000E+000	10	4.3567820E-003	3.4026851E-004	0	3.128022317311519E-005	7.6800473E-002	-1.4192770E-002	7.8100882E-002	-1.0470168E+001	-4.5175314E+000	2.4445442E+001	2.4859360E+001	-1.0047017E+002	0.0000000E+000	0.0000000E+000	0.0000000E+000	1.0047017E+002	0.0000000E+000	0.0000000E+000	0.0000000E+000	-1.0047017E+002	0.0000000E+000	0.0000000E+000	0.0000000E+000	1.0470168E+001	0.0000000E+000	0.0000000E+000	0.0000000E+000	-1.0470168E+001	5.4112391E+000	7.9529831E+001	3.128022317311519E-005	8.0968821E-006	2.4983922E+004
3.3989941E+005	8.2466259E+000	-1.3700644E+000	8.3596601E+000	9.4327555E+000	2.022420698549977E+002	4.4966581E-001	1.8710857E-002	-3.4176591E-001	-9.1798045E-003	1.000000000000000E+000	10	6.5204576E-003	7.7999075E-004	0	3.468180353757472E-005	1.1800463E-001	-1.9604858E-002	1.1962209E-001	-9.4327555E+000	-9.1798029E+000	5.5254642E+001	5.6012001E+001	-9.9432755E+001	0.0000000E+000	0.0000000E+000	0.0000000E+000	9.9432755E+001	0.0000000E+000	0.0000000E+000	0.0000000E+000	-9.9432755E+001	0.0000000E+000	0.0000000E+000	0.0000000E+000	9.4327555E+000	0.0000000E+000	0.0000000E+000	0.0000000E+000	-9.4327555E+000	6.0191522E+000	8.0567245E+001	3.401580364459531E-006	8.4136327E-006	2.4032348E+004
2.3106258E+005	6.7134352E+000	-6.7309999E-001	6.7470937E+000	5.7254353E+000	2.026650770750857E+002	4.4954520E-001	1.6827708E-002	-1.0233188E+000	-1.0184428E-002	1.000000000000000E+000	10	9.9864602E-003	1.4801129E-003	0	3.842672996797935E-005	1.4747259E-001	-1.4785843E-002	1.4821196E-001	-5.7254353E+000	-1.0184425E+001	1.0157851E+002	1.0208779E+002	-9.5725433E+001	0.0000000E+000	0.0000000E+000	0.0000000E+000	9.5725433E+001	0.0000000E+000	0.0000000E+000	0.0000000E+000	-9.5725433E+001	0.0000000E+000	0.0000000E+000	0.0000000E+000	5.7254353E+000	0.0000000E+000	0.0000000E+000	0.0000000E+000	-5.7254353E+000	9.9739046E+000	8.4274567E+001	3.744926430404630E-006	7.5648154E-006	2.6714582E+004
1.5707578E+005	6.1963582E+000	-2.4723968E-001	6.2012887E+000	2.2849357E+000	2.030870674151374E+002	4.4952467E-001	1.6952647E-002	-4.0981960E+000	-6.5142610E-003	1.000000000000000E+000	10	1.0933090E-002	1.7630352E-003	0	3.716394676614760E-005	1.6112860E-001	-6.4291605E-003	1.6125681E-001	-2.2849357E+000	-6.5142593E+000	1.6326140E+002	1.6339131E+002	-9.2284935E+001	0.0000000E+000	0.0000000E+000	0.0000000E+000	9.2284935E+001	0.0000000E+000	0.0000000E+000	0.0000000E+000	-9.2284935E+001	0.0000000E+000	0.0000000E+000	0.0000000E+000	2.2849357E+000	0.0000000E+000	0.0000000E+000	0.0000000E+000	-2.2849357E+000	2.5062151E+001	8.7715065E+001	-1.262783201831754E-006	7.6206329E-006	2.6516488E+004
1.0678630E+005	6.0830669E+000	-5.1408183E-002	6.0832844E+000	4.8419681E-001	2.036450908816332E+002	4.4952288E-001	1.6961964E-002	-2.8991613E+001	-2.0704304E-003	1.000000000000000E+000	10	1.0113081E-002	1.6624377E-003	0	4.259766168215881E-005	1.6437902E-001	-1.3891719E-003	1.6438489E-001	-4.8419681E-001	-2.0704420E+000	2.4499149E+002	2.4500023E+002	-9.0484200E+001	0.0000000E+000	0.0000000E+000	0.0000000E+000	9.0484200E+001	0.0000000E+000	0.0000000E+000	0.0000000E+000	-9.0484200E+001	0.0000000E+000	0.0000000E+000	0.0000000E+000	4.8419681E-001	0.0000000E+000	0.0000000E+000	0.0000000E+000	-4.8419681E-001	1.1832877E+002	8.9515800E+001	5.433714916011211E-006	7.6247907E-006	2.6501818E+004
7.2595008E+004	6.0635872E+000	2.3839884E-002	6.0636339E+000	-2.2526562E-001	2.040680823151051E+002	4.4952735E-001	1.7058924E-002	9.1962173E+001	1.4215154E-003	1.000000000000000E+000	10	1.0642835E-002	1.7551909E-003	0	4.102566205058247E-005	1.6491632E-001	6.4839277E-004	1.6491760E-001	2.2526562E-001	1.4215145E+000	3.6155719E+002	3.6156000E+002	-8.9774734E+001	0.0000000E+000	0.0000000E+000	0.0000000E+000	8.9774734E+001	0.0000000E+000	0.0000000E+000	0.0000000E+000	-8.9774734E+001	0.0000000E+000	0.0000000E+000	0.0000000E+000	-2.2526562E-001	0.0000000E+000	0.0000000E+000	0.0000000E+000	2.2526562E-001	2.5434634E+002	8.9774734E+001	-1.571999631576343E-006	7.6684528E-006	2.6351449E+004
4.9352359E+004	6.0687647E+000	4.3624751E-002	6.0689216E+000	-4.1185826E-001	2.044900677484839E+002	4.4953927E-001	1.8714618E-002	7.3922943E+001	3.8196372E-003	1.000000000000000E+000	10	1.0628574E-002	1.7513117E-003	0	4.119565922207484E-005	1.6476966E-001	1.1844314E-003	1.6477393E-001	4.1185826E-001	3.8196313E+000	5.3136078E+002	5.3137451E+002	-8.9588142E+001	0.0000000E+000	0.0000000E+000	0.0000000E+000	8.9588142E+001	0.0000000E+000	0.0000000E+000	0.0000000E+000	-8.9588142E+001	0.0000000E+000	0.0000000E+000	0.0000000E+000	-4.1185826E-001	0.0000000E+000	0.0000000E+000	0.0000000E+000	4.1185826E-001	1.3911288E+002	8.9588142E+001	1.699971714923693E-007	8.4129560E-006	2.4020756E+004
3.3551066E+004	6.0753813E+000	4.9848061E-002	6.0755858E+000	-4.7009715E-001	2.049120795018534E+002	4.4953820E-001	1.7485898E-002	9.5162437E+001	6.4059827E-003	1.000000000000000E+000	10	1.0555186E-002	1.7373117E-003	0	4.017386095396553E-005	1.6458763E-001	1.3504296E-003	1.6459318E-001	4.7009715E-001	6.4060268E+000	7.8074823E+002	7.8077454E+002	-8.9529900E+001	0.0000000E+000	0.0000000E+000	0.0000000E+000	8.9529900E+001	0.0000000E+000	0.0000000E+000	0.0000000E+000	-8.9529900E+001	0.0000000E+000	0.0000000E+000	0.0000000E+000	-4.7009715E-001	0.0000000E+000	0.0000000E+000	0.0000000E+000	4.7009715E-001	1.2187798E+002	8.9529900E+001	-1.021798268109305E-006	7.8605790E-006	2.5708613E+004
2.2806563E+004	6.0875964E+000	5.3115096E-002	6.0878282E+000	-4.9990070E-001	2.053350678152783E+002	4.4953540E-001	1.6249718E-002	1.3138396E+002	1.0001232E-002	1.000000000000000E+000	10	1.0474449E-002	1.7205559E-003	0	4.360496266722395E-005	1.6425593E-001	1.4331552E-003	1.6426219E-001	4.9990070E-001	1.0001235E+001	1.1462555E+003	1.1462991E+003	-8.9500099E+001	0.0000000E+000	0.0000000E+000	0.0000000E+000	8.9500099E+001	0.0000000E+000	0.0000000E+000	0.0000000E+000	-8.9500099E+001	0.0000000E+000	0.0000000E+000	0.0000000E+000	-4.9990070E-001	0.0000000E+000	0.0000000E+000	0.0000000E+000	4.9990070E-001	1.1461142E+002	8.9500099E+001	3.431101713258416E-006	7.3048236E-006	2.7664197E+004
1.5504379E+004	6.1009040E+000	4.7142789E-002	6.1010861E+000	-4.4272605E-001	2.057570826886367E+002	4.4953659E-001	1.7551158E-002	2.1774617E+002	1.3000700E-002	1.000000000000000E+000	10	1.0439340E-002	1.7110625E-003	0	4.731083541168158E-005	1.6390036E-001	1.2664878E-003	1.6390525E-001	4.4272605E-001	1.3000702E+001	1.6824635E+003	1.6825137E+003	-8.9557274E+001	0.0000000E+000	0.0000000E+000	0.0000000E+000	8.9557274E+001	0.0000000E+000	0.0000000E+000	0.0000000E+000	-8.9557274E+001	0.0000000E+000	0.0000000E+000	0.0000000E+000	-4.4272605E-001	0.0000000E+000	0.0000000E+000	0.0000000E+000	4.4272605E-001	1.2941330E+002	8.9557274E+001	3.705872744457635E-006	7.8898875E-006	2.5612932E+004
1.0540381E+004	6.1044273E+000	5.2437488E-002	6.1046524E+000	-4.9216294E-001	2.061790812153631E+002	4.4953752E-001	1.6177000E-002	2.8795325E+002	2.1246325E-002	1.000000000000000E+000	10	1.0326295E-002	1.6915451E-003	0	4.865060323904294E-005	1.6380344E-001	1.4070839E-003	1.6380949E-001	4.9216294E-001	2.1246397E+001	2.4733572E+003	2.4734485E+003	-8.9507835E+001	0.0000000E+000	0.0000000E+000	0.0000000E+000	8.9507835E+001	0.0000000E+000	0.0000000E+000	0.0000000E+000	-8.9507835E+001	0.0000000E+000	0.0000000E+000	0.0000000E+000	-4.9216294E-001	0.0000000E+000	0.0000000E+000	0.0000000E+000	4.9216294E-001	1.1641342E+002	8.9507835E+001	1.339767827361359E-006	7.2721687E-006	2.7788682E+004
7.1637817E+003	6.1184540E+000	4.8866533E-002	6.1186490E+000	-4.5759705E-001	2.067026691335632E+002	4.4951776E-001	1.1640626E-002	4.5463855E+002	2.8998680E-002	1.000000000000000E+000	10	1.0234861E-002	1.6727321E-003	0	4.969948245881177E-005	1.6342956E-001	1.3052702E-003	1.6343477E-001	4.5759705E-001	2.8998602E+001	3.6308508E+003	3.6309666E+003	-8.9542404E+001	0.0000000E+000	0.0000000E+000	0.0000000E+000	8.9542404E+001	0.0000000E+000	0.0000000E+000	0.0000000E+000	-8.9542404E+001	0.0000000E+000	0.0000000E+000	0.0000000E+000	-4.5759705E-001	0.0000000E+000	0.0000000E+000	0.0000000E+000	4.5759705E-001	1.2520745E+002	8.9542404E+001	1.048879219768829E-006	5.2326682E-006	3.8616289E+004
4.8715591E+003	6.1267009E+000	5.3595889E-002	6.1269355E+000	-5.0120610E-001	2.073922718330214E+002	4.4952968E-001	1.6370911E-002	6.0956592E+002	4.6644133E-002	1.000000000000000E+000	10	1.0114683E-002	1.6508552E-003	0	5.008839590380376E-005	1.6320749E-001	1.4277260E-003	1.6321373E-001	5.0120610E-001	4.6644070E+001	5.3320254E+003	5.3322295E+003	-8.9498795E+001	0.0000000E+000	0.0000000E+000	0.0000000E+000	8.9498795E+001	0.0000000E+000	0.0000000E+000	0.0000000E+000	-8.9498795E+001	0.0000000E+000	0.0000000E+000	0.0000000E+000	-5.0120610E-001	0.0000000E+000	0.0000000E+000	0.0000000E+000	5.0120610E-001	1.1431289E+002	8.9498795E+001	3.889134449919855E-007	7.3592105E-006	2.7459051E+004
3.3110596E+003	6.1350832E+000	5.7456229E-002	6.1353521E+000	-5.3657025E-001	2.078572694284376E+002	4.4953492E-001	1.6741956E-002	8.3659650E+002	7.3368780E-002	1.000000000000000E+000	10	1.0688489E-002	1.7421150E-003	0	5.086169075283558E-005	1.6298267E-001	1.5263640E-003	1.6298983E-001	5.3657025E-001	7.3368423E+001	7.8341992E+003	7.8345430E+003	-8.9463432E+001	0.0000000E+000	0.0000000E+000	0.0000000E+000	8.9463432E+001	0.0000000E+000	0.0000000E+000	0.0000000E+000	-8.9463432E+001	0.0000000E+000	0.0000000E+000	0.0000000E+000	-5.3657025E-001	0.0000000E+000	0.0000000E+000	0.0000000E+000	5.3657025E-001	1.0677838E+002	8.9463432E+001	7.732948490318215E-007	7.5260937E-006	2.6850801E+004
2.2507205E+003	6.1420422E+000	6.9236107E-002	6.1424322E+000	-6.4583880E-001	2.083222624638584E+002	4.4953620E-001	1.6674833E-002	1.0213296E+003	1.2976289E-001	1.000000000000000E+000	10	1.0985998E-002	1.7885419E-003	0	5.451184371226312E-005	1.6279162E-001	1.8350671E-003	1.6280197E-001	6.4583880E-001	1.2976230E+002	1.1511465E+004	1.1512196E+004	-8.9354164E+001	0.0000000E+000	0.0000000E+000	0.0000000E+000	8.9354164E+001	0.0000000E+000	0.0000000E+000	0.0000000E+000	-8.9354164E+001	0.0000000E+000	0.0000000E+000	0.0000000E+000	-6.4583880E-001	0.0000000E+000	0.0000000E+000	0.0000000E+000	6.4583880E-001	8.8711548E+001	8.9354164E+001	3.650152959427541E-006	7.4959412E-006	2.6958963E+004
1.5304901E+003	6.1495075E+000	8.8627070E-002	6.1501460E+000	-8.2569301E-001	2.090092894831541E+002	4.4953865E-001	1.6999256E-002	1.1733383E+003	2.4366052E-001	1.000000000000000E+000	10	1.0170178E-002	1.6536481E-003	0	6.123637659120788E-005	1.6258088E-001	2.3431252E-003	1.6259776E-001	8.2569301E-001	2.4365997E+002	1.6906709E+004	1.6908465E+004	-8.9174309E+001	0.0000000E+000	0.0000000E+000	0.0000000E+000	8.9174309E+001	0.0000000E+000	0.0000000E+000	0.0000000E+000	-8.9174309E+001	0.0000000E+000	0.0000000E+000	0.0000000E+000	-8.2569301E-001	0.0000000E+000	0.0000000E+000	0.0000000E+000	8.2569301E-001	6.9386337E+001	8.9174309E+001	6.724532878944758E-006	7.6418228E-006	2.6444607E+004
1.0403328E+003	6.1468673E+000	1.1413740E-001	6.1479268E+000	-1.0637678E+000	2.094742860385741E+002	4.4953924E-001	1.6965693E-002	1.3403551E+003	4.6197498E-001	1.000000000000000E+000	10	1.0226806E-002	1.6634560E-003	0	6.230157297064498E-005	1.6262843E-001	3.0197471E-003	1.6265646E-001	1.0637678E+000	4.6197443E+002	2.4879654E+004	2.4883943E+004	-8.8936234E+001	0.0000000E+000	0.0000000E+000	0.0000000E+000	8.8936234E+001	0.0000000E+000	0.0000000E+000	0.0000000E+000	-8.8936234E+001	0.0000000E+000	0.0000000E+000	0.0000000E+000	-1.0637678E+000	0.0000000E+000	0.0000000E+000	0.0000000E+000	1.0637678E+000	5.3854980E+001	8.8936234E+001	1.065196379437103E-006	7.6267447E-006	2.6496957E+004
7.0703625E+002	6.1586699E+000	1.5669848E-001	6.1606631E+000	-1.4574940E+000	2.099387846206228E+002	4.4953540E-001	1.6141577E-002	1.4365265E+003	9.2936927E-001	1.000000000000000E+000	10	1.0264628E-002	1.6661563E-003	0	6.447351422314791E-005	1.6226767E-001	4.1286666E-003	1.6232018E-001	1.4574940E+000	9.2937091E+002	3.6526703E+004	3.6538523E+004	-8.8542503E+001	0.0000000E+000	0.0000000E+000	0.0000000E+000	8.8542503E+001	0.0000000E+000	0.0000000E+000	0.0000000E+000	-8.8542503E+001	0.0000000E+000	0.0000000E+000	0.0000000E+000	-1.4574940E+000	0.0000000E+000	0.0000000E+000	0.0000000E+000	1.4574940E+000	3.9302677E+001	8.8542503E+001	2.171941252502931E-006	7.2562102E-006	2.7849535E+004
4.8076920E+002	6.1687665E+000	2.1370688E-001	6.1724672E+000	-1.9841256E+000	2.104040166960476E+002	4.4953436E-001	1.6108016E-002	1.5490485E+003	1.8568825E+000	1.000000000000000E+000	10	1.0283432E-002	1.6660164E-003	0	6.685976252261915E-005	1.6191265E-001	5.6092003E-003	1.6200978E-001	1.9841256E+000	1.8568802E+003	5.3599930E+004	5.3632086E+004	-8.8015877E+001	0.0000000E+000	0.0000000E+000	0.0000000E+000	8.8015877E+001	0.0000000E+000	0.0000000E+000	0.0000000E+000	-8.8015877E+001	0.0000000E+000	0.0000000E+000	0.0000000E+000	-1.9841256E+000	0.0000000E+000	0.0000000E+000	0.0000000E+000	1.9841256E+000	2.8865549E+001	8.8015877E+001	2.386248299471235E-006	7.2411062E-006	2.7907494E+004
3.2677771E+002	6.1801462E+000	3.0647415E-001	6.1877408E+000	-2.8389783E+000	2.108672738380774E+002	4.4954035E-001	1.6329892E-002	1.5891829E+003	3.8984983E+000	1.000000000000000E+000	10	1.0290069E-002	1.6629767E-003	0	6.867281081526178E-005	1.6141152E-001	8.0044148E-003	1.6160987E-001	2.8389783E+000	3.8985022E+003	7.8614422E+004	7.8711023E+004	-8.7161018E+001	0.0000000E+000	0.0000000E+000	0.0000000E+000	8.7161018E+001	0.0000000E+000	0.0000000E+000	0.0000000E+000	-8.7161018E+001	0.0000000E+000	0.0000000E+000	0.0000000E+000	-2.8389783E+000	0.0000000E+000	0.0000000E+000	0.0000000E+000	2.8389783E+000	2.0165310E+001	8.7161018E+001	1.813048292642635E-006	7.3409451E-006	2.7528678E+004
2.2206076E+002	6.1947203E+000	4.3238652E-001	6.2097921E+000	-3.9927237E+000	2.113284875932877E+002	4.4952172E-001	1.5854441E-002	1.6575863E+003	8.0364885E+000	1.000000000000000E+000	10	1.0288172E-002	1.6567659E-003	0	7.164479917217331E-005	1.6064513E-001	1.1212901E-002	1.6103598E-001	3.9927237E+000	8.0364839E+003	1.1513726E+005	1.1541739E+005	-8.6007278E+001	0.0000000E+000	0.0000000E+000	0.0000000E+000	8.6007278E+001	0.0000000E+000	0.0000000E+000	0.0000000E+000	-8.6007278E+001	0.0000000E+000	0.0000000E+000	0.0000000E+000	-3.9927237E+000	0.0000000E+000	0.0000000E+000	0.0000000E+000	3.9927237E+000	1.4326812E+001	8.6007278E+001	2.971988356911527E-006	7.1269155E-006	2.8353049E+004
1.5101485E+002	6.2203870E+000	6.1071163E-001	6.2502947E+000	-5.6072745E+000	2.117899863085040E+002	4.4953230E-001	1.6643131E-002	1.7256959E+003	1.6475389E+001	1.000000000000000E+000	10	1.0295407E-002	1.6471874E-003	0	7.306557127857619E-005	1.5922689E-001	1.5632745E-002	1.5999246E-001	5.6072745E+000	1.6475396E+004	1.6780964E+005	1.6861647E+005	-8.4392723E+001	0.0000000E+000	0.0000000E+000	0.0000000E+000	8.4392723E+001	0.0000000E+000	0.0000000E+000	0.0000000E+000	-8.4392723E+001	0.0000000E+000	0.0000000E+000	0.0000000E+000	-5.6072745E+000	0.0000000E+000	0.0000000E+000	0.0000000E+000	5.6072745E+000	1.0185473E+001	8.4392723E+001	1.420772106402885E-006	7.4816248E-006	2.7010080E+004
1.0266736E+002	6.2505941E+000	8.6606818E-001	6.3103089E+000	-7.8885474E+000	2.122649087844329E+002	4.4953376E-001	1.6221751E-002	1.7899282E+003	3.3716194E+001	1.000000000000000E+000	10	1.0296240E-002	1.6316540E-003	0	7.378163298674756E-005	1.5697123E-001	2.1749578E-002	1.5847085E-001	7.8885474E+000	3.3716211E+004	2.4333681E+005	2.4566153E+005	-8.2111450E+001	0.0000000E+000	0.0000000E+000	0.0000000E+000	8.2111450E+001	0.0000000E+000	0.0000000E+000	0.0000000E+000	-8.2111450E+001	0.0000000E+000	0.0000000E+000	0.0000000E+000	-7.8885474E+000	0.0000000E+000	0.0000000E+000	0.0000000E+000	7.8885474E+000	7.2172079E+000	8.2111450E+001	7.160617081713669E-007	7.2922244E-006	2.7711791E+004
6.9754463E+001	6.2955227E+000	1.2339169E+000	6.4153066E+000	-1.1089347E+001	2.127320303799497E+002	4.4953629E-001	1.6477184E-002	1.8491079E+003	6.8406792E+001	1.000000000000000E+000	10	1.0304055E-002	1.6061672E-003	0	7.523123270899265E-005	1.5296674E-001	2.9981345E-002	1.5587720E-001	1.1089347E+001	6.8406805E+004	3.4901584E+005	3.5565650E+005	-7.8910652E+001	0.0000000E+000	0.0000000E+000	0.0000000E+000	7.8910652E+001	0.0000000E+000	0.0000000E+000	0.0000000E+000	-7.8910652E+001	0.0000000E+000	0.0000000E+000	0.0000000E+000	-1.1089347E+001	0.0000000E+000	0.0000000E+000	0.0000000E+000	1.1089347E+001	5.1020637E+000	7.8910652E+001	1.449599722245083E-006	7.4070922E-006	2.7282350E+004
