EC-Lab ASCII FILE
Nb header lines : 63                          

Potentio Electrochemical Impedance Spectroscopy

Run on channel : 2 (SN 69290)
User : 
CE vs. WE compliance from -10 V to 10 V
Electrode connection : standard
Potential control : Ewe
Ewe ctrl range : min = -1.00 V, max = 1.00 V
Safety Limits :
	Do not start on E overload
Acquisition started on : 11/12/2025 15:49:31.265
Loaded Setting File :  C:\Users\User\Documents\EC-Lab\Data\Yatsuzuka\20251112_2-148_alpha_reproducibility\20251112_2-148_002_alpha_reproducibility_2_K1.mps
Saved on :
	File : 20251112_2-148_004_Na_first_2_Na1_02_PEIS_C02.mpr
	Directory : C:\Users\User\Documents\EC-Lab\Data\Yatsuzuka\20251112_2-148_alpha_reproducibility\
	Host : 192.109.209.127
Device : SP-150e (SN .003883)
Address : 192.109.209.128
EC-Lab for windows v11.52 (software)
Internet server v11.52 (firmware)
Command interpretor v11.50 (firmware)
Electrode material : 
Initial state : 
Electrolyte : 
Comments : 
Electrode surface area : 0.001 cm2
Characteristic mass : 0.001 g
Equivalent Weight : 0.000 g/eq.
Density : 0.000 g/cm3
Volume (V) : 0.001 cm3
Cycle Definition : Charge/Discharge alternance
Mode                Single sine         
E (V)               0.4500              
vs.                 Ref                 
tE (h:m:s)          0:00:0.0000         
record              0                   
dI                  0.000               
unit dI             mA                  
dt (s)              0.000               
fi                  500.000             
unit fi             kHz                 
ff                  1.000               
unit ff             Hz                  
Nd                  6                   
Points              per decade          
spacing             Logarithmic         
Va (mV)             10.0                
pw                  0.10                
Na                  2                   
corr                0                   
E range min (V)     -1.000              
E range max (V)     1.000               
I Range             Auto                
Bandwidth           5                   
nc cycles           0                   
goto Ns'            0                   
nr cycles           0                   
inc. cycle          0                   

freq/Hz	Re(Z)/Ohm	-Im(Z)/Ohm	|Z|/Ohm	Phase(Z)/deg	time/s	<Ewe>/V	<I>/mA	Cs/uF	Cp/uF	cycle number	I Range	|Ewe|/V	|I|/A	Ns	(Q-Qo)/mA.h	Re(Y)/Ohm-1	Im(Y)/Ohm-1	|Y|/Ohm-1	Phase(Y)/deg	Re(C)/nF	Im(C)/nF	|C|/nF	Phase(C)/deg	Re(M)	Im(M)	|M|	Phase(M)/deg	Re(Permittivity)	Im(Permittivity)	|Permittivity|	Phase(Permittivity)/deg	Re(Resistivity)/Ohm.cm	Im(Resistivity)/Ohm.cm	|Resistivity|/Ohm.cm	Phase(Resistivity)/deg	Re(Conductivity)/mS/cm	Im(Conductivity)/mS/cm	|Conductivity|/mS/cm	Phase(Conductivity)/deg	Tan(Delta)	Loss Angle(Delta)/deg	dq/mA.h	
5.0001856E+005	1.3458732E+001	-4.1098986E+000	1.4072268E+001	1.6981123E+001	2.016140767318575E+002	4.4978121E-001	2.4172023E-002	-7.7446699E-002	-6.6059753E-003	1.000000000000000E+000	10	4.5765820E-003	3.2521994E-004	0	3.563541775199701E-005	6.7963533E-002	-2.0754056E-002	7.1061753E-002	-1.6981123E+001	-6.6059761E+000	2.1632662E+001	2.2618818E+001	-1.0698112E+002	0.0000000E+000	0.0000000E+000	0.0000000E+000	1.0698112E+002	0.0000000E+000	0.0000000E+000	0.0000000E+000	-1.0698112E+002	0.0000000E+000	0.0000000E+000	0.0000000E+000	1.6981123E+001	0.0000000E+000	0.0000000E+000	0.0000000E+000	-1.6981123E+001	3.2747114E+000	7.3018875E+001	3.563541775199701E-005
3.3989941E+005	8.8888063E+000	-2.3607247E+000	9.1969509E+000	1.4873487E+001	2.020360802985524E+002	4.4968984E-001	2.2150891E-002	-1.9834642E-001	-1.3068547E-002	1.000000000000000E+000	10	6.8407580E-003	7.4380718E-004	0	3.888899839252311E-005	1.0508863E-001	-2.7909856E-002	1.0873169E-001	-1.4873487E+001	-1.3068548E+001	4.9206833E+001	5.0912663E+001	-1.0487349E+002	0.0000000E+000	0.0000000E+000	0.0000000E+000	1.0487349E+002	0.0000000E+000	0.0000000E+000	0.0000000E+000	-1.0487349E+002	0.0000000E+000	0.0000000E+000	0.0000000E+000	1.4873487E+001	0.0000000E+000	0.0000000E+000	0.0000000E+000	-1.4873487E+001	3.7652872E+000	7.5126511E+001	3.253580640526102E-006
2.3106258E+005	7.3539867E+000	-1.2666008E+000	7.4622650E+000	9.7723598E+000	2.024580664519599E+002	4.4955415E-001	2.3631334E-002	-5.4381442E-001	-1.5667113E-002	1.000000000000000E+000	10	1.0059489E-002	1.3480476E-003	0	3.891968227754114E-005	1.3206311E-001	-2.2745656E-002	1.3400757E-001	-9.7723598E+000	-1.5667117E+001	9.0964523E+001	9.2303864E+001	-9.9772362E+001	0.0000000E+000	0.0000000E+000	0.0000000E+000	9.9772362E+001	0.0000000E+000	0.0000000E+000	0.0000000E+000	-9.9772362E+001	0.0000000E+000	0.0000000E+000	0.0000000E+000	9.7723598E+000	0.0000000E+000	0.0000000E+000	0.0000000E+000	-9.7723598E+000	5.8060808E+000	8.0227638E+001	3.068388501803107E-008
1.5707578E+005	6.8694539E+000	-6.4411801E-001	6.8995857E+000	5.3567076E+000	2.028800839653268E+002	4.4952133E-001	2.6942734E-002	-1.5730606E+000	-1.3709774E-002	1.000000000000000E+000	10	1.0868360E-002	1.5752192E-003	0	4.054506911504238E-005	1.4430326E-001	-1.3530673E-002	1.4493623E-001	-5.3567076E+000	-1.3709768E+001	1.4621338E+002	1.4685472E+002	-9.5356705E+001	0.0000000E+000	0.0000000E+000	0.0000000E+000	9.5356705E+001	0.0000000E+000	0.0000000E+000	0.0000000E+000	-9.5356705E+001	0.0000000E+000	0.0000000E+000	0.0000000E+000	5.3567076E+000	0.0000000E+000	0.0000000E+000	0.0000000E+000	-5.3567076E+000	1.0664900E+001	8.4643295E+001	1.625386837501233E-006
1.0678630E+005	6.7437973E+000	-3.3981562E-001	6.7523532E+000	2.8846579E+000	2.033020685986994E+002	4.4953769E-001	2.7893640E-002	-4.3859258E+000	-1.1108045E-002	1.000000000000000E+000	10	1.0863726E-002	1.6088800E-003	0	4.596449036039929E-005	1.4790887E-001	-7.4530328E-003	1.4809652E-001	-2.8846579E+000	-1.1108049E+001	2.2044426E+002	2.2072395E+002	-9.2884659E+001	0.0000000E+000	0.0000000E+000	0.0000000E+000	9.2884659E+001	0.0000000E+000	0.0000000E+000	0.0000000E+000	-9.2884659E+001	0.0000000E+000	0.0000000E+000	0.0000000E+000	2.8846579E+000	0.0000000E+000	0.0000000E+000	0.0000000E+000	-2.8846579E+000	1.9845461E+001	8.7115341E+001	5.419421245356919E-006
7.2595008E+004	6.7120414E+000	-1.8819319E-001	6.7146792E+000	1.6060467E+000	2.037240870187670E+002	4.4954228E-001	2.4804130E-002	-1.1649559E+001	-9.1509614E-003	1.000000000000000E+000	10	1.0690171E-002	1.5920599E-003	0	4.812199309693339E-005	1.4886893E-001	-4.1740090E-003	1.4892744E-001	-1.6060467E+000	-9.1509733E+000	3.2637543E+002	3.2650369E+002	-9.1606049E+001	0.0000000E+000	0.0000000E+000	0.0000000E+000	9.1606049E+001	0.0000000E+000	0.0000000E+000	0.0000000E+000	-9.1606049E+001	0.0000000E+000	0.0000000E+000	0.0000000E+000	1.6060467E+000	0.0000000E+000	0.0000000E+000	0.0000000E+000	-1.6060467E+000	3.5665699E+001	8.8393951E+001	2.157502736534097E-006
4.9352359E+004	6.7011623E+000	-1.1321165E-001	6.7021184E+000	9.6788180E-001	2.041470682388317E+002	4.4955271E-001	2.1526301E-002	-2.8485319E+001	-8.1279138E-003	1.000000000000000E+000	10	1.0592094E-002	1.5804098E-003	0	4.986253280622703E-005	1.4918526E-001	-2.5203852E-003	1.4920655E-001	-9.6788180E-001	-8.1279020E+000	4.8110309E+002	4.8117175E+002	-9.0967880E+001	0.0000000E+000	0.0000000E+000	0.0000000E+000	9.0967880E+001	0.0000000E+000	0.0000000E+000	0.0000000E+000	-9.0967880E+001	0.0000000E+000	0.0000000E+000	0.0000000E+000	9.6788180E-001	0.0000000E+000	0.0000000E+000	0.0000000E+000	-9.6788180E-001	5.9191456E+001	8.9032120E+001	1.740539709293641E-006
3.3551066E+004	6.6933022E+000	-7.1457796E-002	6.6936836E+000	6.1166734E-001	2.045700761255721E+002	4.4954702E-001	2.0495223E-002	-6.6384117E+001	-7.5654206E-003	1.000000000000000E+000	10	1.0525606E-002	1.5724683E-003	0	5.375411093946443E-005	1.4938606E-001	-1.5948478E-003	1.4939457E-001	-6.1166734E-001	-7.5653768E+000	7.0863708E+002	7.0867749E+002	-9.0611664E+001	0.0000000E+000	0.0000000E+000	0.0000000E+000	9.0611664E+001	0.0000000E+000	0.0000000E+000	0.0000000E+000	-9.0611664E+001	0.0000000E+000	0.0000000E+000	0.0000000E+000	6.1166734E-001	0.0000000E+000	0.0000000E+000	0.0000000E+000	-6.1166734E-001	9.3667908E+001	8.9388336E+001	3.891578133237397E-006
2.2806563E+004	6.6965094E+000	-4.2719465E-002	6.6966457E+000	3.6550561E-001	2.049920670256397E+002	4.4955564E-001	2.3897972E-002	-1.6335577E+002	-6.6477004E-003	1.000000000000000E+000	10	1.0528962E-002	1.5722740E-003	0	5.497520809249060E-005	1.4932545E-001	-9.5260120E-004	1.4932849E-001	-3.6550561E-001	-6.6477628E+000	1.0420634E+003	1.0420846E+003	-9.0365509E+001	0.0000000E+000	0.0000000E+000	0.0000000E+000	9.0365509E+001	0.0000000E+000	0.0000000E+000	0.0000000E+000	-9.0365509E+001	0.0000000E+000	0.0000000E+000	0.0000000E+000	3.6550561E-001	0.0000000E+000	0.0000000E+000	0.0000000E+000	-3.6550561E-001	1.5675546E+002	8.9634491E+001	1.221097153026171E-006
1.5504379E+004	6.6964116E+000	-2.0651825E-002	6.6964436E+000	1.7670041E-001	2.054140768590296E+002	4.4955558E-001	2.6752550E-002	-4.9705829E+002	-4.7275461E-003	1.000000000000000E+000	10	1.0449347E-002	1.5604324E-003	0	6.021293808870703E-005	1.4933228E-001	-4.6054283E-004	1.4933300E-001	-1.7670041E-001	-4.7274489E+000	1.5329199E+003	1.5329272E+003	-9.0176697E+001	0.0000000E+000	0.0000000E+000	0.0000000E+000	9.0176697E+001	0.0000000E+000	0.0000000E+000	0.0000000E+000	-9.0176697E+001	0.0000000E+000	0.0000000E+000	0.0000000E+000	1.7670041E-001	0.0000000E+000	0.0000000E+000	0.0000000E+000	-1.7670041E-001	3.2425278E+002	8.9823303E+001	5.237729996216427E-006
1.0540381E+004	6.6853065E+000	-9.4017200E-003	6.6853132E+000	8.0576487E-002	2.058360855723877E+002	4.4955766E-001	2.5792321E-002	-1.6060406E+003	-3.1763448E-003	1.000000000000000E+000	10	1.0384305E-002	1.5533012E-003	0	6.108248710430537E-005	1.4958148E-001	-2.1036030E-004	1.4958163E-001	-8.0576487E-002	-3.1762481E+000	2.2586121E+003	2.2586143E+003	-9.0080574E+001	0.0000000E+000	0.0000000E+000	0.0000000E+000	9.0080574E+001	0.0000000E+000	0.0000000E+000	0.0000000E+000	-9.0080574E+001	0.0000000E+000	0.0000000E+000	0.0000000E+000	8.0576487E-002	0.0000000E+000	0.0000000E+000	0.0000000E+000	-8.0576487E-002	7.1107269E+002	8.9919426E+001	8.695490155983453E-007
7.1637817E+003	6.6941905E+000	3.5001333E-003	6.6941915E+000	-2.9957743E-002	2.063596635172871E+002	4.4953498E-001	2.0478439E-002	6.3473613E+003	1.7352663E-003	1.000000000000000E+000	10	1.0276212E-002	1.5350939E-003	0	6.548775158021211E-005	1.4938322E-001	7.8106699E-005	1.4938323E-001	2.9957743E-002	1.7354335E+000	3.3187886E+003	3.3187891E+003	-8.9970039E+001	0.0000000E+000	0.0000000E+000	0.0000000E+000	8.9970039E+001	0.0000000E+000	0.0000000E+000	0.0000000E+000	-8.9970039E+001	0.0000000E+000	0.0000000E+000	0.0000000E+000	-2.9957743E-002	0.0000000E+000	0.0000000E+000	0.0000000E+000	2.9957743E-002	1.9125530E+003	8.9970039E+001	4.405264475906734E-006
4.8715591E+003	6.6990623E+000	8.7877568E-003	6.6990681E+000	-7.5159937E-002	2.070493065100600E+002	4.4954211E-001	2.2046499E-002	3.7176980E+003	6.3973693E-003	1.000000000000000E+000	10	1.0118078E-002	1.5103709E-003	0	7.286154772215781E-005	1.4927436E-001	1.9581649E-004	1.4927450E-001	7.5159937E-002	6.3971338E+000	4.8768276E+003	4.8768320E+003	-8.9924843E+001	0.0000000E+000	0.0000000E+000	0.0000000E+000	8.9924843E+001	0.0000000E+000	0.0000000E+000	0.0000000E+000	-8.9924843E+001	0.0000000E+000	0.0000000E+000	0.0000000E+000	-7.5159937E-002	0.0000000E+000	0.0000000E+000	0.0000000E+000	7.5159937E-002	7.6231769E+002	8.9924843E+001	7.373796141945703E-006
3.3110596E+003	6.7011204E+000	2.9672951E-002	6.7011862E+000	-2.5370738E-001	2.075143071988132E+002	4.4954467E-001	2.2501452E-002	1.6199158E+003	3.1762198E-002	1.000000000000000E+000	10	1.0888114E-002	1.6248039E-003	0	7.606757956189621E-005	1.4922585E-001	6.6078070E-004	1.4922731E-001	2.5370738E-001	3.1762259E+001	7.1729399E+003	7.1730103E+003	-8.9746292E+001	0.0000000E+000	0.0000000E+000	0.0000000E+000	8.9746292E+001	0.0000000E+000	0.0000000E+000	0.0000000E+000	-8.9746292E+001	0.0000000E+000	0.0000000E+000	0.0000000E+000	-2.5370738E-001	0.0000000E+000	0.0000000E+000	0.0000000E+000	2.5370738E-001	2.2583263E+002	8.9746292E+001	3.206031839738402E-006
2.2507205E+003	6.7056756E+000	4.4714909E-002	6.7058249E+000	-3.8205510E-001	2.082012901381095E+002	4.4955072E-001	2.2488391E-002	1.5814164E+003	7.0314765E-002	1.000000000000000E+000	10	1.0136946E-002	1.5116628E-003	0	8.022942602537417E-005	1.4912078E-001	9.9436985E-004	1.4912409E-001	3.8205510E-001	7.0315147E+001	1.0544761E+004	1.0544995E+004	-8.9617943E+001	0.0000000E+000	0.0000000E+000	0.0000000E+000	8.9617943E+001	0.0000000E+000	0.0000000E+000	0.0000000E+000	-8.9617943E+001	0.0000000E+000	0.0000000E+000	0.0000000E+000	-3.8205510E-001	0.0000000E+000	0.0000000E+000	0.0000000E+000	3.8205510E-001	1.4996509E+002	8.9617943E+001	4.161846463477954E-006
1.5304901E+003	6.7099943E+000	5.8444910E-002	6.7102489E+000	-4.9904093E-001	2.086662879468640E+002	4.4954711E-001	2.1420022E-002	1.7792744E+003	1.3497677E-001	1.000000000000000E+000	10	1.0333507E-002	1.5399589E-003	0	8.397486164134979E-005	1.4902012E-001	1.2979843E-003	1.4902577E-001	4.9904093E-001	1.3497617E+002	1.5496532E+004	1.5497120E+004	-8.9500961E+001	0.0000000E+000	0.0000000E+000	0.0000000E+000	8.9500961E+001	0.0000000E+000	0.0000000E+000	0.0000000E+000	-8.9500961E+001	0.0000000E+000	0.0000000E+000	0.0000000E+000	-4.9904093E-001	0.0000000E+000	0.0000000E+000	0.0000000E+000	4.9904093E-001	1.1480888E+002	8.9500961E+001	3.745435615975623E-006
1.0403328E+003	6.7108889E+000	8.4743433E-002	6.7114239E+000	-7.2347838E-001	2.091312695156157E+002	4.4954416E-001	2.3489639E-002	1.8052686E+003	2.8782240E-001	1.000000000000000E+000	10	1.0422628E-002	1.5529683E-003	0	8.639421321607693E-005	1.4898780E-001	1.8813808E-003	1.4899968E-001	7.2347838E-001	2.8782312E+002	2.2792848E+004	2.2794664E+004	-8.9276520E+001	0.0000000E+000	0.0000000E+000	0.0000000E+000	8.9276520E+001	0.0000000E+000	0.0000000E+000	0.0000000E+000	-8.9276520E+001	0.0000000E+000	0.0000000E+000	0.0000000E+000	-7.2347838E-001	0.0000000E+000	0.0000000E+000	0.0000000E+000	7.2347838E-001	7.9190666E+001	8.9276520E+001	2.419351574727140E-006
7.0703625E+002	6.7204933E+000	1.2719800E-001	6.7216969E+000	-1.0843011E+000	2.095957966043061E+002	4.4954389E-001	2.0163337E-002	1.7696940E+003	6.3372505E-001	1.000000000000000E+000	10	1.0474212E-002	1.5582689E-003	0	9.000449227406514E-005	1.4874531E-001	2.8152855E-003	1.4877196E-001	1.0843011E+000	6.3372723E+002	3.3482801E+004	3.3488797E+004	-8.8915695E+001	0.0000000E+000	0.0000000E+000	0.0000000E+000	8.8915695E+001	0.0000000E+000	0.0000000E+000	0.0000000E+000	-8.8915695E+001	0.0000000E+000	0.0000000E+000	0.0000000E+000	-1.0843011E+000	0.0000000E+000	0.0000000E+000	0.0000000E+000	1.0843011E+000	5.2834900E+001	8.8915695E+001	3.610279057988212E-006
4.8076920E+002	6.7342501E+000	1.7553259E-001	6.7365375E+000	-1.4931135E+000	2.100610189464205E+002	4.4954160E-001	2.2505173E-002	1.8859308E+003	1.2804652E+000	1.000000000000000E+000	10	1.0506195E-002	1.5595838E-003	0	9.306901659462083E-005	1.4839381E-001	3.8679806E-003	1.4844421E-001	1.4931135E+000	1.2804628E+003	4.9124629E+004	4.9141313E+004	-8.8506889E+001	0.0000000E+000	0.0000000E+000	0.0000000E+000	8.8506889E+001	0.0000000E+000	0.0000000E+000	0.0000000E+000	-8.8506889E+001	0.0000000E+000	0.0000000E+000	0.0000000E+000	-1.4931135E+000	0.0000000E+000	0.0000000E+000	0.0000000E+000	1.4931135E+000	3.8364670E+001	8.8506889E+001	3.064524320555692E-006
3.2677771E+002	6.7409749E+000	2.5497252E-001	6.7457952E+000	-2.1661389E+000	2.105242629151180E+002	4.4953835E-001	2.0937111E-002	1.9101803E+003	2.7289450E+000	1.000000000000000E+000	10	1.0510556E-002	1.5580901E-003	0	9.672021116793621E-005	1.4813456E-001	5.6030829E-003	1.4824049E-001	2.1661389E+000	2.7289434E+003	7.2147969E+004	7.2199563E+004	-8.7833862E+001	0.0000000E+000	0.0000000E+000	0.0000000E+000	8.7833862E+001	0.0000000E+000	0.0000000E+000	0.0000000E+000	-8.7833862E+001	0.0000000E+000	0.0000000E+000	0.0000000E+000	-2.1661389E+000	0.0000000E+000	0.0000000E+000	0.0000000E+000	2.1661389E+000	2.6438046E+001	8.7833862E+001	3.651194573315382E-006
2.2206076E+002	6.7520247E+000	3.5771394E-001	6.7614937E+000	-3.0326245E+000	2.109854961103265E+002	4.4954807E-001	2.1310017E-002	2.0036067E+003	5.6078820E+000	1.000000000000000E+000	10	1.0515097E-002	1.5551441E-003	0	9.779723698913585E-005	1.4768921E-001	7.8243911E-003	1.4789632E-001	3.0326245E+000	5.6078794E+003	1.0585150E+005	1.0599995E+005	-8.6967377E+001	0.0000000E+000	0.0000000E+000	0.0000000E+000	8.6967377E+001	0.0000000E+000	0.0000000E+000	0.0000000E+000	-8.6967377E+001	0.0000000E+000	0.0000000E+000	0.0000000E+000	-3.0326245E+000	0.0000000E+000	0.0000000E+000	0.0000000E+000	3.0326245E+000	1.8875486E+001	8.6967377E+001	1.077025821199633E-006
1.5101485E+002	6.7749863E+000	5.0056458E-001	6.7934532E+000	-4.2255759E+000	2.114470251188759E+002	4.4954398E-001	2.2484662E-002	2.1054280E+003	1.1430874E+001	1.000000000000000E+000	10	1.0523446E-002	1.5490570E-003	0	1.009868485874936E-004	1.4680040E-001	1.0846233E-002	1.4720054E-001	4.2255759E+000	1.1430880E+004	1.5471334E+005	1.5513505E+005	-8.5774422E+001	0.0000000E+000	0.0000000E+000	0.0000000E+000	8.5774422E+001	0.0000000E+000	0.0000000E+000	0.0000000E+000	-8.5774422E+001	0.0000000E+000	0.0000000E+000	0.0000000E+000	-4.2255759E+000	0.0000000E+000	0.0000000E+000	0.0000000E+000	4.2255759E+000	1.3534690E+001	8.5774422E+001	3.189611598357773E-006
1.0266736E+002	6.7976065E+000	7.1108401E-001	6.8346977E+000	-5.9718771E+000	2.119218978881399E+002	4.4954240E-001	2.0580987E-002	2.1800518E+003	2.3597719E+001	1.000000000000000E+000	10	1.0523873E-002	1.5397716E-003	0	1.041534382678413E-004	1.4551823E-001	1.5222371E-002	1.4631225E-001	5.9718771E+000	2.3597723E+004	2.2558236E+005	2.2681325E+005	-8.4028122E+001	0.0000000E+000	0.0000000E+000	0.0000000E+000	8.4028122E+001	0.0000000E+000	0.0000000E+000	0.0000000E+000	-8.4028122E+001	0.0000000E+000	0.0000000E+000	0.0000000E+000	-5.9718771E+000	0.0000000E+000	0.0000000E+000	0.0000000E+000	5.9718771E+000	9.5594988E+000	8.4028122E+001	3.166589680347700E-006
6.9754463E+001	6.8352118E+000	1.0103655E+000	6.9094834E+000	-8.4084425E+000	2.123890705769445E+002	4.4953889E-001	2.3139108E-002	2.2582375E+003	4.8287582E+001	1.000000000000000E+000	10	1.0530763E-002	1.5241029E-003	0	1.064290413110187E-004	1.4317290E-001	2.1163492E-002	1.4472862E-001	8.4084425E+000	4.8287570E+004	3.2666981E+005	3.3021941E+005	-8.1591560E+001	0.0000000E+000	0.0000000E+000	0.0000000E+000	8.1591560E+001	0.0000000E+000	0.0000000E+000	0.0000000E+000	-8.1591560E+001	0.0000000E+000	0.0000000E+000	0.0000000E+000	-8.4084425E+000	0.0000000E+000	0.0000000E+000	0.0000000E+000	8.4084425E+000	6.7650886E+000	8.1591560E+001	2.275603043177393E-006
4.7444328E+001	6.8799114E+000	1.4496899E+000	7.0309873E+000	-1.1898925E+001	2.128330286247219E+002	4.4953591E-001	2.0888634E-002	2.3139861E+003	9.8373543E+001	1.000000000000000E+000	10	1.0534702E-002	1.4983247E-003	0	1.093097421823445E-004	1.3917147E-001	2.9325301E-002	1.4222753E-001	1.1898925E+001	9.8373555E+004	4.6685934E+005	4.7711109E+005	-7.8101074E+001	0.0000000E+000	0.0000000E+000	0.0000000E+000	7.8101074E+001	0.0000000E+000	0.0000000E+000	0.0000000E+000	-7.8101074E+001	0.0000000E+000	0.0000000E+000	0.0000000E+000	-1.1898925E+001	0.0000000E+000	0.0000000E+000	0.0000000E+000	1.1898925E+001	4.7457814E+000	7.8101074E+001	2.880700871325738E-006
3.2238655E+001	6.9353137E+000	2.0466392E+000	7.2309961E+000	-1.6441544E+001	2.132704642988829E+002	4.4952875E-001	1.9564824E-002	2.4121367E+003	1.9323608E+002	1.000000000000000E+000	10	1.0543649E-002	1.4581184E-003	0	1.124656497979627E-004	1.3263857E-001	3.9142180E-002	1.3829353E-001	1.6441544E+001	1.9323606E+005	6.5480656E+005	6.8272381E+005	-7.3558456E+001	0.0000000E+000	0.0000000E+000	0.0000000E+000	7.3558456E+001	0.0000000E+000	0.0000000E+000	0.0000000E+000	-7.3558456E+001	0.0000000E+000	0.0000000E+000	0.0000000E+000	-1.6441544E+001	0.0000000E+000	0.0000000E+000	0.0000000E+000	1.6441544E+001	3.3886352E+000	7.3558456E+001	3.155907615618275E-006
