EC-Lab ASCII FILE
Nb header lines : 63                          

Potentio Electrochemical Impedance Spectroscopy

Run on channel : 1 (SN 69187)
User : 
CE vs. WE compliance from -10 V to 10 V
Electrode connection : standard
Potential control : Ewe
Ewe ctrl range : min = -1.00 V, max = 1.00 V
Safety Limits :
	Do not start on E overload
Acquisition started on : 11/12/2025 19:09:25.688
Loaded Setting File :  C:\Users\User\Documents\EC-Lab\Data\Yatsuzuka\20251030_2-147_gamma_reproducibility\20251030_2-147_001_gamma1_K_1.mps
Saved on :
	File : 20251112_2-148_005_gamma_reproducibility_K1_02_PEIS_C01.mpr
	Directory : C:\Users\User\Documents\EC-Lab\Data\Yatsuzuka\20251112_2-148_alpha_reproducibility\
	Host : 192.109.209.127
Device : SP-150e (SN .003883)
Address : 192.109.209.128
EC-Lab for windows v11.52 (software)
Internet server v11.52 (firmware)
Command interpretor v11.50 (firmware)
Electrode material : 
Initial state : 
Electrolyte : 
Comments : 
Electrode surface area : 0.001 cm2
Characteristic mass : 0.001 g
Equivalent Weight : 0.000 g/eq.
Density : 0.000 g/cm3
Volume (V) : 0.001 cm3
Cycle Definition : Charge/Discharge alternance
Mode                Single sine         
E (V)               0.4500              
vs.                 Ref                 
tE (h:m:s)          0:00:0.0000         
record              0                   
dI                  0.000               
unit dI             mA                  
dt (s)              0.000               
fi                  500.000             
unit fi             kHz                 
ff                  1.000               
unit ff             Hz                  
Nd                  6                   
Points              per decade          
spacing             Logarithmic         
Va (mV)             10.0                
pw                  0.10                
Na                  2                   
corr                0                   
E range min (V)     -1.000              
E range max (V)     1.000               
I Range             Auto                
Bandwidth           5                   
nc cycles           0                   
goto Ns'            0                   
nr cycles           0                   
inc. cycle          0                   

freq/Hz	Re(Z)/Ohm	-Im(Z)/Ohm	|Z|/Ohm	Phase(Z)/deg	time/s	<Ewe>/V	<I>/mA	Cs/uF	Cp/uF	cycle number	I Range	|Ewe|/V	|I|/A	Ns	(Q-Qo)/mA.h	Re(Y)/Ohm-1	Im(Y)/Ohm-1	|Y|/Ohm-1	Phase(Y)/deg	Re(C)/nF	Im(C)/nF	|C|/nF	Phase(C)/deg	Re(M)	Im(M)	|M|	Phase(M)/deg	Re(Permittivity)	Im(Permittivity)	|Permittivity|	Phase(Permittivity)/deg	Re(Resistivity)/Ohm.cm	Im(Resistivity)/Ohm.cm	|Resistivity|/Ohm.cm	Phase(Resistivity)/deg	Re(Conductivity)/mS/cm	Im(Conductivity)/mS/cm	|Conductivity|/mS/cm	Phase(Conductivity)/deg	Tan(Delta)	Loss Angle(Delta)/deg	dq/mA.h	
5.0001856E+005	1.6444912E+001	-2.0050037E+000	1.6566689E+001	6.9513321E+000	2.020738697681372E+002	4.5011654E-001	9.3595544E-003	-1.5875186E-001	-2.3252934E-003	1.000000000000000E+000	10	5.4709991E-003	3.3024096E-004	0	1.725193616472663E-005	5.9918389E-002	-7.3053958E-003	6.0362093E-002	-6.9513321E+000	-2.3252935E+000	1.9071909E+001	1.9213139E+001	-9.6951332E+001	0.0000000E+000	0.0000000E+000	0.0000000E+000	9.6951332E+001	0.0000000E+000	0.0000000E+000	0.0000000E+000	-9.6951332E+001	0.0000000E+000	0.0000000E+000	0.0000000E+000	6.9513321E+000	0.0000000E+000	0.0000000E+000	0.0000000E+000	-6.9513321E+000	8.2019358E+000	8.3048668E+001	1.725193616472663E-005
3.3989941E+005	1.1553455E+001	-1.3795819E+000	1.1635530E+001	6.8093672E+000	2.024958809614909E+002	4.4998831E-001	8.7930765E-003	-3.3940813E-001	-4.7713891E-003	1.000000000000000E+000	10	8.8682789E-003	7.6217228E-004	0	1.762181525760227E-005	8.5337423E-002	-1.0190021E-002	8.5943654E-002	-6.8093672E+000	-4.7713871E+000	3.9958508E+001	4.0242371E+001	-9.6809364E+001	0.0000000E+000	0.0000000E+000	0.0000000E+000	9.6809364E+001	0.0000000E+000	0.0000000E+000	0.0000000E+000	-9.6809364E+001	0.0000000E+000	0.0000000E+000	0.0000000E+000	6.8093672E+000	0.0000000E+000	0.0000000E+000	0.0000000E+000	-6.8093672E+000	8.3746061E+000	8.3190636E+001	3.698790928756351E-007
2.3106258E+005	9.7546282E+000	-8.2129896E-001	9.7891417E+000	4.8127146E+000	2.029178841549001E+002	4.4981161E-001	1.0451554E-002	-8.3866638E-001	-5.9034047E-003	1.000000000000000E+000	10	1.0465554E-002	1.0690982E-003	0	1.749309518197939E-005	1.0179383E-001	-8.5706161E-003	1.0215400E-001	-4.8127146E+000	-5.9034033E+000	7.0115166E+001	7.0363251E+001	-9.4812714E+001	0.0000000E+000	0.0000000E+000	0.0000000E+000	9.4812714E+001	0.0000000E+000	0.0000000E+000	0.0000000E+000	-9.4812714E+001	0.0000000E+000	0.0000000E+000	0.0000000E+000	4.8127146E+000	0.0000000E+000	0.0000000E+000	0.0000000E+000	-4.8127146E+000	1.1877073E+001	8.5187286E+001	-1.287200756228735E-007
1.5707578E+005	9.0456438E+000	-4.2374283E-001	9.0555639E+000	2.6820579E+000	2.034768674080988E+002	4.4976422E-001	1.0252168E-002	-2.3911593E+000	-5.2357903E-003	1.000000000000000E+000	10	1.0091683E-002	1.1144179E-003	0	1.821803017771324E-005	1.1030838E-001	-5.1673916E-003	1.1042935E-001	-2.6820579E+000	-5.2357955E+000	1.1176850E+002	1.1189107E+002	-9.2682060E+001	0.0000000E+000	0.0000000E+000	0.0000000E+000	9.2682060E+001	0.0000000E+000	0.0000000E+000	0.0000000E+000	-9.2682060E+001	0.0000000E+000	0.0000000E+000	0.0000000E+000	2.6820579E+000	0.0000000E+000	0.0000000E+000	0.0000000E+000	-2.6820579E+000	2.1347013E+001	8.7317940E+001	7.249349957338469E-007
1.0678630E+005	8.8164911E+000	-1.8640105E-001	8.8184614E+000	1.2111851E+000	2.038988747614931E+002	4.4975865E-001	1.1209981E-002	-7.9956956E+000	-3.5724598E-003	1.000000000000000E+000	10	1.0821014E-002	1.2270863E-003	0	2.011944551522740E-005	1.1337313E-001	-2.3969708E-003	1.1339847E-001	-1.2111851E+000	-3.5724494E+000	1.6897200E+002	1.6900977E+002	-9.1211182E+001	0.0000000E+000	0.0000000E+000	0.0000000E+000	9.1211182E+001	0.0000000E+000	0.0000000E+000	0.0000000E+000	-9.1211182E+001	0.0000000E+000	0.0000000E+000	0.0000000E+000	1.2111851E+000	0.0000000E+000	0.0000000E+000	0.0000000E+000	-1.2111851E+000	4.7298504E+001	8.8788818E+001	1.901415337514158E-006
7.2595008E+004	8.7408533E+000	-6.7752905E-002	8.7411156E+000	4.4410744E-001	2.043208781681751E+002	4.4975662E-001	1.0675171E-002	-3.2358280E+001	-1.9440507E-003	1.000000000000000E+000	10	1.0734416E-002	1.2280373E-003	0	2.244170595695161E-005	1.1439844E-001	-8.8673574E-004	1.1440188E-001	-4.4410744E-001	-1.9440490E+000	2.5080342E+002	2.5081096E+002	-9.0444107E+001	0.0000000E+000	0.0000000E+000	0.0000000E+000	9.0444107E+001	0.0000000E+000	0.0000000E+000	0.0000000E+000	-9.0444107E+001	0.0000000E+000	0.0000000E+000	0.0000000E+000	4.4410744E-001	0.0000000E+000	0.0000000E+000	0.0000000E+000	-4.4410744E-001	1.2901076E+002	8.9555893E+001	2.322260441724213E-006
4.9352359E+004	8.7192659E+000	-5.1461570E-003	8.7192678E+000	3.3816267E-002	2.047438841349358E+002	4.4975829E-001	1.0980776E-002	-6.2665594E+002	-2.1829068E-004	1.000000000000000E+000	10	1.0576079E-002	1.2129549E-003	0	2.416413465731441E-005	1.1468851E-001	-6.7689762E-005	1.1468853E-001	-3.3816267E-002	-2.1827267E-001	3.6985553E+002	3.6985559E+002	-9.0033813E+001	0.0000000E+000	0.0000000E+000	0.0000000E+000	9.0033813E+001	0.0000000E+000	0.0000000E+000	0.0000000E+000	-9.0033813E+001	0.0000000E+000	0.0000000E+000	0.0000000E+000	3.3816267E-002	0.0000000E+000	0.0000000E+000	0.0000000E+000	-3.3816267E-002	1.6943257E+003	8.9966187E+001	1.722428700362798E-006
3.3551066E+004	8.7090406E+000	3.9550833E-002	8.7091303E+000	-2.6019862E-001	2.051658669016470E+002	4.4974995E-001	1.1491359E-002	1.1993838E+002	2.4735453E-003	1.000000000000000E+000	10	1.0526576E-002	1.2086828E-003	0	2.328214218657619E-005	1.1482085E-001	5.2144210E-004	1.1482203E-001	2.6019862E-001	2.4735632E+000	5.4467133E+002	5.4467694E+002	-8.9739799E+001	0.0000000E+000	0.0000000E+000	0.0000000E+000	8.9739799E+001	0.0000000E+000	0.0000000E+000	0.0000000E+000	-8.9739799E+001	0.0000000E+000	0.0000000E+000	0.0000000E+000	-2.6019862E-001	0.0000000E+000	0.0000000E+000	0.0000000E+000	2.6019862E-001	2.2019867E+002	8.9739799E+001	-8.819924707382191E-007
2.2806563E+004	8.7126589E+000	8.3766520E-002	8.7130613E+000	-5.5084449E-001	2.055878837483615E+002	4.4974732E-001	1.0839153E-002	8.3308594E+001	7.6999734E-003	1.000000000000000E+000	10	1.0466070E-002	1.2011932E-003	0	2.316819887063078E-005	1.1476492E-001	1.1033897E-003	1.1477023E-001	5.5084449E-001	7.6999431E+000	8.0088379E+002	8.0092078E+002	-8.9449158E+001	0.0000000E+000	0.0000000E+000	0.0000000E+000	8.9449158E+001	0.0000000E+000	0.0000000E+000	0.0000000E+000	-8.9449158E+001	0.0000000E+000	0.0000000E+000	0.0000000E+000	-5.5084449E-001	0.0000000E+000	0.0000000E+000	0.0000000E+000	5.5084449E-001	1.0401123E+002	8.9449158E+001	-1.139433159454103E-007
1.5504379E+004	8.7245836E+000	1.2783778E-001	8.7255201E+000	-8.3947164E-001	2.060098676083871E+002	4.4974527E-001	1.1271473E-002	8.0298340E+001	1.7236233E-002	1.000000000000000E+000	10	1.0361362E-002	1.1874778E-003	0	2.331199123092099E-005	1.1459405E-001	1.6790999E-003	1.1460635E-001	8.3947164E-001	1.7236195E+001	1.1763263E+003	1.1764525E+003	-8.9160530E+001	0.0000000E+000	0.0000000E+000	0.0000000E+000	8.9160530E+001	0.0000000E+000	0.0000000E+000	0.0000000E+000	-8.9160530E+001	0.0000000E+000	0.0000000E+000	0.0000000E+000	-8.3947164E-001	0.0000000E+000	0.0000000E+000	0.0000000E+000	8.3947164E-001	6.8247307E+001	8.9160530E+001	1.437923602902126E-007
1.0540381E+004	8.7334433E+000	1.7716621E-001	8.7352400E+000	-1.1621400E+000	2.064318865084351E+002	4.4975609E-001	1.0943508E-002	8.5228127E+001	3.5058640E-002	1.000000000000000E+000	10	1.0233640E-002	1.1715350E-003	0	2.412765092500356E-005	1.1445528E-001	2.3218342E-003	1.1447883E-001	1.1621400E+000	3.5058632E+001	1.7282224E+003	1.7285780E+003	-8.8837860E+001	0.0000000E+000	0.0000000E+000	0.0000000E+000	8.8837860E+001	0.0000000E+000	0.0000000E+000	0.0000000E+000	-8.8837860E+001	0.0000000E+000	0.0000000E+000	0.0000000E+000	-1.1621400E+000	0.0000000E+000	0.0000000E+000	0.0000000E+000	1.1621400E+000	4.9295197E+001	8.8837860E+001	8.156596940825690E-007
7.1637817E+003	8.7470026E+000	2.6589462E-001	8.7510433E+000	-1.7411621E+000	2.069554695466795E+002	4.4973144E-001	8.9403046E-003	8.3554192E+001	7.7137880E-002	1.000000000000000E+000	10	1.0141136E-002	1.1588488E-003	0	2.360963511849534E-005	1.1421933E-001	3.4720812E-003	1.1427209E-001	1.7411621E+000	7.7138008E+001	2.5375662E+003	2.5387383E+003	-8.8258835E+001	0.0000000E+000	0.0000000E+000	0.0000000E+000	8.8258835E+001	0.0000000E+000	0.0000000E+000	0.0000000E+000	-8.8258835E+001	0.0000000E+000	0.0000000E+000	0.0000000E+000	-1.7411621E+000	0.0000000E+000	0.0000000E+000	0.0000000E+000	1.7411621E+000	3.2896500E+001	8.8258835E+001	-5.180158065082264E-007
4.8715591E+003	8.7750874E+000	3.6137238E-001	8.7825251E+000	-2.3582010E+000	2.074240604223014E+002	4.4976294E-001	1.1461546E-002	9.0405991E+001	1.5306233E-001	1.000000000000000E+000	10	1.0858645E-002	1.2363921E-003	0	2.514259773797756E-005	1.1376604E-001	4.6850708E-003	1.1386247E-001	2.3582010E+000	1.5306227E+002	3.7167625E+003	3.7199128E+003	-8.7641800E+001	0.0000000E+000	0.0000000E+000	0.0000000E+000	8.7641800E+001	0.0000000E+000	0.0000000E+000	0.0000000E+000	-8.7641800E+001	0.0000000E+000	0.0000000E+000	0.0000000E+000	-2.3582010E+000	0.0000000E+000	0.0000000E+000	0.0000000E+000	2.3582010E+000	2.4282673E+001	8.7641800E+001	1.532962619482228E-006
3.3110596E+003	8.8020058E+000	4.9874228E-001	8.8161240E+000	-3.2430456E+000	2.081100773882208E+002	4.4975862E-001	1.1595715E-002	9.6377792E+001	3.0844232E-001	1.000000000000000E+000	10	1.0151576E-002	1.1514784E-003	0	2.719781269261653E-005	1.1324688E-001	6.4168340E-003	1.1342853E-001	3.2430456E+000	3.0844196E+002	5.4435146E+003	5.4522461E+003	-8.6756958E+001	0.0000000E+000	0.0000000E+000	0.0000000E+000	8.6756958E+001	0.0000000E+000	0.0000000E+000	0.0000000E+000	-8.6756958E+001	0.0000000E+000	0.0000000E+000	0.0000000E+000	-3.2430456E+000	0.0000000E+000	0.0000000E+000	0.0000000E+000	3.2430456E+000	1.7648405E+001	8.6756958E+001	2.055214954638968E-006
2.2507205E+003	8.8448792E+000	7.0171171E-001	8.8726711E+000	-4.5360808E+000	2.085750735703041E+002	4.4975659E-001	1.1858460E-002	1.0077200E+002	6.3030177E-001	1.000000000000000E+000	10	1.0322466E-002	1.1634000E-003	0	2.777178305825995E-005	1.1235261E-001	8.9135356E-003	1.1270563E-001	4.5360808E+000	6.3030170E+002	7.9447778E+003	7.9697412E+003	-8.5463921E+001	0.0000000E+000	0.0000000E+000	0.0000000E+000	8.5463921E+001	0.0000000E+000	0.0000000E+000	0.0000000E+000	-8.5463921E+001	0.0000000E+000	0.0000000E+000	0.0000000E+000	-4.5360808E+000	0.0000000E+000	0.0000000E+000	0.0000000E+000	4.5360808E+000	1.2604719E+001	8.5463921E+001	5.739703656434146E-007
1.5304901E+003	8.8979816E+000	9.7247308E-001	8.9509649E+000	-6.2371826E+000	2.090400624723916E+002	4.4975632E-001	1.1154079E-002	1.0693307E+002	1.2621981E+000	1.000000000000000E+000	10	1.0403905E-002	1.1623221E-003	0	2.844366683235947E-005	1.1105850E-001	1.2137742E-002	1.1171980E-001	6.2371826E+000	1.2621979E+003	1.1548920E+004	1.1617688E+004	-8.3762817E+001	0.0000000E+000	0.0000000E+000	0.0000000E+000	8.3762817E+001	0.0000000E+000	0.0000000E+000	0.0000000E+000	-8.3762817E+001	0.0000000E+000	0.0000000E+000	0.0000000E+000	-6.2371826E+000	0.0000000E+000	0.0000000E+000	0.0000000E+000	6.2371826E+000	9.1498489E+000	8.3762817E+001	6.718837740995205E-007
1.0403328E+003	8.9594975E+000	1.3741140E+000	9.0642586E+000	-8.7194843E+000	2.095051022544794E+002	4.4976199E-001	1.1860323E-002	1.1133330E+002	2.5586216E+000	1.000000000000000E+000	10	1.0437404E-002	1.1514900E-003	0	3.094452807818824E-005	1.0904834E-001	1.6724696E-002	1.1032342E-001	8.7194843E+000	2.5586211E+003	1.6682723E+004	1.6877789E+004	-8.1280518E+001	0.0000000E+000	0.0000000E+000	0.0000000E+000	8.1280518E+001	0.0000000E+000	0.0000000E+000	0.0000000E+000	-8.1280518E+001	0.0000000E+000	0.0000000E+000	0.0000000E+000	-8.7194843E+000	0.0000000E+000	0.0000000E+000	0.0000000E+000	8.7194843E+000	6.5201993E+000	8.1280518E+001	2.500861245828773E-006
7.0703625E+002	9.0537796E+000	1.9243871E+000	9.2560358E+000	-1.1999678E+001	2.099695548631862E+002	4.4976220E-001	1.2039213E-002	1.1697310E+002	5.0561600E+000	1.000000000000000E+000	10	1.0459322E-002	1.1300002E-003	0	3.190945914641230E-005	1.0567686E-001	2.2461688E-002	1.0803761E-001	1.1999678E+001	5.0561611E+003	2.3788021E+004	2.4319432E+004	-7.8000320E+001	0.0000000E+000	0.0000000E+000	0.0000000E+000	7.8000320E+001	0.0000000E+000	0.0000000E+000	0.0000000E+000	-7.8000320E+001	0.0000000E+000	0.0000000E+000	0.0000000E+000	-1.1999678E+001	0.0000000E+000	0.0000000E+000	0.0000000E+000	1.1999678E+001	4.7047601E+000	7.8000320E+001	9.649310682240583E-007
4.8076920E+002	9.1526451E+000	2.7110944E+000	9.5457296E+000	-1.6499754E+001	2.104348258185928E+002	4.4976002E-001	1.0779522E-002	1.2210651E+002	9.8494024E+000	1.000000000000000E+000	10	1.0455685E-002	1.0953259E-003	0	3.269832646511107E-005	1.0044502E-001	2.9752700E-002	1.0475889E-001	1.6499754E+001	9.8494033E+003	3.3251547E+004	3.4679621E+004	-7.3500244E+001	0.0000000E+000	0.0000000E+000	0.0000000E+000	7.3500244E+001	0.0000000E+000	0.0000000E+000	0.0000000E+000	-7.3500244E+001	0.0000000E+000	0.0000000E+000	0.0000000E+000	-1.6499754E+001	0.0000000E+000	0.0000000E+000	0.0000000E+000	1.6499754E+001	3.3759966E+000	7.3500244E+001	7.888673186987738E-007
3.2677771E+002	9.2741709E+000	3.8265820E+000	1.0032596E+001	-2.2421356E+001	2.108980710406468E+002	4.4975373E-001	1.0641623E-002	1.2727898E+002	1.8516211E+001	1.000000000000000E+000	10	1.0458239E-002	1.0424261E-003	0	3.362311268661223E-005	9.2140056E-002	3.8017575E-002	9.9675104E-002	2.2421356E+001	1.8516211E+004	4.4876211E+004	4.8546105E+004	-6.7578644E+001	0.0000000E+000	0.0000000E+000	0.0000000E+000	6.7578644E+001	0.0000000E+000	0.0000000E+000	0.0000000E+000	-6.7578644E+001	0.0000000E+000	0.0000000E+000	0.0000000E+000	-2.2421356E+001	0.0000000E+000	0.0000000E+000	0.0000000E+000	2.2421356E+001	2.4236174E+000	6.7578644E+001	9.247862215011588E-007
2.2206076E+002	9.4054775E+000	5.4453077E+000	1.0868044E+001	-3.0068726E+001	2.113592736225255E+002	4.4976413E-001	1.1299421E-002	1.3162122E+002	3.3042126E+001	1.000000000000000E+000	10	1.0445267E-002	9.6109905E-004	0	3.539416501076711E-005	7.9630248E-002	4.6101987E-002	9.2012875E-002	3.0068726E+001	3.3042125E+004	5.7072434E+004	6.5947289E+004	-5.9931274E+001	0.0000000E+000	0.0000000E+000	0.0000000E+000	5.9931274E+001	0.0000000E+000	0.0000000E+000	0.0000000E+000	-5.9931274E+001	0.0000000E+000	0.0000000E+000	0.0000000E+000	-3.0068726E+001	0.0000000E+000	0.0000000E+000	0.0000000E+000	3.0068726E+001	1.7272629E+000	5.9931274E+001	1.771052324154877E-006
1.5101485E+002	9.5697422E+000	7.8008962E+000	1.2346415E+001	-3.9185631E+001	2.118208095110749E+002	4.4975546E-001	1.0872687E-002	1.3510020E+002	5.3934082E+001	1.000000000000000E+000	10	1.0446681E-002	8.4613072E-004	0	3.676926361457057E-005	6.2779598E-002	5.1175579E-002	8.0995172E-002	3.9185631E+001	5.3934078E+004	6.6163586E+004	8.5361023E+004	-5.0814369E+001	0.0000000E+000	0.0000000E+000	0.0000000E+000	5.0814369E+001	0.0000000E+000	0.0000000E+000	0.0000000E+000	-5.0814369E+001	0.0000000E+000	0.0000000E+000	0.0000000E+000	-3.9185631E+001	0.0000000E+000	0.0000000E+000	0.0000000E+000	3.9185631E+001	1.2267491E+000	5.0814362E+001	1.375098603803460E-006
1.0266736E+002	9.7780724E+000	1.1250416E+001	1.4905789E+001	-4.9005123E+001	2.122956821203261E+002	4.4975835E-001	1.1400037E-002	1.3779047E+002	7.8495789E+001	1.000000000000000E+000	10	1.0441392E-002	7.0049235E-004	0	3.855885187315693E-005	4.4009179E-002	5.0635915E-002	6.7088030E-002	4.9005123E+001	7.8495789E+004	6.8223031E+004	1.0399986E+005	-4.0994877E+001	0.0000000E+000	0.0000000E+000	0.0000000E+000	4.0994877E+001	0.0000000E+000	0.0000000E+000	0.0000000E+000	-4.0994877E+001	0.0000000E+000	0.0000000E+000	0.0000000E+000	-4.9005123E+001	0.0000000E+000	0.0000000E+000	0.0000000E+000	4.9005123E+001	8.6912984E-001	4.0994873E+001	1.789588258586366E-006
6.9754463E+001	1.0024094E+001	1.6258511E+001	1.9100304E+001	-5.8344322E+001	2.127628476625105E+002	4.4975820E-001	1.0854044E-002	1.4033545E+002	1.0168300E+002	1.000000000000000E+000	10	1.0428475E-002	5.4598477E-004	0	4.026601297567443E-005	2.7476702E-002	4.4565644E-002	5.2355189E-002	5.8344322E+001	1.0168300E+005	6.2692090E+004	1.1945598E+005	-3.1655678E+001	0.0000000E+000	0.0000000E+000	0.0000000E+000	3.1655678E+001	0.0000000E+000	0.0000000E+000	0.0000000E+000	-3.1655678E+001	0.0000000E+000	0.0000000E+000	0.0000000E+000	-5.8344322E+001	0.0000000E+000	0.0000000E+000	0.0000000E+000	5.8344322E+001	6.1654443E-001	3.1655670E+001	1.707161102517498E-006
4.7444328E+001	1.0405427E+001	2.3609797E+001	2.5801073E+001	-6.6215714E+001	2.134508389751572E+002	4.4975594E-001	5.2420981E-004	1.4208348E+002	1.1897413E+002	1.000000000000000E+000	11	1.0458331E-002	4.0534479E-004	0	4.086458934829635E-005	1.5630914E-002	3.5466366E-002	3.8758077E-002	6.6215714E+001	1.1897413E+005	5.2434871E+004	1.3001638E+005	-2.3784286E+001	0.0000000E+000	0.0000000E+000	0.0000000E+000	2.3784286E+001	0.0000000E+000	0.0000000E+000	0.0000000E+000	-2.3784286E+001	0.0000000E+000	0.0000000E+000	0.0000000E+000	-6.6215714E+001	0.0000000E+000	0.0000000E+000	0.0000000E+000	6.6215714E+001	4.4072497E-001	2.3784286E+001	5.985763726219152E-007
3.2238655E+001	1.0873888E+001	3.4313690E+001	3.5995426E+001	-7.2416771E+001	2.138882586493128E+002	4.4974947E-001	1.0245375E-004	1.4387183E+002	1.3074226E+002	1.000000000000000E+000	11	1.0443994E-002	2.9014781E-004	0	4.105020435095422E-005	8.3924793E-003	2.6483340E-002	2.7781308E-002	7.2416771E+001	1.3074227E+005	4.1431773E+004	1.3715003E+005	-1.7583229E+001	0.0000000E+000	0.0000000E+000	0.0000000E+000	1.7583229E+001	0.0000000E+000	0.0000000E+000	0.0000000E+000	-1.7583229E+001	0.0000000E+000	0.0000000E+000	0.0000000E+000	-7.2416771E+001	0.0000000E+000	0.0000000E+000	0.0000000E+000	7.2416771E+001	3.1689650E-001	1.7583221E+001	1.856150026578689E-007
