EC-Lab ASCII FILE
Nb header lines : 63                          

Potentio Electrochemical Impedance Spectroscopy

Run on channel : 1 (SN 69187)
User : 
CE vs. WE compliance from -10 V to 10 V
Electrode connection : standard
Potential control : Ewe
Ewe ctrl range : min = -1.00 V, max = 1.00 V
Safety Limits :
	Do not start on E overload
Acquisition started on : 11/12/2025 20:19:02.947
Loaded Setting File :  C:\Users\User\Documents\EC-Lab\Data\Yatsuzuka\20251030_2-147_gamma_reproducibility\20251030_2-147_001_gamma1_K_1.mps
Saved on :
	File : 20251112_2-148_005_gamma_reproducibility_K2_02_PEIS_C01.mpr
	Directory : C:\Users\User\Documents\EC-Lab\Data\Yatsuzuka\20251112_2-148_alpha_reproducibility\
	Host : 192.109.209.127
Device : SP-150e (SN .003883)
Address : 192.109.209.128
EC-Lab for windows v11.52 (software)
Internet server v11.52 (firmware)
Command interpretor v11.50 (firmware)
Electrode material : 
Initial state : 
Electrolyte : 
Comments : 
Electrode surface area : 0.001 cm2
Characteristic mass : 0.001 g
Equivalent Weight : 0.000 g/eq.
Density : 0.000 g/cm3
Volume (V) : 0.001 cm3
Cycle Definition : Charge/Discharge alternance
Mode                Single sine         
E (V)               0.4500              
vs.                 Ref                 
tE (h:m:s)          0:00:0.0000         
record              0                   
dI                  0.000               
unit dI             mA                  
dt (s)              0.000               
fi                  500.000             
unit fi             kHz                 
ff                  1.000               
unit ff             Hz                  
Nd                  6                   
Points              per decade          
spacing             Logarithmic         
Va (mV)             10.0                
pw                  0.10                
Na                  2                   
corr                0                   
E range min (V)     -1.000              
E range max (V)     1.000               
I Range             Auto                
Bandwidth           5                   
nc cycles           0                   
goto Ns'            0                   
nr cycles           0                   
inc. cycle          0                   

freq/Hz	Re(Z)/Ohm	-Im(Z)/Ohm	|Z|/Ohm	Phase(Z)/deg	time/s	<Ewe>/V	<I>/mA	Cs/uF	Cp/uF	cycle number	I Range	|Ewe|/V	|I|/A	Ns	(Q-Qo)/mA.h	Re(Y)/Ohm-1	Im(Y)/Ohm-1	|Y|/Ohm-1	Phase(Y)/deg	Re(C)/nF	Im(C)/nF	|C|/nF	Phase(C)/deg	Re(M)	Im(M)	|M|	Phase(M)/deg	Re(Permittivity)	Im(Permittivity)	|Permittivity|	Phase(Permittivity)/deg	Re(Resistivity)/Ohm.cm	Im(Resistivity)/Ohm.cm	|Resistivity|/Ohm.cm	Phase(Resistivity)/deg	Re(Conductivity)/mS/cm	Im(Conductivity)/mS/cm	|Conductivity|/mS/cm	Phase(Conductivity)/deg	Tan(Delta)	Loss Angle(Delta)/deg	dq/mA.h	
5.0001856E+005	1.7983145E+001	-1.4846364E+000	1.8044325E+001	4.7194710E+000	2.022598754302744E+002	4.5012179E-001	8.8135647E-003	-2.1439461E-001	-1.4513523E-003	1.000000000000000E+000	10	6.0349428E-003	3.3445103E-004	0	1.809347170640184E-005	5.5231187E-002	-4.5597269E-003	5.5419087E-002	-4.7194710E+000	-1.4513510E+000	1.7579979E+001	1.7639788E+001	-9.4719467E+001	0.0000000E+000	0.0000000E+000	0.0000000E+000	9.4719467E+001	0.0000000E+000	0.0000000E+000	0.0000000E+000	-9.4719467E+001	0.0000000E+000	0.0000000E+000	0.0000000E+000	4.7194710E+000	0.0000000E+000	0.0000000E+000	0.0000000E+000	-4.7194710E+000	1.2112827E+001	8.5280533E+001	1.809347170640184E-005
3.3989941E+005	1.2844491E+001	-1.1635320E+000	1.2897083E+001	5.1760726E+000	2.025458850172145E+002	4.4998249E-001	9.0297339E-003	-4.0243095E-001	-3.2754054E-003	1.000000000000000E+000	10	9.9958004E-003	7.7504350E-004	0	1.841731425231167E-005	7.7220730E-002	-6.9951224E-003	7.7536911E-002	-5.1760726E+000	-3.2754045E+000	3.6157936E+001	3.6305984E+001	-9.5176071E+001	0.0000000E+000	0.0000000E+000	0.0000000E+000	9.5176071E+001	0.0000000E+000	0.0000000E+000	0.0000000E+000	-9.5176071E+001	0.0000000E+000	0.0000000E+000	0.0000000E+000	5.1760726E+000	0.0000000E+000	0.0000000E+000	0.0000000E+000	-5.1760726E+000	1.1039225E+001	8.4823929E+001	3.238425459098310E-007
2.3106258E+005	1.0935462E+001	-7.2286117E-001	1.0959328E+001	3.7818911E+000	2.029688817839633E+002	4.4979015E-001	9.8086642E-003	-9.5287430E-001	-4.1455063E-003	1.000000000000000E+000	10	1.0687449E-002	9.7519200E-004	0	1.944154456547565E-005	9.1047771E-002	-6.0184831E-003	9.1246471E-002	-3.7818911E+000	-4.1455059E+000	6.2713326E+001	6.2850189E+001	-9.3781891E+001	0.0000000E+000	0.0000000E+000	0.0000000E+000	9.3781891E+001	0.0000000E+000	0.0000000E+000	0.0000000E+000	-9.3781891E+001	0.0000000E+000	0.0000000E+000	0.0000000E+000	3.7818911E+000	0.0000000E+000	0.0000000E+000	0.0000000E+000	-3.7818911E+000	1.5128025E+001	8.6218109E+001	1.024230313163976E-006
1.5707578E+005	1.0156566E+001	-3.5726607E-001	1.0162848E+001	2.0145984E+000	2.035268738104642E+002	4.4975019E-001	1.0479504E-002	-2.8360841E+000	-3.5048695E-003	1.000000000000000E+000	10	1.0105824E-002	9.9438906E-004	0	2.162548728751588E-005	9.8336801E-002	-3.4590827E-003	9.8397620E-002	-2.0145984E+000	-3.5048635E+000	9.9638451E+001	9.9700073E+001	-9.2014595E+001	0.0000000E+000	0.0000000E+000	0.0000000E+000	9.2014595E+001	0.0000000E+000	0.0000000E+000	0.0000000E+000	-9.2014595E+001	0.0000000E+000	0.0000000E+000	0.0000000E+000	2.0145984E+000	0.0000000E+000	0.0000000E+000	0.0000000E+000	-2.0145984E+000	2.8428576E+001	8.7985405E+001	2.183942722040228E-006
1.0678630E+005	9.9029484E+000	-1.2946194E-001	9.9037943E+000	7.4898916E-001	2.039488879638520E+002	4.4975200E-001	1.0986364E-002	-1.1512311E+001	-1.9671775E-003	1.000000000000000E+000	10	1.0825132E-002	1.0930288E-003	0	2.321810996478436E-005	1.0096277E-001	-1.3198935E-003	1.0097140E-001	-7.4898916E-001	-1.9671873E+000	1.5047552E+002	1.5048839E+002	-9.0748993E+001	0.0000000E+000	0.0000000E+000	0.0000000E+000	9.0748993E+001	0.0000000E+000	0.0000000E+000	0.0000000E+000	-9.0748993E+001	0.0000000E+000	0.0000000E+000	0.0000000E+000	7.4898916E-001	0.0000000E+000	0.0000000E+000	0.0000000E+000	-7.4898916E-001	7.6493126E+001	8.9251007E+001	1.592622677268486E-006
7.2595008E+004	9.8199825E+000	-3.1177284E-002	9.8200321E+000	1.8190672E-001	2.043708875039156E+002	4.4974184E-001	1.1170846E-002	-7.0319389E+001	-7.0880348E-004	1.000000000000000E+000	10	1.0744092E-002	1.0940995E-003	0	2.441063106309189E-005	1.0183214E-001	-3.2330502E-004	1.0183266E-001	-1.8190672E-001	-7.0880711E-001	2.2325349E+002	2.2325462E+002	-9.0181908E+001	0.0000000E+000	0.0000000E+000	0.0000000E+000	9.0181908E+001	0.0000000E+000	0.0000000E+000	0.0000000E+000	-9.0181908E+001	0.0000000E+000	0.0000000E+000	0.0000000E+000	1.8190672E-001	0.0000000E+000	0.0000000E+000	0.0000000E+000	-1.8190672E-001	3.1497235E+002	8.9818092E+001	1.192521098307528E-006
4.9352359E+004	9.7987251E+000	2.4834422E-002	9.7987566E+000	-1.4521323E-001	2.047928677906311E+002	4.4975120E-001	1.1139167E-002	1.2985484E+002	8.3411188E-004	1.000000000000000E+000	10	1.0603392E-002	1.0821160E-003	0	2.416169464736271E-005	1.0205343E-001	2.5864979E-004	1.0205376E-001	1.4521323E-001	8.3409494E-001	3.2910907E+002	3.2911014E+002	-8.9854790E+001	0.0000000E+000	0.0000000E+000	0.0000000E+000	8.9854790E+001	0.0000000E+000	0.0000000E+000	0.0000000E+000	-8.9854790E+001	0.0000000E+000	0.0000000E+000	0.0000000E+000	-1.4521323E-001	0.0000000E+000	0.0000000E+000	0.0000000E+000	1.4521323E-001	3.9456223E+002	8.9854790E+001	-2.489364157291767E-007
3.3551066E+004	9.7895355E+000	8.7690994E-002	9.7899284E+000	-5.1322043E-001	2.052148760240088E+002	4.4975838E-001	1.0561497E-002	5.4095211E+001	4.3402002E-003	1.000000000000000E+000	10	1.0481979E-002	1.0706900E-003	0	2.451669856869072E-005	1.0214169E-001	9.1494707E-004	1.0214579E-001	5.1322043E-001	4.3402114E+000	4.8452576E+002	4.8454520E+002	-8.9486778E+001	0.0000000E+000	0.0000000E+000	0.0000000E+000	8.9486778E+001	0.0000000E+000	0.0000000E+000	0.0000000E+000	-8.9486778E+001	0.0000000E+000	0.0000000E+000	0.0000000E+000	-5.1322043E-001	0.0000000E+000	0.0000000E+000	0.0000000E+000	5.1322043E-001	1.1163673E+002	8.9486778E+001	3.550039213280103E-007
2.2806563E+004	9.7945681E+000	1.2423529E-001	9.7953558E+000	-7.2670650E-001	2.056368856707268E+002	4.4974214E-001	1.0570815E-002	5.6171406E+001	9.0357633E-003	1.000000000000000E+000	10	1.0425570E-002	1.0643381E-003	0	2.578142219112487E-005	1.0208099E-001	1.2948056E-003	1.0208920E-001	7.2670650E-001	9.0357752E+000	7.1236920E+002	7.1242651E+002	-8.9273293E+001	0.0000000E+000	0.0000000E+000	0.0000000E+000	8.9273293E+001	0.0000000E+000	0.0000000E+000	0.0000000E+000	-8.9273293E+001	0.0000000E+000	0.0000000E+000	0.0000000E+000	-7.2670650E-001	0.0000000E+000	0.0000000E+000	0.0000000E+000	7.2670650E-001	7.8838852E+001	8.9273293E+001	1.264723622434150E-006
1.5504379E+004	9.8033285E+000	1.7062660E-001	9.8048134E+000	-9.9713033E-001	2.060588820640842E+002	4.4975013E-001	1.0952820E-002	6.0161552E+001	1.8219391E-002	1.000000000000000E+000	10	1.0301013E-002	1.0506078E-003	0	2.510981159610189E-005	1.0197528E-001	1.7748761E-003	1.0199072E-001	9.9713033E-001	1.8219408E+001	1.0467926E+003	1.0469512E+003	-8.9002869E+001	0.0000000E+000	0.0000000E+000	0.0000000E+000	8.9002869E+001	0.0000000E+000	0.0000000E+000	0.0000000E+000	-8.9002869E+001	0.0000000E+000	0.0000000E+000	0.0000000E+000	-9.9713033E-001	0.0000000E+000	0.0000000E+000	0.0000000E+000	9.9713033E-001	5.7454868E+001	8.9002869E+001	-6.716105950229860E-007
1.0540381E+004	9.8111334E+000	2.4377680E-001	9.8141613E+000	-1.4233329E+000	2.064808738707943E+002	4.4975260E-001	1.1621797E-002	6.1940037E+001	3.8216405E-002	1.000000000000000E+000	10	1.0260332E-002	1.0454620E-003	0	2.634695218506709E-005	1.0186213E-001	2.5309641E-003	1.0189357E-001	1.4233329E+000	3.8216389E+001	1.5380719E+003	1.5385466E+003	-8.8576668E+001	0.0000000E+000	0.0000000E+000	0.0000000E+000	8.8576668E+001	0.0000000E+000	0.0000000E+000	0.0000000E+000	-8.8576668E+001	0.0000000E+000	0.0000000E+000	0.0000000E+000	-1.4233329E+000	0.0000000E+000	0.0000000E+000	0.0000000E+000	1.4233329E+000	4.0246380E+001	8.8576668E+001	1.237140588965202E-006
7.1637817E+003	9.8193159E+000	3.4751672E-001	9.8254633E+000	-2.0269167E+000	2.070044794423593E+002	4.4973356E-001	1.0022959E-002	6.3929611E+001	7.9973742E-002	1.000000000000000E+000	10	1.0053844E-002	1.0232438E-003	0	2.733077170558035E-005	1.0171269E-001	3.5997275E-003	1.0177637E-001	2.0269167E+000	7.9973740E+001	2.2597112E+003	2.2611260E+003	-8.7973083E+001	0.0000000E+000	0.0000000E+000	0.0000000E+000	8.7973083E+001	0.0000000E+000	0.0000000E+000	0.0000000E+000	-8.7973083E+001	0.0000000E+000	0.0000000E+000	0.0000000E+000	-2.0269167E+000	0.0000000E+000	0.0000000E+000	0.0000000E+000	2.0269167E+000	2.8255665E+001	8.7973083E+001	9.838195205132565E-007
4.8715591E+003	9.8336735E+000	4.8892388E-001	9.8458204E+000	-2.8463652E+000	2.074720787979168E+002	4.4975892E-001	1.2547933E-002	6.6820686E+001	1.6477434E-001	1.000000000000000E+000	10	1.0577816E-002	1.0743458E-003	0	2.801731126675925E-005	1.0144064E-001	5.0435630E-003	1.0156594E-001	2.8463652E+000	1.6477444E+002	3.3140886E+003	3.3181824E+003	-8.7153633E+001	0.0000000E+000	0.0000000E+000	0.0000000E+000	8.7153633E+001	0.0000000E+000	0.0000000E+000	0.0000000E+000	-8.7153633E+001	0.0000000E+000	0.0000000E+000	0.0000000E+000	-2.8463652E+000	0.0000000E+000	0.0000000E+000	0.0000000E+000	2.8463652E+000	2.0112892E+001	8.7153633E+001	6.865395611789086E-007
3.3110596E+003	9.8706284E+000	6.6490787E-001	9.8929977E+000	-3.8537514E+000	2.079370810866676E+002	4.4976428E-001	1.2221830E-002	7.2292244E+001	3.2655686E-001	1.000000000000000E+000	10	1.0861525E-002	1.0979003E-003	0	2.924149105031393E-005	1.0085303E-001	6.7936885E-003	1.0108159E-001	3.8537514E+000	3.2655692E+002	4.8477715E+003	4.8587578E+003	-8.6146248E+001	0.0000000E+000	0.0000000E+000	0.0000000E+000	8.6146248E+001	0.0000000E+000	0.0000000E+000	0.0000000E+000	-8.6146248E+001	0.0000000E+000	0.0000000E+000	0.0000000E+000	-3.8537514E+000	0.0000000E+000	0.0000000E+000	0.0000000E+000	3.8537514E+000	1.4845107E+001	8.6146248E+001	1.224179783554672E-006
2.2507205E+003	9.9023829E+000	9.4894975E-001	9.9477482E+000	-5.4739642E+000	2.086230935459171E+002	4.4976428E-001	1.2346676E-002	7.4516998E+001	6.7809767E-001	1.000000000000000E+000	10	1.0135186E-002	1.0188422E-003	0	3.147434918757063E-005	1.0006683E-001	9.5894486E-003	1.0052526E-001	5.4739642E+000	6.7809723E+002	7.0760146E+003	7.1084316E+003	-8.4526039E+001	0.0000000E+000	0.0000000E+000	0.0000000E+000	8.4526039E+001	0.0000000E+000	0.0000000E+000	0.0000000E+000	-8.4526039E+001	0.0000000E+000	0.0000000E+000	0.0000000E+000	-5.4739642E+000	0.0000000E+000	0.0000000E+000	0.0000000E+000	5.4739642E+000	1.0435097E+001	8.4526039E+001	2.232858137256700E-006
1.5304901E+003	9.9522362E+000	1.3503656E+000	1.0043430E+001	-7.7269692E+000	2.090880869013417E+002	4.4976452E-001	1.2009392E-002	7.7008430E+001	1.3921206E+000	1.000000000000000E+000	10	1.0197414E-002	1.0153318E-003	0	3.280470099284624E-005	9.8663509E-002	1.3387122E-002	9.9567577E-002	7.7269692E+000	1.3921201E+003	1.0259972E+004	1.0353985E+004	-8.2273033E+001	0.0000000E+000	0.0000000E+000	0.0000000E+000	8.2273033E+001	0.0000000E+000	0.0000000E+000	0.0000000E+000	-8.2273033E+001	0.0000000E+000	0.0000000E+000	0.0000000E+000	-7.7269692E+000	0.0000000E+000	0.0000000E+000	0.0000000E+000	7.7269692E+000	7.3700309E+000	8.2273033E+001	1.330351805275615E-006
1.0403328E+003	1.0001546E+001	1.9335144E+000	1.0186727E+001	-1.0941534E+001	2.095530698300936E+002	4.4976622E-001	1.1934856E-002	7.9122581E+001	2.8505323E+000	1.000000000000000E+000	10	1.0210607E-002	1.0023443E-003	0	3.397919155509832E-005	9.6382424E-002	1.8632799E-002	9.8166965E-002	1.0941534E+001	2.8505325E+003	1.4745030E+004	1.5018038E+004	-7.9058464E+001	0.0000000E+000	0.0000000E+000	0.0000000E+000	7.9058464E+001	0.0000000E+000	0.0000000E+000	0.0000000E+000	-7.9058464E+001	0.0000000E+000	0.0000000E+000	0.0000000E+000	-1.0941534E+001	0.0000000E+000	0.0000000E+000	0.0000000E+000	1.0941534E+001	5.1727290E+000	7.9058464E+001	1.174490562252081E-006
7.0703625E+002	1.0085043E+001	2.7636440E+000	1.0456855E+001	-1.5324780E+001	2.100175671854668E+002	4.4976667E-001	1.2400717E-002	8.1450981E+001	5.6892939E+000	1.000000000000000E+000	10	1.0225175E-002	9.7784423E-004	0	3.535534469864150E-005	9.2230715E-002	2.5274348E-002	9.5631048E-002	1.5324780E+001	5.6892954E+003	2.0761275E+004	2.1526695E+004	-7.4675217E+001	0.0000000E+000	0.0000000E+000	0.0000000E+000	7.4675217E+001	0.0000000E+000	0.0000000E+000	0.0000000E+000	-7.4675217E+001	0.0000000E+000	0.0000000E+000	0.0000000E+000	-1.5324780E+001	0.0000000E+000	0.0000000E+000	0.0000000E+000	1.5324780E+001	3.6491830E+000	7.4675217E+001	1.376153143543177E-006
4.8076920E+002	1.0189059E+001	3.9570503E+000	1.0930470E+001	-2.1224310E+001	2.104828429942281E+002	4.4975623E-001	1.2061573E-002	8.3658852E+001	1.0964211E+001	1.000000000000000E+000	10	1.0228786E-002	9.3580474E-004	0	3.694241898752160E-005	8.5281812E-002	3.3120267E-002	9.1487370E-002	2.1224310E+001	1.0964211E+004	2.8231887E+004	3.0286191E+004	-6.8775688E+001	0.0000000E+000	0.0000000E+000	0.0000000E+000	6.8775688E+001	0.0000000E+000	0.0000000E+000	0.0000000E+000	-6.8775688E+001	0.0000000E+000	0.0000000E+000	0.0000000E+000	-2.1224310E+001	0.0000000E+000	0.0000000E+000	0.0000000E+000	2.1224310E+001	2.5749128E+000	6.8775688E+001	1.587074288880105E-006
3.2677771E+002	1.0329445E+001	5.6770253E+000	1.1786690E+001	-2.8793036E+001	2.109460488029254E+002	4.4975448E-001	1.1470855E-002	8.5792015E+001	1.9902372E+001	1.000000000000000E+000	10	1.0228186E-002	8.6777424E-004	0	3.809718685853295E-005	7.4352108E-002	4.0863648E-002	8.4841460E-002	2.8793036E+001	1.9902375E+004	3.6212707E+004	4.1321480E+004	-6.1206963E+001	0.0000000E+000	0.0000000E+000	0.0000000E+000	6.1206963E+001	0.0000000E+000	0.0000000E+000	0.0000000E+000	-6.1206963E+001	0.0000000E+000	0.0000000E+000	0.0000000E+000	-2.8793036E+001	0.0000000E+000	0.0000000E+000	0.0000000E+000	2.8793036E+001	1.8195171E+000	6.1206963E+001	1.154767871011346E-006
2.2206076E+002	1.0497221E+001	8.1569633E+000	1.3293898E+001	-3.7849327E+001	2.114072934914875E+002	4.4975427E-001	1.1616196E-002	8.7865791E+001	3.3080509E+001	1.000000000000000E+000	10	1.0203905E-002	7.6756312E-004	0	4.005152490497858E-005	5.9397709E-002	4.6155546E-002	7.5222485E-002	3.7849327E+001	3.3080512E+004	4.2571406E+004	5.3913309E+004	-5.2150673E+001	0.0000000E+000	0.0000000E+000	0.0000000E+000	5.2150673E+001	0.0000000E+000	0.0000000E+000	0.0000000E+000	-5.2150673E+001	0.0000000E+000	0.0000000E+000	0.0000000E+000	-3.7849327E+001	0.0000000E+000	0.0000000E+000	0.0000000E+000	3.7849327E+001	1.2869030E+000	5.2150673E+001	1.954338046445629E-006
1.5101485E+002	1.0731179E+001	1.1803101E+001	1.5952160E+001	-4.7723419E+001	2.118708133001492E+002	4.4975829E-001	1.1646011E-002	8.9290321E+001	4.8882973E+001	1.000000000000000E+000	10	1.0198405E-002	6.3931185E-004	0	4.120956903979499E-005	4.2170472E-002	4.6382815E-002	6.2687434E-002	4.7723419E+001	4.8882973E+004	4.4443574E+004	6.6066453E+004	-4.2276581E+001	0.0000000E+000	0.0000000E+000	0.0000000E+000	4.2276581E+001	0.0000000E+000	0.0000000E+000	0.0000000E+000	-4.2276581E+001	0.0000000E+000	0.0000000E+000	0.0000000E+000	-4.7723419E+001	0.0000000E+000	0.0000000E+000	0.0000000E+000	4.7723419E+001	9.0918308E-001	4.2276581E+001	1.158044134816412E-006
1.0266736E+002	1.1060861E+001	1.7019270E+001	2.0297739E+001	-5.6980076E+001	2.123457068693388E+002	4.4976652E-001	1.1634826E-002	9.1084991E+001	6.4037346E+001	1.000000000000000E+000	10	1.0181651E-002	5.0161505E-004	0	4.220419827303138E-005	2.6846863E-002	4.1309088E-002	4.9266569E-002	5.6980076E+001	6.4037344E+004	4.1618004E+004	7.6373031E+004	-3.3019924E+001	0.0000000E+000	0.0000000E+000	0.0000000E+000	3.3019924E+001	0.0000000E+000	0.0000000E+000	0.0000000E+000	-3.3019924E+001	0.0000000E+000	0.0000000E+000	0.0000000E+000	-5.6980076E+001	0.0000000E+000	0.0000000E+000	0.0000000E+000	5.6980076E+001	6.4990216E-001	3.3019928E+001	9.946292332363885E-007
6.9754463E+001	1.1588314E+001	2.4719950E+001	2.7301373E+001	-6.4883575E+001	2.130658426368755E+002	4.4975546E-001	2.6049916E-004	9.2299759E+001	7.5670525E+001	1.000000000000000E+000	11	1.0222325E-002	3.7442532E-004	0	4.297188407242356E-005	1.5547167E-002	3.3164896E-002	3.6628194E-002	6.4883575E+001	7.5670531E+004	3.5473121E+004	8.3572555E+004	-2.5116425E+001	0.0000000E+000	0.0000000E+000	0.0000000E+000	2.5116425E+001	0.0000000E+000	0.0000000E+000	0.0000000E+000	-2.5116425E+001	0.0000000E+000	0.0000000E+000	0.0000000E+000	-6.4883575E+001	0.0000000E+000	0.0000000E+000	0.0000000E+000	6.4883575E+001	4.6878389E-001	2.5116425E+001	7.676857993921840E-007
4.7444328E+001	1.2288857E+001	3.5724319E+001	3.7778870E+001	-7.1017227E+001	2.135098354046495E+002	4.4974929E-001	3.2982411E-004	9.3901360E+001	8.3965691E+001	1.000000000000000E+000	11	1.0196194E-002	2.6989146E-004	0	4.322922267879282E-005	8.6102057E-003	2.5030300E-002	2.6469823E-002	7.1017227E+001	8.3965695E+004	2.8883471E+004	8.8794664E+004	-1.8982773E+001	0.0000000E+000	0.0000000E+000	0.0000000E+000	1.8982773E+001	0.0000000E+000	0.0000000E+000	0.0000000E+000	-1.8982773E+001	0.0000000E+000	0.0000000E+000	0.0000000E+000	-7.1017227E+001	0.0000000E+000	0.0000000E+000	0.0000000E+000	7.1017227E+001	3.4399134E-001	1.8982773E+001	2.573386063692561E-007
3.2238655E+001	1.3277356E+001	5.1840237E+001	5.3513535E+001	-7.5634178E+001	2.139472487587918E+002	4.4975543E-001	1.5966856E-004	9.5230537E+001	8.9368179E+001	1.000000000000000E+000	11	1.0187140E-002	1.9036567E-004	0	4.314591500648627E-005	4.6364358E-003	1.8102547E-002	1.8686861E-002	7.5634178E+001	8.9368172E+004	2.2889031E+004	9.2252797E+004	-1.4365822E+001	0.0000000E+000	0.0000000E+000	0.0000000E+000	1.4365822E+001	0.0000000E+000	0.0000000E+000	0.0000000E+000	-1.4365822E+001	0.0000000E+000	0.0000000E+000	0.0000000E+000	-7.5634178E+001	0.0000000E+000	0.0000000E+000	0.0000000E+000	7.5634178E+001	2.5612068E-001	1.4365814E+001	-8.330767230654927E-008
