EC-Lab ASCII FILE
Nb header lines : 63                          

Potentio Electrochemical Impedance Spectroscopy

Run on channel : 1 (SN 69187)
User : 
CE vs. WE compliance from -10 V to 10 V
Electrode connection : standard
Potential control : Ewe
Ewe ctrl range : min = -1.00 V, max = 1.00 V
Safety Limits :
	Do not start on E overload
Acquisition started on : 11/12/2025 17:08:42.026
Loaded Setting File :  C:\Users\User\Documents\EC-Lab\Data\Yatsuzuka\20251030_2-147_gamma_reproducibility\20251030_2-147_001_gamma1_K_1.mps
Saved on :
	File : 20251112_2-148_003_alpha_Na_first_1_Na2_02_PEIS_C01.mpr
	Directory : C:\Users\User\Documents\EC-Lab\Data\Yatsuzuka\20251112_2-148_alpha_reproducibility\
	Host : 192.109.209.127
Device : SP-150e (SN .003883)
Address : 192.109.209.128
EC-Lab for windows v11.52 (software)
Internet server v11.52 (firmware)
Command interpretor v11.50 (firmware)
Electrode material : 
Initial state : 
Electrolyte : 
Comments : 
Electrode surface area : 0.001 cm2
Characteristic mass : 0.001 g
Equivalent Weight : 0.000 g/eq.
Density : 0.000 g/cm3
Volume (V) : 0.001 cm3
Cycle Definition : Charge/Discharge alternance
Mode                Single sine         
E (V)               0.4500              
vs.                 Ref                 
tE (h:m:s)          0:00:0.0000         
record              0                   
dI                  0.000               
unit dI             mA                  
dt (s)              0.000               
fi                  500.000             
unit fi             kHz                 
ff                  1.000               
unit ff             Hz                  
Nd                  6                   
Points              per decade          
spacing             Logarithmic         
Va (mV)             10.0                
pw                  0.10                
Na                  2                   
corr                0                   
E range min (V)     -1.000              
E range max (V)     1.000               
I Range             Auto                
Bandwidth           5                   
nc cycles           0                   
goto Ns'            0                   
nr cycles           0                   
inc. cycle          0                   

freq/Hz	Re(Z)/Ohm	-Im(Z)/Ohm	|Z|/Ohm	Phase(Z)/deg	time/s	<Ewe>/V	<I>/mA	Cs/uF	Cp/uF	cycle number	I Range	|Ewe|/V	|I|/A	Ns	(Q-Qo)/mA.h	Re(Y)/Ohm-1	Im(Y)/Ohm-1	|Y|/Ohm-1	Phase(Y)/deg	Re(C)/nF	Im(C)/nF	|C|/nF	Phase(C)/deg	Re(M)	Im(M)	|M|	Phase(M)/deg	Re(Permittivity)	Im(Permittivity)	|Permittivity|	Phase(Permittivity)/deg	Re(Resistivity)/Ohm.cm	Im(Resistivity)/Ohm.cm	|Resistivity|/Ohm.cm	Phase(Resistivity)/deg	Re(Conductivity)/mS/cm	Im(Conductivity)/mS/cm	|Conductivity|/mS/cm	Phase(Conductivity)/deg	Tan(Delta)	Loss Angle(Delta)/deg	dq/mA.h	
5.0001856E+005	1.7927212E+001	-2.7640071E+000	1.8139036E+001	8.7648144E+000	2.015988722522306E+002	4.5013106E-001	1.3507585E-002	-1.1515820E-001	-2.6738974E-003	1.000000000000000E+000	10	5.7449290E-003	3.1671632E-004	0	2.160001321969159E-005	5.4485925E-002	-8.4006079E-003	5.5129722E-002	-8.7648144E+000	-2.6738975E+000	1.7342762E+001	1.7547682E+001	-9.8764816E+001	0.0000000E+000	0.0000000E+000	0.0000000E+000	9.8764816E+001	0.0000000E+000	0.0000000E+000	0.0000000E+000	-9.8764816E+001	0.0000000E+000	0.0000000E+000	0.0000000E+000	8.7648144E+000	0.0000000E+000	0.0000000E+000	0.0000000E+000	-8.7648144E+000	6.4859500E+000	8.1235184E+001	2.160001321969159E-005
3.3989941E+005	1.2781525E+001	-1.8430735E+000	1.2913725E+001	8.2053919E+000	2.018848855991528E+002	4.4999602E-001	1.3597040E-002	-2.5405461E-001	-5.1749875E-003	1.000000000000000E+000	10	9.3598524E-003	7.2479883E-004	0	2.230612541984495E-005	7.6644257E-002	-1.1051968E-002	7.7436991E-002	-8.2053919E+000	-5.1749873E+000	3.5888004E+001	3.6259197E+001	-9.8205391E+001	0.0000000E+000	0.0000000E+000	0.0000000E+000	9.8205391E+001	0.0000000E+000	0.0000000E+000	0.0000000E+000	-9.8205391E+001	0.0000000E+000	0.0000000E+000	0.0000000E+000	8.2053919E+000	0.0000000E+000	0.0000000E+000	0.0000000E+000	-8.2053919E+000	6.9348969E+000	8.1794609E+001	7.061122001533563E-007
2.3106258E+005	1.0909874E+001	-1.0826702E+000	1.0963463E+001	5.6673431E+000	2.023068754325068E+002	4.4980562E-001	1.5043085E-002	-6.3620096E-001	-6.2042773E-003	1.000000000000000E+000	10	1.0532569E-002	9.6069730E-004	0	2.497170381996289E-005	9.0766214E-002	-9.0074260E-003	9.1212057E-002	-5.6673431E+000	-6.2042780E+000	6.2519394E+001	6.2826488E+001	-9.5667343E+001	0.0000000E+000	0.0000000E+000	0.0000000E+000	9.5667343E+001	0.0000000E+000	0.0000000E+000	0.0000000E+000	-9.5667343E+001	0.0000000E+000	0.0000000E+000	0.0000000E+000	5.6673431E+000	0.0000000E+000	0.0000000E+000	0.0000000E+000	-5.6673431E+000	1.0076821E+001	8.4332657E+001	2.665578400117941E-006
1.5707578E+005	1.0206035E+001	-5.8552206E-001	1.0222816E+001	3.2834699E+000	2.028648788190476E+002	4.4976941E-001	1.2775269E-002	-1.7304842E+000	-5.6769233E-003	1.000000000000000E+000	10	1.0108677E-002	9.8883477E-004	0	2.496116020947617E-005	9.7659819E-002	-5.6027612E-003	9.7820401E-002	-3.2834699E+000	-5.6769238E+000	9.8952507E+001	9.9115219E+001	-9.3283470E+001	0.0000000E+000	0.0000000E+000	0.0000000E+000	9.3283470E+001	0.0000000E+000	0.0000000E+000	0.0000000E+000	-9.3283470E+001	0.0000000E+000	0.0000000E+000	0.0000000E+000	3.2834699E+000	0.0000000E+000	0.0000000E+000	0.0000000E+000	-3.2834699E+000	1.7430658E+001	8.6716530E+001	-1.054361048671843E-008
1.0678630E+005	9.9824762E+000	-2.9534274E-001	9.9868441E+000	1.6946656E+000	2.032868835324334E+002	4.4976780E-001	1.0936051E-002	-5.0463610E+000	-4.4134110E-003	1.000000000000000E+000	10	1.0767503E-002	1.0781687E-003	0	2.728948675896431E-005	1.0008794E-001	-2.9612139E-003	1.0013174E-001	-1.6946656E+000	-4.4134068E+000	1.4917166E+002	1.4923694E+002	-9.1694664E+001	0.0000000E+000	0.0000000E+000	0.0000000E+000	9.1694664E+001	0.0000000E+000	0.0000000E+000	0.0000000E+000	-9.1694664E+001	0.0000000E+000	0.0000000E+000	0.0000000E+000	1.6946656E+000	0.0000000E+000	0.0000000E+000	0.0000000E+000	-1.6946656E+000	3.3799633E+001	8.8305336E+001	2.328326549488136E-006
7.2595008E+004	9.9186296E+000	-1.6255514E-001	9.9199619E+000	9.3892902E-001	2.037088683524780E+002	4.4975922E-001	1.1047857E-002	-1.3486916E+001	-3.6215468E-003	1.000000000000000E+000	10	1.0722559E-002	1.0809073E-003	0	2.711544084956404E-005	1.0079330E-001	-1.6518884E-003	1.0080684E-001	-9.3892902E-001	-3.6215372E+000	2.2097595E+002	2.2100563E+002	-9.0938927E+001	0.0000000E+000	0.0000000E+000	0.0000000E+000	9.0938927E+001	0.0000000E+000	0.0000000E+000	0.0000000E+000	-9.0938927E+001	0.0000000E+000	0.0000000E+000	0.0000000E+000	9.3892902E-001	0.0000000E+000	0.0000000E+000	0.0000000E+000	-9.3892902E-001	6.1017014E+001	8.9061073E+001	-1.740459094002696E-007
4.9352359E+004	9.8876343E+000	-8.7600760E-002	9.8880224E+000	5.0760597E-001	2.041308859191631E+002	4.4975984E-001	1.2710052E-002	-3.6813263E+001	-2.8893568E-003	1.000000000000000E+000	10	1.0584250E-002	1.0704112E-003	0	2.939328272447650E-005	1.0112849E-001	-8.9596072E-004	1.0113246E-001	-5.0760597E-001	-2.8893600E+000	3.2612625E+002	3.2613904E+002	-9.0507607E+001	0.0000000E+000	0.0000000E+000	0.0000000E+000	9.0507607E+001	0.0000000E+000	0.0000000E+000	0.0000000E+000	-9.0507607E+001	0.0000000E+000	0.0000000E+000	0.0000000E+000	5.0760597E-001	0.0000000E+000	0.0000000E+000	0.0000000E+000	-5.0760597E-001	1.1287156E+002	8.9492393E+001	2.277841874912460E-006
3.3551066E+004	9.8694067E+000	-5.0326589E-002	9.8695354E+000	2.9216304E-001	2.045528708725615E+002	4.4975844E-001	1.4025643E-002	-9.4257591E+001	-2.4508566E-003	1.000000000000000E+000	10	1.0501051E-002	1.0639863E-003	0	3.043153446906945E-005	1.0132057E-001	-5.1665906E-004	1.0132189E-001	-2.9216304E-001	-2.4508312E+000	4.8063062E+002	4.8063687E+002	-9.0292160E+001	0.0000000E+000	0.0000000E+000	0.0000000E+000	9.0292160E+001	0.0000000E+000	0.0000000E+000	0.0000000E+000	-9.0292160E+001	0.0000000E+000	0.0000000E+000	0.0000000E+000	2.9216304E-001	0.0000000E+000	0.0000000E+000	0.0000000E+000	-2.9216304E-001	1.9610721E+002	8.9707840E+001	1.038251744592948E-006
2.2806563E+004	9.8655920E+000	-2.0152874E-002	9.8656130E+000	1.1704041E-001	2.049748835859500E+002	4.4976586E-001	1.5147438E-002	-3.4627673E+002	-1.4449378E-003	1.000000000000000E+000	10	1.0455006E-002	1.0597422E-003	0	3.115850320502230E-005	1.0136197E-001	-2.0705648E-004	1.0136218E-001	-1.1704041E-001	-1.4449641E+000	7.0735156E+002	7.0735303E+002	-9.0117043E+001	0.0000000E+000	0.0000000E+000	0.0000000E+000	9.0117043E+001	0.0000000E+000	0.0000000E+000	0.0000000E+000	-9.0117043E+001	0.0000000E+000	0.0000000E+000	0.0000000E+000	1.1704041E-001	0.0000000E+000	0.0000000E+000	0.0000000E+000	-1.1704041E-001	4.8953772E+002	8.9882957E+001	7.269687359528508E-007
1.5504379E+004	9.8705149E+000	-6.4257248E-003	9.8705168E+000	3.7299663E-002	2.053968914993020E+002	4.4976550E-001	1.5112032E-002	-1.5975103E+003	-6.7703030E-004	1.000000000000000E+000	10	1.0382966E-002	1.0519172E-003	0	3.096161521473227E-005	1.0131180E-001	-6.5954184E-005	1.0131182E-001	-3.7299663E-002	-6.7703837E-001	1.0399818E+003	1.0399821E+003	-9.0037300E+001	0.0000000E+000	0.0000000E+000	0.0000000E+000	9.0037300E+001	0.0000000E+000	0.0000000E+000	0.0000000E+000	-9.0037300E+001	0.0000000E+000	0.0000000E+000	0.0000000E+000	3.7299663E-002	0.0000000E+000	0.0000000E+000	0.0000000E+000	-3.7299663E-002	1.5360936E+003	8.9962700E+001	-1.968879902900262E-007
1.0540381E+004	9.8676825E+000	4.2418083E-003	9.8676834E+000	-2.4629662E-002	2.058188801327051E+002	4.4976184E-001	1.3093919E-002	3.5596951E+003	6.5778574E-004	1.000000000000000E+000	10	1.0286243E-002	1.0424171E-003	0	3.220124352281103E-005	1.0134090E-001	4.3563279E-005	1.0134090E-001	2.4629662E-002	6.5773290E-001	1.5302014E+003	1.5302015E+003	-8.9975372E+001	0.0000000E+000	0.0000000E+000	0.0000000E+000	8.9975372E+001	0.0000000E+000	0.0000000E+000	0.0000000E+000	-8.9975372E+001	0.0000000E+000	0.0000000E+000	0.0000000E+000	-2.4629662E-002	0.0000000E+000	0.0000000E+000	0.0000000E+000	2.4629662E-002	2.3262915E+003	8.9975372E+001	1.239628308078762E-006
7.1637817E+003	9.8710890E+000	2.0013480E-002	9.8711090E+000	-1.1616615E-001	2.063434760509554E+002	4.4974348E-001	1.0274524E-002	1.1100823E+003	4.5631896E-003	1.000000000000000E+000	10	1.0117978E-002	1.0250092E-003	0	3.193993760706831E-005	1.0130553E-001	2.0539541E-004	1.0130574E-001	1.1616615E-001	4.5631509E+000	2.2506655E+003	2.2506702E+003	-8.9883835E+001	0.0000000E+000	0.0000000E+000	0.0000000E+000	8.9883835E+001	0.0000000E+000	0.0000000E+000	0.0000000E+000	-8.9883835E+001	0.0000000E+000	0.0000000E+000	0.0000000E+000	-1.1616615E-001	0.0000000E+000	0.0000000E+000	0.0000000E+000	1.1616615E-001	4.9322202E+002	8.9883835E+001	-2.613059157427258E-007
4.8715591E+003	9.8788338E+000	2.8605755E-002	9.8788748E+000	-1.6590871E-001	2.068110750065243E+002	4.4976392E-001	1.2370907E-002	1.1420858E+003	9.5761428E-003	1.000000000000000E+000	10	1.0839069E-002	1.0971967E-003	0	3.307403325319562E-005	1.0122568E-001	2.9311530E-004	1.0122611E-001	1.6590871E-001	9.5761490E+000	3.3070659E+003	3.3070798E+003	-8.9834091E+001	0.0000000E+000	0.0000000E+000	0.0000000E+000	8.9834091E+001	0.0000000E+000	0.0000000E+000	0.0000000E+000	-8.9834091E+001	0.0000000E+000	0.0000000E+000	0.0000000E+000	-1.6590871E-001	0.0000000E+000	0.0000000E+000	0.0000000E+000	1.6590871E-001	3.4534427E+002	8.9834091E+001	1.134095646127309E-006
3.3110596E+003	9.8739214E+000	4.2961311E-002	9.8740149E+000	-2.4929166E-001	2.074980741058171E+002	4.4976413E-001	1.3170320E-002	1.1188597E+003	2.1180836E-002	1.000000000000000E+000	10	1.0156043E-002	1.0285627E-003	0	3.465011089200723E-005	1.0127497E-001	4.4064614E-004	1.0127593E-001	2.4929166E-001	2.1180735E+001	4.8680527E+003	4.8680986E+003	-8.9750710E+001	0.0000000E+000	0.0000000E+000	0.0000000E+000	8.9750710E+001	0.0000000E+000	0.0000000E+000	0.0000000E+000	-8.9750710E+001	0.0000000E+000	0.0000000E+000	0.0000000E+000	-2.4929166E-001	0.0000000E+000	0.0000000E+000	0.0000000E+000	2.4929166E-001	2.2983287E+002	8.9750710E+001	1.576077638811612E-006
2.2507205E+003	9.8815241E+000	5.6594100E-002	9.8816862E+000	-3.2814449E-001	2.079631006079071E+002	4.4976386E-001	1.2508797E-002	1.2494746E+003	4.0983364E-002	1.000000000000000E+000	10	1.0340637E-002	1.0464445E-003	0	3.532694946957700E-005	1.0119564E-001	5.7957420E-004	1.0119730E-001	3.2814449E-001	4.0983791E+001	7.1558364E+003	7.1559536E+003	-8.9671852E+001	0.0000000E+000	0.0000000E+000	0.0000000E+000	8.9671852E+001	0.0000000E+000	0.0000000E+000	0.0000000E+000	-8.9671852E+001	0.0000000E+000	0.0000000E+000	0.0000000E+000	-3.2814449E-001	0.0000000E+000	0.0000000E+000	0.0000000E+000	3.2814449E-001	1.7460344E+002	8.9671852E+001	6.768385775697750E-007
1.5304901E+003	9.8860292E+000	7.5247027E-002	9.8863153E+000	-4.3609563E-001	2.084280974299909E+002	4.4976255E-001	1.2780861E-002	1.3819752E+003	8.0058977E-002	1.000000000000000E+000	10	1.0421102E-002	1.0540936E-003	0	3.605244476311943E-005	1.0114699E-001	7.6987536E-004	1.0114992E-001	4.3609563E-001	8.0059082E+001	1.0518228E+004	1.0518532E+004	-8.9563904E+001	0.0000000E+000	0.0000000E+000	0.0000000E+000	8.9563904E+001	0.0000000E+000	0.0000000E+000	0.0000000E+000	-8.9563904E+001	0.0000000E+000	0.0000000E+000	0.0000000E+000	-4.3609563E-001	0.0000000E+000	0.0000000E+000	0.0000000E+000	4.3609563E-001	1.3138100E+002	8.9563904E+001	7.254952935424304E-007
1.0403328E+003	9.9016390E+000	1.1660164E-001	9.9023256E+000	-6.7468351E-001	2.088930887854076E+002	4.4975787E-001	1.2724957E-002	1.3120283E+003	1.8191902E-001	1.000000000000000E+000	10	1.0475419E-002	1.0578746E-003	0	3.809672963622466E-005	1.0097937E-001	1.1891325E-003	1.0098638E-001	6.7468351E-001	1.8191875E+002	1.5448293E+004	1.5449364E+004	-8.9325317E+001	0.0000000E+000	0.0000000E+000	0.0000000E+000	8.9325317E+001	0.0000000E+000	0.0000000E+000	0.0000000E+000	-8.9325317E+001	0.0000000E+000	0.0000000E+000	0.0000000E+000	-6.7468351E-001	0.0000000E+000	0.0000000E+000	0.0000000E+000	6.7468351E-001	8.4918526E+001	8.9325317E+001	2.044284873105224E-006
7.0703625E+002	9.9037066E+000	1.5794055E-001	9.9049654E+000	-9.1365391E-001	2.093585532341531E+002	4.4976184E-001	1.1780190E-002	1.4252294E+003	3.6238161E-001	1.000000000000000E+000	10	1.0491899E-002	1.0592565E-003	0	3.901835722284805E-005	1.0094663E-001	1.6098586E-003	1.0095946E-001	9.1365391E-001	3.6238028E+002	2.2723242E+004	2.2726131E+004	-8.9086349E+001	0.0000000E+000	0.0000000E+000	0.0000000E+000	8.9086349E+001	0.0000000E+000	0.0000000E+000	0.0000000E+000	-8.9086349E+001	0.0000000E+000	0.0000000E+000	0.0000000E+000	-9.1365391E-001	0.0000000E+000	0.0000000E+000	0.0000000E+000	9.1365391E-001	6.2705280E+001	8.9086349E+001	9.216275866233965E-007
4.8076920E+002	9.9105749E+000	2.1602793E-001	9.9129295E+000	-1.2487196E+000	2.098238180828776E+002	4.4975713E-001	1.3000748E-002	1.5324052E+003	7.2776198E-001	1.000000000000000E+000	10	1.0501713E-002	1.0593955E-003	0	4.003248073987197E-005	1.0085440E-001	2.1983958E-003	1.0087835E-001	1.2487196E+000	7.2776129E+002	3.3387074E+004	3.3395004E+004	-8.8751282E+001	0.0000000E+000	0.0000000E+000	0.0000000E+000	8.8751282E+001	0.0000000E+000	0.0000000E+000	0.0000000E+000	-8.8751282E+001	0.0000000E+000	0.0000000E+000	0.0000000E+000	-1.2487196E+000	0.0000000E+000	0.0000000E+000	0.0000000E+000	1.2487196E+000	4.5876358E+001	8.8751282E+001	1.014123517023914E-006
3.2677771E+002	9.9214268E+000	3.0828035E-001	9.9262152E+000	-1.7797321E+000	2.102870641049522E+002	4.4975391E-001	1.1202523E-002	1.5798719E+003	1.5238639E+000	1.000000000000000E+000	10	1.0503794E-002	1.0581872E-003	0	4.088555006593621E-005	1.0069473E-001	3.1288047E-003	1.0074333E-001	1.7797321E+000	1.5238636E+003	4.9042715E+004	4.9066383E+004	-8.8220268E+001	0.0000000E+000	0.0000000E+000	0.0000000E+000	8.8220268E+001	0.0000000E+000	0.0000000E+000	0.0000000E+000	-8.8220268E+001	0.0000000E+000	0.0000000E+000	0.0000000E+000	-1.7797321E+000	0.0000000E+000	0.0000000E+000	0.0000000E+000	1.7797321E+000	3.2183132E+001	8.8220268E+001	8.530693260642443E-007
2.2206076E+002	9.9353476E+000	4.4035202E-001	9.9451017E+000	-2.5377884E+000	2.107482938868488E+002	4.4975954E-001	1.3395797E-002	1.6276024E+003	3.1910224E+000	1.000000000000000E+000	10	1.0505498E-002	1.0563490E-003	0	4.328352952161933E-005	1.0045340E-001	4.4522705E-003	1.0055202E-001	2.5377884E+000	3.1910222E+003	7.1996758E+004	7.2067438E+004	-8.7462212E+001	0.0000000E+000	0.0000000E+000	0.0000000E+000	8.7462212E+001	0.0000000E+000	0.0000000E+000	0.0000000E+000	-8.7462212E+001	0.0000000E+000	0.0000000E+000	0.0000000E+000	-2.5377884E+000	0.0000000E+000	0.0000000E+000	0.0000000E+000	2.5377884E+000	2.2562284E+001	8.7462212E+001	2.397979455683121E-006
1.5101485E+002	9.9591074E+000	6.3026917E-001	9.9790306E+000	-3.6211751E+000	2.112097834554297E+002	4.4975641E-001	1.0950957E-002	1.6721469E+003	6.6703687E+000	1.000000000000000E+000	10	1.0510662E-002	1.0532748E-003	0	4.450612526628215E-005	1.0001007E-001	6.3292081E-003	1.0021014E-001	3.6211751E+000	6.6703740E+003	1.0540087E+005	1.0561173E+005	-8.6378822E+001	0.0000000E+000	0.0000000E+000	0.0000000E+000	8.6378822E+001	0.0000000E+000	0.0000000E+000	0.0000000E+000	-8.6378822E+001	0.0000000E+000	0.0000000E+000	0.0000000E+000	-3.6211751E+000	0.0000000E+000	0.0000000E+000	0.0000000E+000	3.6211751E+000	1.5801355E+001	8.6378822E+001	1.222595744662812E-006
1.0266736E+002	9.9928274E+000	8.9804959E-001	1.0033100E+001	-5.1353426E+000	2.116847079313156E+002	4.4977182E-001	1.2490164E-002	1.7261853E+003	1.3829859E+001	1.000000000000000E+000	10	1.0509659E-002	1.0474987E-003	0	4.633330850740862E-005	9.9270016E-002	8.9213382E-003	9.9670090E-002	5.1353426E+000	1.3829867E+004	1.5388839E+005	1.5450858E+005	-8.4864655E+001	0.0000000E+000	0.0000000E+000	0.0000000E+000	8.4864655E+001	0.0000000E+000	0.0000000E+000	0.0000000E+000	-8.4864655E+001	0.0000000E+000	0.0000000E+000	0.0000000E+000	-5.1353426E+000	0.0000000E+000	0.0000000E+000	0.0000000E+000	5.1353426E+000	1.1127255E+001	8.4864655E+001	1.827183241126477E-006
6.9754463E+001	1.0032325E+001	1.2759011E+000	1.0113133E+001	-7.2479100E+000	2.121518621668365E+002	4.4975436E-001	1.1165251E-002	1.7882618E+003	2.8463852E+001	1.000000000000000E+000	10	1.0514632E-002	1.0397007E-003	0	4.840574245043940E-005	9.8091215E-002	1.2475142E-002	9.8881319E-002	7.2479100E+000	2.8463850E+004	2.2380938E+005	2.2561211E+005	-8.2752090E+001	0.0000000E+000	0.0000000E+000	0.0000000E+000	8.2752090E+001	0.0000000E+000	0.0000000E+000	0.0000000E+000	-8.2752090E+001	0.0000000E+000	0.0000000E+000	0.0000000E+000	-7.2479100E+000	0.0000000E+000	0.0000000E+000	0.0000000E+000	7.2479100E+000	7.8629332E+000	8.2752090E+001	2.072433943030777E-006
4.7444328E+001	1.0097150E+001	1.8462980E+000	1.0264563E+001	-1.0362250E+001	2.125958591479139E+002	4.4975674E-001	1.0377013E-002	1.8169126E+003	5.8783676E+001	1.000000000000000E+000	10	1.0520469E-002	1.0249311E-003	0	5.007125875980516E-005	9.5833622E-002	1.7523501E-002	9.7422563E-002	1.0362250E+001	5.8783676E+004	3.2147981E+005	3.2681003E+005	-7.9637749E+001	0.0000000E+000	0.0000000E+000	0.0000000E+000	7.9637749E+001	0.0000000E+000	0.0000000E+000	0.0000000E+000	-7.9637749E+001	0.0000000E+000	0.0000000E+000	0.0000000E+000	-1.0362250E+001	0.0000000E+000	0.0000000E+000	0.0000000E+000	1.0362250E+001	5.4688625E+000	7.9637749E+001	1.665516309365757E-006
3.2238655E+001	1.0170856E+001	2.6178641E+000	1.0502357E+001	-1.4433990E+001	2.130332718620339E+002	4.4974992E-001	1.1154070E-002	1.8858020E+003	1.1717007E+002	1.000000000000000E+000	10	1.0521606E-002	1.0018328E-003	0	5.045472208752310E-005	9.2211239E-002	2.3734141E-002	9.5216714E-002	1.4433990E+001	1.1717008E+005	4.5522600E+005	4.7006334E+005	-7.5566010E+001	0.0000000E+000	0.0000000E+000	0.0000000E+000	7.5566010E+001	0.0000000E+000	0.0000000E+000	0.0000000E+000	-7.5566010E+001	0.0000000E+000	0.0000000E+000	0.0000000E+000	-1.4433990E+001	0.0000000E+000	0.0000000E+000	0.0000000E+000	1.4433990E+001	3.8851731E+000	7.5566010E+001	3.834633277179412E-007
