EC-Lab ASCII FILE
Nb header lines : 63                          

Potentio Electrochemical Impedance Spectroscopy

Run on channel : 2 (SN 69290)
User : 
CE vs. WE compliance from -10 V to 10 V
Electrode connection : standard
Potential control : Ewe
Ewe ctrl range : min = -1.00 V, max = 1.00 V
Safety Limits :
	Do not start on E overload
Acquisition started on : 11/12/2025 17:44:04.753
Loaded Setting File :  C:\Users\User\Documents\EC-Lab\Data\Yatsuzuka\20251112_2-148_alpha_reproducibility\20251112_2-148_002_alpha_reproducibility_2_K1.mps
Saved on :
	File : 20251112_2-148_004_Na_first_2_K2_02_PEIS_C02.mpr
	Directory : C:\Users\User\Documents\EC-Lab\Data\Yatsuzuka\20251112_2-148_alpha_reproducibility\
	Host : 192.109.209.127
Device : SP-150e (SN .003883)
Address : 192.109.209.128
EC-Lab for windows v11.52 (software)
Internet server v11.52 (firmware)
Command interpretor v11.50 (firmware)
Electrode material : 
Initial state : 
Electrolyte : 
Comments : 
Electrode surface area : 0.001 cm2
Characteristic mass : 0.001 g
Equivalent Weight : 0.000 g/eq.
Density : 0.000 g/cm3
Volume (V) : 0.001 cm3
Cycle Definition : Charge/Discharge alternance
Mode                Single sine         
E (V)               0.4500              
vs.                 Ref                 
tE (h:m:s)          0:00:0.0000         
record              0                   
dI                  0.000               
unit dI             mA                  
dt (s)              0.000               
fi                  500.000             
unit fi             kHz                 
ff                  1.000               
unit ff             Hz                  
Nd                  6                   
Points              per decade          
spacing             Logarithmic         
Va (mV)             10.0                
pw                  0.10                
Na                  2                   
corr                0                   
E range min (V)     -1.000              
E range max (V)     1.000               
I Range             Auto                
Bandwidth           5                   
nc cycles           0                   
goto Ns'            0                   
nr cycles           0                   
inc. cycle          0                   

freq/Hz	Re(Z)/Ohm	-Im(Z)/Ohm	|Z|/Ohm	Phase(Z)/deg	time/s	<Ewe>/V	<I>/mA	Cs/uF	Cp/uF	cycle number	I Range	|Ewe|/V	|I|/A	Ns	(Q-Qo)/mA.h	Re(Y)/Ohm-1	Im(Y)/Ohm-1	|Y|/Ohm-1	Phase(Y)/deg	Re(C)/nF	Im(C)/nF	|C|/nF	Phase(C)/deg	Re(M)	Im(M)	|M|	Phase(M)/deg	Re(Permittivity)	Im(Permittivity)	|Permittivity|	Phase(Permittivity)/deg	Re(Resistivity)/Ohm.cm	Im(Resistivity)/Ohm.cm	|Resistivity|/Ohm.cm	Phase(Resistivity)/deg	Re(Conductivity)/mS/cm	Im(Conductivity)/mS/cm	|Conductivity|/mS/cm	Phase(Conductivity)/deg	Tan(Delta)	Loss Angle(Delta)/deg	dq/mA.h	
5.0001856E+005	1.1931813E+001	-2.8540187E+000	1.2268398E+001	1.3452062E+001	2.019430748275045E+002	4.4979081E-001	1.9018490E-002	-1.1152628E-001	-6.0355254E-003	1.000000000000000E+000	10	4.3891943E-003	3.5776425E-004	0	3.259603824234606E-005	7.9273991E-002	-1.8961865E-002	8.1510231E-002	-1.3452062E+001	-6.0355263E+000	2.5232758E+001	2.5944550E+001	-1.0345206E+002	0.0000000E+000	0.0000000E+000	0.0000000E+000	1.0345206E+002	0.0000000E+000	0.0000000E+000	0.0000000E+000	-1.0345206E+002	0.0000000E+000	0.0000000E+000	0.0000000E+000	1.3452062E+001	0.0000000E+000	0.0000000E+000	0.0000000E+000	-1.3452062E+001	4.1807060E+000	7.6547935E+001	3.259603824234606E-005
3.3989941E+005	7.6132441E+000	-1.7441679E+000	7.8104806E+000	1.2903592E+001	2.023650737008575E+002	4.4968277E-001	1.8037766E-002	-2.6846114E-001	-1.3387593E-002	1.000000000000000E+000	10	6.4789862E-003	8.2952465E-004	0	3.432256847188950E-005	1.2479991E-001	-2.8591229E-002	1.2803310E-001	-1.2903592E+001	-1.3387597E+001	5.8436470E+001	5.9950386E+001	-1.0290359E+002	0.0000000E+000	0.0000000E+000	0.0000000E+000	1.0290359E+002	0.0000000E+000	0.0000000E+000	0.0000000E+000	-1.0290359E+002	0.0000000E+000	0.0000000E+000	0.0000000E+000	1.2903592E+001	0.0000000E+000	0.0000000E+000	0.0000000E+000	-1.2903592E+001	4.3649721E+000	7.7096405E+001	1.726530229543442E-006
2.3106258E+005	6.0920925E+000	-9.5245439E-001	6.1660976E+000	8.8858452E+000	2.026510694477620E+002	4.4955567E-001	1.7763713E-002	-7.2317988E-001	-1.7254958E-002	1.000000000000000E+000	10	1.0922811E-002	1.7714301E-003	0	3.435187672144255E-005	1.6023070E-001	-2.5050903E-002	1.6217713E-001	-8.8858452E+000	-1.7254965E+001	1.1036623E+002	1.1170693E+002	-9.8885849E+001	0.0000000E+000	0.0000000E+000	0.0000000E+000	9.8885849E+001	0.0000000E+000	0.0000000E+000	0.0000000E+000	-9.8885849E+001	0.0000000E+000	0.0000000E+000	0.0000000E+000	8.8858452E+000	0.0000000E+000	0.0000000E+000	0.0000000E+000	-8.8858452E+000	6.3962040E+000	8.1114151E+001	2.930824955304183E-008
1.5707578E+005	5.5619545E+000	-4.7084764E-001	5.5818486E+000	4.8388410E+000	2.032090772609372E+002	4.4953611E-001	1.7651841E-002	-2.1519418E+000	-1.5312115E-002	1.000000000000000E+000	10	1.0104362E-002	1.8102179E-003	0	4.138436000683254E-005	1.7851360E-001	-1.5112081E-002	1.7915212E-001	-4.8388410E+000	-1.5312125E+001	1.8087653E+002	1.8152350E+002	-9.4838844E+001	0.0000000E+000	0.0000000E+000	0.0000000E+000	9.4838844E+001	0.0000000E+000	0.0000000E+000	0.0000000E+000	-9.4838844E+001	0.0000000E+000	0.0000000E+000	0.0000000E+000	4.8388410E+000	0.0000000E+000	0.0000000E+000	0.0000000E+000	-4.8388410E+000	1.1812642E+001	8.5161156E+001	7.032483285389995E-006
1.0678630E+005	5.4222679E+000	-2.3352692E-001	5.4272943E+000	2.4660978E+000	2.036310921610129E+002	4.4954014E-001	1.7071974E-002	-6.3821597E+000	-1.1816118E-002	1.000000000000000E+000	10	1.0858098E-002	2.0006467E-003	0	4.383895264202147E-005	1.8408322E-001	-7.9281200E-003	1.8425387E-001	-2.4660978E+000	-1.1816104E+001	2.7435876E+002	2.7461310E+002	-9.2466095E+001	0.0000000E+000	0.0000000E+000	0.0000000E+000	9.2466095E+001	0.0000000E+000	0.0000000E+000	0.0000000E+000	-9.2466095E+001	0.0000000E+000	0.0000000E+000	0.0000000E+000	2.4660978E+000	0.0000000E+000	0.0000000E+000	0.0000000E+000	-2.4660978E+000	2.3219028E+001	8.7533905E+001	2.454592635188930E-006
7.2595008E+004	5.3766179E+000	-1.2553190E-001	5.3780832E+000	1.3374842E+000	2.040530750876787E+002	4.4954994E-001	1.6354132E-002	-1.7464626E+001	-9.5150797E-003	1.000000000000000E+000	10	1.0759636E-002	2.0006450E-003	0	4.785794803792831E-005	1.8588918E-001	-4.3400931E-003	1.8593985E-001	-1.3374842E+000	-9.5150948E+000	4.0753748E+002	4.0764853E+002	-9.1337486E+001	0.0000000E+000	0.0000000E+000	0.0000000E+000	9.1337486E+001	0.0000000E+000	0.0000000E+000	0.0000000E+000	-9.1337486E+001	0.0000000E+000	0.0000000E+000	0.0000000E+000	1.3374842E+000	0.0000000E+000	0.0000000E+000	0.0000000E+000	-1.3374842E+000	4.2830692E+001	8.8662514E+001	4.018995395906835E-006
4.9352359E+004	5.3626742E+000	-6.9856860E-002	5.3631291E+000	7.4632108E-001	2.044750809744146E+002	4.4954640E-001	1.5783591E-002	-4.6163967E+001	-7.8322180E-003	1.000000000000000E+000	10	1.0622867E-002	1.9807220E-003	0	4.978193873567054E-005	1.8644248E-001	-2.4286925E-003	1.8645830E-001	-7.4632108E-001	-7.8322334E+000	6.0125275E+002	6.0130377E+002	-9.0746323E+001	0.0000000E+000	0.0000000E+000	0.0000000E+000	9.0746323E+001	0.0000000E+000	0.0000000E+000	0.0000000E+000	-9.0746323E+001	0.0000000E+000	0.0000000E+000	0.0000000E+000	7.4632108E-001	0.0000000E+000	0.0000000E+000	0.0000000E+000	-7.4632108E-001	7.6766609E+001	8.9253677E+001	1.923990697742235E-006
3.3551066E+004	5.3490815E+000	-4.0348716E-002	5.3492336E+000	4.3218023E-001	2.048970728077838E+002	4.4955757E-001	1.5393907E-002	-1.1756664E+002	-6.6889878E-003	1.000000000000000E+000	10	1.0558668E-002	1.9738656E-003	0	4.821229507117338E-005	1.8693735E-001	-1.4100892E-003	1.8694267E-001	-4.3218023E-001	-6.6890197E+000	8.8676776E+002	8.8679297E+002	-9.0432182E+001	0.0000000E+000	0.0000000E+000	0.0000000E+000	9.0432182E+001	0.0000000E+000	0.0000000E+000	0.0000000E+000	-9.0432182E+001	0.0000000E+000	0.0000000E+000	0.0000000E+000	4.3218023E-001	0.0000000E+000	0.0000000E+000	0.0000000E+000	-4.3218023E-001	1.3257129E+002	8.9567818E+001	-1.569643664497161E-006
2.2806563E+004	5.3493137E+000	-1.8711753E-002	5.3493466E+000	2.0041823E-001	2.053190669078176E+002	4.4955596E-001	1.5669856E-002	-3.7294586E+002	-4.5632399E-003	1.000000000000000E+000	10	1.0496445E-002	1.9621919E-003	0	4.993472057327744E-005	1.8693757E-001	-6.5390248E-004	1.8693872E-001	-2.0041823E-001	-4.5632019E+000	1.3045386E+003	1.3045465E+003	-9.0200417E+001	0.0000000E+000	0.0000000E+000	0.0000000E+000	9.0200417E+001	0.0000000E+000	0.0000000E+000	0.0000000E+000	-9.0200417E+001	0.0000000E+000	0.0000000E+000	0.0000000E+000	2.0041823E-001	0.0000000E+000	0.0000000E+000	0.0000000E+000	-2.0041823E-001	2.8587988E+002	8.9799583E+001	1.722425502104066E-006
1.5504379E+004	5.3482022E+000	-1.3014897E-003	5.3482022E+000	1.3942977E-002	2.057410833278700E+002	4.4955713E-001	1.5483406E-002	-7.8872397E+003	-4.6707955E-004	1.000000000000000E+000	10	1.0391396E-002	1.9429699E-003	0	4.765179844005615E-005	1.8697871E-001	-4.5501431E-005	1.8697871E-001	-1.3942977E-002	-4.6719861E-001	1.9193665E+003	1.9193665E+003	-9.0013947E+001	0.0000000E+000	0.0000000E+000	0.0000000E+000	9.0013947E+001	0.0000000E+000	0.0000000E+000	0.0000000E+000	-9.0013947E+001	0.0000000E+000	0.0000000E+000	0.0000000E+000	1.3942977E-002	0.0000000E+000	0.0000000E+000	0.0000000E+000	-1.3942977E-002	4.1092930E+003	8.9986053E+001	-2.282922133221293E-006
1.0540381E+004	5.3512611E+000	4.3107057E-003	5.3512630E+000	-4.6154577E-002	2.061630819079146E+002	4.4955695E-001	1.4819639E-002	3.5028010E+003	2.2730010E-003	1.000000000000000E+000	10	1.0315602E-002	1.9276948E-003	0	5.046465438780595E-005	1.8687171E-001	1.5053441E-004	1.8687177E-001	4.6154577E-002	2.2731614E+000	2.8216775E+003	2.8216785E+003	-8.9953842E+001	0.0000000E+000	0.0000000E+000	0.0000000E+000	8.9953842E+001	0.0000000E+000	0.0000000E+000	0.0000000E+000	-8.9953842E+001	0.0000000E+000	0.0000000E+000	0.0000000E+000	-4.6154577E-002	0.0000000E+000	0.0000000E+000	0.0000000E+000	4.6154577E-002	1.2413887E+003	8.9953842E+001	2.812855947749798E-006
7.1637817E+003	5.3540215E+000	1.5140187E-002	5.3540430E+000	-1.6202147E-001	2.066866839061404E+002	4.4954270E-001	1.3042754E-002	1.4673934E+003	1.1733980E-002	1.000000000000000E+000	10	1.0207145E-002	1.9064370E-003	0	5.446169505469152E-005	1.8677400E-001	5.2816246E-004	1.8677475E-001	1.6202147E-001	1.1733715E+001	4.1494854E+003	4.1495020E+003	-8.9837982E+001	0.0000000E+000	0.0000000E+000	0.0000000E+000	8.9837982E+001	0.0000000E+000	0.0000000E+000	0.0000000E+000	-8.9837982E+001	0.0000000E+000	0.0000000E+000	0.0000000E+000	-1.6202147E-001	0.0000000E+000	0.0000000E+000	0.0000000E+000	1.6202147E-001	3.5362982E+002	8.9837982E+001	3.997040666885565E-006
4.8715591E+003	5.3538384E+000	3.0751403E-002	5.3539267E+000	-3.2909217E-001	2.073753087388832E+002	4.4955391E-001	1.7139103E-002	1.0623979E+003	3.5048727E-002	1.000000000000000E+000	10	1.0147099E-002	1.8952630E-003	0	6.141018628313839E-005	1.8677571E-001	1.0728033E-003	1.8677880E-001	3.2909217E-001	3.5048916E+001	6.1020054E+003	6.1021060E+003	-8.9670906E+001	0.0000000E+000	0.0000000E+000	0.0000000E+000	8.9670906E+001	0.0000000E+000	0.0000000E+000	0.0000000E+000	-8.9670906E+001	0.0000000E+000	0.0000000E+000	0.0000000E+000	-3.2909217E-001	0.0000000E+000	0.0000000E+000	0.0000000E+000	3.2909217E-001	1.7410062E+002	8.9670906E+001	6.948491228446878E-006
3.3110596E+003	5.3651733E+000	4.1453555E-002	5.3653336E+000	-4.4268218E-001	2.078403011343034E+002	4.4954494E-001	1.7614551E-002	1.1595551E+003	6.9218390E-002	1.000000000000000E+000	10	1.0768384E-002	2.0070297E-003	0	6.530432255663456E-005	1.8637614E-001	1.4400195E-003	1.8638170E-001	4.4268218E-001	6.9218109E+001	8.9586680E+003	8.9589355E+003	-8.9557320E+001	0.0000000E+000	0.0000000E+000	0.0000000E+000	8.9557320E+001	0.0000000E+000	0.0000000E+000	0.0000000E+000	-8.9557320E+001	0.0000000E+000	0.0000000E+000	0.0000000E+000	-4.4268218E-001	0.0000000E+000	0.0000000E+000	0.0000000E+000	4.4268218E-001	1.2942613E+002	8.9557320E+001	3.894136273496163E-006
2.2507205E+003	5.3656282E+000	5.6487177E-002	5.3659258E+000	-6.0316461E-001	2.085272667935933E+002	4.4955593E-001	1.5830209E-002	1.2518397E+003	1.3872640E-001	1.000000000000000E+000	10	1.0136647E-002	1.8890770E-003	0	6.465304232861187E-005	1.8635081E-001	1.9618263E-003	1.8636113E-001	6.0316461E-001	1.3872641E+002	1.3177403E+004	1.3178134E+004	-8.9396835E+001	0.0000000E+000	0.0000000E+000	0.0000000E+000	8.9396835E+001	0.0000000E+000	0.0000000E+000	0.0000000E+000	-8.9396835E+001	0.0000000E+000	0.0000000E+000	0.0000000E+000	-6.0316461E-001	0.0000000E+000	0.0000000E+000	0.0000000E+000	6.0316461E-001	9.4988434E+001	8.9396835E+001	-6.512802280226893E-007
1.5304901E+003	5.3742385E+000	7.9282276E-002	5.3748231E+000	-8.4518212E-001	2.089923084156835E+002	4.4954908E-001	1.8241037E-002	1.3116366E+003	2.8538910E-001	1.000000000000000E+000	10	1.0289525E-002	1.9143932E-003	0	6.701648564867597E-005	1.8603240E-001	2.7444020E-003	1.8605264E-001	8.4518212E-001	2.8538983E+002	1.9345420E+004	1.9347525E+004	-8.9154816E+001	0.0000000E+000	0.0000000E+000	0.0000000E+000	8.9154816E+001	0.0000000E+000	0.0000000E+000	0.0000000E+000	-8.9154816E+001	0.0000000E+000	0.0000000E+000	0.0000000E+000	-8.4518212E-001	0.0000000E+000	0.0000000E+000	0.0000000E+000	8.4518212E-001	6.7786125E+001	8.9154816E+001	2.363443320064107E-006
1.0403328E+003	5.3752980E+000	1.0824747E-001	5.3763881E+000	-1.1536634E+000	2.094573014777707E+002	4.4955081E-001	1.5983099E-002	1.4132863E+003	5.7290733E-001	1.000000000000000E+000	10	1.0353450E-002	1.9257260E-003	0	7.017308694008129E-005	1.8596078E-001	3.7448683E-003	1.8599848E-001	1.1536634E+000	5.7290747E+002	2.8449146E+004	2.8454914E+004	-8.8846336E+001	0.0000000E+000	0.0000000E+000	0.0000000E+000	8.8846336E+001	0.0000000E+000	0.0000000E+000	0.0000000E+000	-8.8846336E+001	0.0000000E+000	0.0000000E+000	0.0000000E+000	-1.1536634E+000	0.0000000E+000	0.0000000E+000	0.0000000E+000	1.1536634E+000	4.9657494E+001	8.8846336E+001	3.156601291405320E-006
7.0703625E+002	5.3826752E+000	1.5399361E-001	5.3848777E+000	-1.6387348E+000	2.099217492597672E+002	4.4954574E-001	1.8364092E-002	1.4617589E+003	1.1954446E+000	1.000000000000000E+000	10	1.0385936E-002	1.9287227E-003	0	7.209033307751007E-005	1.8562929E-001	5.3106905E-003	1.8570524E-001	1.6387348E+000	1.1954432E+003	4.1785438E+004	4.1802535E+004	-8.8361267E+001	0.0000000E+000	0.0000000E+000	0.0000000E+000	8.8361267E+001	0.0000000E+000	0.0000000E+000	0.0000000E+000	-8.8361267E+001	0.0000000E+000	0.0000000E+000	0.0000000E+000	-1.6387348E+000	0.0000000E+000	0.0000000E+000	0.0000000E+000	1.6387348E+000	3.4953888E+001	8.8361267E+001	1.917246137428773E-006
4.8076920E+002	5.3931770E+000	2.2169702E-001	5.3977318E+000	-2.3539290E+000	2.103870322418661E+002	4.4954658E-001	1.5048975E-002	1.4932195E+003	2.5189569E+000	1.000000000000000E+000	10	1.0407873E-002	1.9281940E-003	0	7.374360949673832E-005	1.8510668E-001	7.6091695E-003	1.8526301E-001	2.3539290E+000	2.5189553E+003	6.1278141E+004	6.1329891E+004	-8.7646072E+001	0.0000000E+000	0.0000000E+000	0.0000000E+000	8.7646072E+001	0.0000000E+000	0.0000000E+000	0.0000000E+000	-8.7646072E+001	0.0000000E+000	0.0000000E+000	0.0000000E+000	-2.3539290E+000	0.0000000E+000	0.0000000E+000	0.0000000E+000	2.3539290E+000	2.4326792E+001	8.7646072E+001	1.653276419228252E-006
3.2677771E+002	5.4027672E+000	3.1357017E-001	5.4118590E+000	-3.3216524E+000	2.108502668239307E+002	4.4954190E-001	1.7916609E-002	1.5532200E+003	5.2144623E+000	1.000000000000000E+000	10	1.0413697E-002	1.9242365E-003	0	7.648988273124753E-005	1.8446895E-001	1.0706359E-002	1.8477939E-001	3.3216524E+000	5.2144663E+003	8.9844398E+004	8.9995594E+004	-8.6678345E+001	0.0000000E+000	0.0000000E+000	0.0000000E+000	8.6678345E+001	0.0000000E+000	0.0000000E+000	0.0000000E+000	-8.6678345E+001	0.0000000E+000	0.0000000E+000	0.0000000E+000	-3.3216524E+000	0.0000000E+000	0.0000000E+000	0.0000000E+000	3.3216524E+000	1.7229851E+001	8.6678345E+001	2.746273234509214E-006
2.2206076E+002	5.4162555E+000	4.4512859E-001	5.4345160E+000	-4.6982274E+000	2.113114725524938E+002	4.4954658E-001	1.5811564E-002	1.6101371E+003	1.0802197E+001	1.000000000000000E+000	10	1.0416308E-002	1.9166948E-003	0	7.729782090984452E-005	1.8339075E-001	1.5071752E-002	1.8400903E-001	4.6982274E+000	1.0802194E+004	1.3143944E+005	1.3188258E+005	-8.5301773E+001	0.0000000E+000	0.0000000E+000	0.0000000E+000	8.5301773E+001	0.0000000E+000	0.0000000E+000	0.0000000E+000	-8.5301773E+001	0.0000000E+000	0.0000000E+000	0.0000000E+000	-4.6982274E+000	0.0000000E+000	0.0000000E+000	0.0000000E+000	4.6982274E+000	1.2167845E+001	8.5301773E+001	8.079381785969919E-007
1.5101485E+002	5.4370513E+000	6.3367093E-001	5.4738531E+000	-6.6476488E+000	2.117730045477074E+002	4.4954470E-001	1.7258432E-002	1.6631703E+003	2.2288355E+001	1.000000000000000E+000	10	1.0419385E-002	1.9034827E-003	0	8.026148064243089E-005	1.8145844E-001	2.1148399E-002	1.8268667E-001	6.6476488E+000	2.2288363E+004	1.9123953E+005	1.9253397E+005	-8.3352348E+001	0.0000000E+000	0.0000000E+000	0.0000000E+000	8.3352348E+001	0.0000000E+000	0.0000000E+000	0.0000000E+000	-8.3352348E+001	0.0000000E+000	0.0000000E+000	0.0000000E+000	-6.6476488E+000	0.0000000E+000	0.0000000E+000	0.0000000E+000	6.6476488E+000	8.5802441E+000	8.3352348E+001	2.963659732586370E-006
1.0266736E+002	5.4646645E+000	9.0417320E-001	5.5389609E+000	-9.3949366E+000	2.122479101702484E+002	4.4955832E-001	1.6466012E-002	1.7144945E+003	4.5685959E+001	1.000000000000000E+000	10	1.0423643E-002	1.8818770E-003	0	8.393175483209455E-005	1.7811763E-001	2.9471010E-002	1.8053928E-001	9.3949366E+000	4.5685957E+004	2.7611797E+005	2.7987200E+005	-8.0605064E+001	0.0000000E+000	0.0000000E+000	0.0000000E+000	8.0605064E+001	0.0000000E+000	0.0000000E+000	0.0000000E+000	-8.0605064E+001	0.0000000E+000	0.0000000E+000	0.0000000E+000	-9.3949366E+000	0.0000000E+000	0.0000000E+000	0.0000000E+000	9.3949366E+000	6.0438247E+000	8.0605064E+001	3.670274189663660E-006
6.9754463E+001	5.4996800E+000	1.2969744E+000	5.6505418E+000	-1.3269461E+001	2.127150650457625E+002	4.4954267E-001	1.7679811E-002	1.7592062E+003	9.2682846E+001	1.000000000000000E+000	10	1.0427285E-002	1.8453603E-003	0	8.678718114806300E-005	1.7224921E-001	4.0621057E-002	1.7697418E-001	1.3269461E+001	9.2682859E+004	3.9301159E+005	4.0379231E+005	-7.6730537E+001	0.0000000E+000	0.0000000E+000	0.0000000E+000	7.6730537E+001	0.0000000E+000	0.0000000E+000	0.0000000E+000	-7.6730537E+001	0.0000000E+000	0.0000000E+000	0.0000000E+000	-1.3269461E+001	0.0000000E+000	0.0000000E+000	0.0000000E+000	1.3269461E+001	4.2403922E+000	7.6730537E+001	2.855426315968447E-006
4.7444328E+001	5.5418520E+000	1.8581648E+000	5.8450747E+000	-1.8536135E+001	2.131590176001919E+002	4.4954583E-001	1.5237290E-002	1.8053092E+003	1.8244835E+002	1.000000000000000E+000	10	1.0428573E-002	1.7841642E-003	0	9.022590469820716E-005	1.6220893E-001	5.4388128E-002	1.7108421E-001	1.8536135E+001	1.8244834E+005	5.4413994E+005	5.7391263E+005	-7.1463867E+001	0.0000000E+000	0.0000000E+000	0.0000000E+000	7.1463867E+001	0.0000000E+000	0.0000000E+000	0.0000000E+000	-7.1463867E+001	0.0000000E+000	0.0000000E+000	0.0000000E+000	-1.8536135E+001	0.0000000E+000	0.0000000E+000	0.0000000E+000	1.8536135E+001	2.9824331E+000	7.1463867E+001	3.438723550144160E-006
3.2238655E+001	5.5964217E+000	2.6728072E+000	6.2019219E+000	-2.5528774E+001	2.135964415676863E+002	4.4953543E-001	1.3501417E-002	1.8470370E+003	3.4305066E+002	1.000000000000000E+000	10	1.0439824E-002	1.6833209E-003	0	9.148208434132458E-005	1.4549828E-001	6.9488831E-002	1.6124034E-001	2.5528774E+001	3.4305069E+005	7.1829206E+005	7.9600706E+005	-6.4471222E+001	0.0000000E+000	0.0000000E+000	0.0000000E+000	6.4471222E+001	0.0000000E+000	0.0000000E+000	0.0000000E+000	-6.4471222E+001	0.0000000E+000	0.0000000E+000	0.0000000E+000	-2.5528774E+001	0.0000000E+000	0.0000000E+000	0.0000000E+000	2.5528774E+001	2.0938365E+000	6.4471222E+001	1.256179643117415E-006
