EC-Lab ASCII FILE
Nb header lines : 63                          

Potentio Electrochemical Impedance Spectroscopy

Run on channel : 1 (SN 69187)
User : 
CE vs. WE compliance from -10 V to 10 V
Electrode connection : standard
Potential control : Ewe
Ewe ctrl range : min = -1.00 V, max = 1.00 V
Safety Limits :
	Do not start on E overload
Acquisition started on : 11/12/2025 14:40:36.984
Loaded Setting File :  C:\Users\User\Documents\EC-Lab\Data\Yatsuzuka\20251030_2-147_gamma_reproducibility\20251030_2-147_001_gamma1_K_1.mps
Saved on :
	File : 20251112_2-148_001_alpha_reproducibility_1_K2_02_PEIS_C01.mpr
	Directory : C:\Users\User\Documents\EC-Lab\Data\Yatsuzuka\20251112_2-148_alpha_reproducibility\
	Host : 192.109.209.127
Device : SP-150e (SN .003883)
Address : 192.109.209.128
EC-LAB for windows v11.52 (software)
Internet server v11.52 (firmware)
Command interpretor v11.50 (firmware)
Electrode material : 
Initial state : 
Electrolyte : 
Comments : 
Electrode surface area : 0.001 cm2
Characteristic mass : 0.001 g
Equivalent Weight : 0.000 g/eq.
Density : 0.000 g/cm3
Volume (V) : 0.001 cm3
Cycle Definition : Charge/Discharge alternance
Mode                Single sine         
E (V)               0.4500              
vs.                 Ref                 
tE (h:m:s)          0:00:0.0000         
record              0                   
dI                  0.000               
unit dI             mA                  
dt (s)              0.000               
fi                  500.000             
unit fi             kHz                 
ff                  1.000               
unit ff             Hz                  
Nd                  6                   
Points              per decade          
spacing             Logarithmic         
Va (mV)             10.0                
pw                  0.10                
Na                  2                   
corr                0                   
E range min (V)     -1.000              
E range max (V)     1.000               
I Range             Auto                
Bandwidth           5                   
nc cycles           0                   
goto Ns'            0                   
nr cycles           0                   
inc. cycle          0                   

freq/Hz	Re(Z)/Ohm	-Im(Z)/Ohm	|Z|/Ohm	Phase(Z)/deg	time/s	<Ewe>/V	<I>/mA	Cs/uF	Cp/uF	cycle number	I Range	|Ewe|/V	|I|/A	Ns	(Q-Qo)/mA.h	Re(Y)/Ohm-1	Im(Y)/Ohm-1	|Y|/Ohm-1	Phase(Y)/deg	Re(C)/nF	Im(C)/nF	|C|/nF	Phase(C)/deg	Re(M)	Im(M)	|M|	Phase(M)/deg	Re(Permittivity)	Im(Permittivity)	|Permittivity|	Phase(Permittivity)/deg	Re(Resistivity)/Ohm.cm	Im(Resistivity)/Ohm.cm	|Resistivity|/Ohm.cm	Phase(Resistivity)/deg	Re(Conductivity)/mS/cm	Im(Conductivity)/mS/cm	|Conductivity|/mS/cm	Phase(Conductivity)/deg	Tan(Delta)	Loss Angle(Delta)/deg	dq/mA.h	Pwe/W	Rwe/Ohm	
5.0001856E+005	1.3513741E+001	-2.6389081E+000	1.3768989E+001	1.1049438E+001	2.020818795552041E+002	4.5015484E-001	9.1732098E-003	-1.2061734E-001	-4.4305148E-003	1.000000000000000E+000	10	4.6836915E-003	3.4016234E-004	0	2.060423939191322E-005	7.1280636E-002	-1.3919390E-002	7.2626978E-002	-1.1049438E+001	-4.4305153E+000	2.2688488E+001	2.3117027E+001	-1.0104944E+002	0.0000000E+000	0.0000000E+000	0.0000000E+000	1.0104944E+002	0.0000000E+000	0.0000000E+000	0.0000000E+000	-1.0104944E+002	0.0000000E+000	0.0000000E+000	0.0000000E+000	1.1049438E+001	0.0000000E+000	0.0000000E+000	0.0000000E+000	-1.1049438E+001	5.1209593E+000	7.8950562E+001	2.060423939191322E-005	4.1293647E-006	4.9072773E+004
3.3989941E+005	9.1683826E+000	-1.5154265E+000	9.2927799E+000	9.3854656E+000	2.025038858685439E+002	4.5001870E-001	1.1582657E-002	-3.0898318E-001	-8.2170004E-003	1.000000000000000E+000	10	7.3422054E-003	7.9009781E-004	0	2.303123521530587E-005	1.0616991E-001	-1.7548645E-002	1.0761043E-001	-9.3854656E+000	-8.2170029E+000	4.9713139E+001	5.0387650E+001	-9.9385468E+001	0.0000000E+000	0.0000000E+000	0.0000000E+000	9.9385468E+001	0.0000000E+000	0.0000000E+000	0.0000000E+000	-9.9385468E+001	0.0000000E+000	0.0000000E+000	0.0000000E+000	9.3854656E+000	0.0000000E+000	0.0000000E+000	0.0000000E+000	-9.3854656E+000	6.0500345E+000	8.0614532E+001	2.426995823392646E-006	5.2124124E-006	3.8852805E+004
2.3106258E+005	7.6885777E+000	-7.8244990E-001	7.7282891E+000	5.8108621E+000	2.029258731152659E+002	4.4984680E-001	1.3157281E-002	-8.8030660E-001	-9.0236105E-003	1.000000000000000E+000	10	1.0182842E-002	1.3176062E-003	0	2.669904913283083E-005	1.2872985E-001	-1.3100558E-002	1.2939474E-001	-5.8108621E+000	-9.0236063E+000	8.8668579E+001	8.9126556E+001	-9.5810860E+001	0.0000000E+000	0.0000000E+000	0.0000000E+000	9.5810860E+001	0.0000000E+000	0.0000000E+000	0.0000000E+000	-9.5810860E+001	0.0000000E+000	0.0000000E+000	0.0000000E+000	5.8108621E+000	0.0000000E+000	0.0000000E+000	0.0000000E+000	-5.8108621E+000	9.8262873E+000	8.4189140E+001	3.667813917524958E-006	5.9187610E-006	3.4189953E+004
1.5707578E+005	7.1720543E+000	-3.2740596E-001	7.1795235E+000	2.6137512E+000	2.033488708153745E+002	4.4977912E-001	1.2270284E-002	-3.0947409E+000	-6.4358548E-003	1.000000000000000E+000	10	1.0979485E-002	1.5292777E-003	0	3.109683336679073E-005	1.3914011E-001	-6.3517787E-003	1.3928501E-001	-2.6137512E+000	-6.4358625E+000	1.4098186E+002	1.4112868E+002	-9.2613754E+001	0.0000000E+000	0.0000000E+000	0.0000000E+000	9.2613754E+001	0.0000000E+000	0.0000000E+000	0.0000000E+000	-9.2613754E+001	0.0000000E+000	0.0000000E+000	0.0000000E+000	2.6137512E+000	0.0000000E+000	0.0000000E+000	0.0000000E+000	-2.6137512E+000	2.1905693E+001	8.7386246E+001	4.397784233959906E-006	5.5189175E-006	3.6655969E+004
1.0678630E+005	7.0451798E+000	-1.1206634E-001	7.0460711E+000	9.1131628E-001	2.037708711287269E+002	4.4977087E-001	1.0777664E-002	-1.3299319E+001	-3.3642307E-003	1.000000000000000E+000	10	1.0984885E-002	1.5590085E-003	0	3.436500129850012E-005	1.4190511E-001	-2.2572579E-003	1.4192307E-001	-9.1131628E-001	-3.3642294E+000	2.1149625E+002	2.1152299E+002	-9.0911316E+001	0.0000000E+000	0.0000000E+000	0.0000000E+000	9.0911316E+001	0.0000000E+000	0.0000000E+000	0.0000000E+000	-9.0911316E+001	0.0000000E+000	0.0000000E+000	0.0000000E+000	9.1131628E-001	0.0000000E+000	0.0000000E+000	0.0000000E+000	-9.1131628E-001	6.2866154E+001	8.9088684E+001	3.268167931709388E-006	4.8474794E-006	4.1731758E+004
7.2595008E+004	7.0258465E+000	-1.4487527E-002	7.0258613E+000	1.1814562E-001	2.041928876020975E+002	4.4975841E-001	1.0477650E-002	-1.5132794E+002	-6.4344070E-004	1.000000000000000E+000	10	1.0742731E-002	1.5290270E-003	0	3.495892563365891E-005	1.4233100E-001	-2.9349123E-004	1.4233130E-001	-1.1814562E-001	-6.4345801E-001	3.1204187E+002	3.1204254E+002	-9.0118149E+001	0.0000000E+000	0.0000000E+000	0.0000000E+000	9.0118149E+001	0.0000000E+000	0.0000000E+000	0.0000000E+000	-9.0118149E+001	0.0000000E+000	0.0000000E+000	0.0000000E+000	1.1814562E-001	0.0000000E+000	0.0000000E+000	0.0000000E+000	-1.1814562E-001	4.8495828E+002	8.9881851E+001	5.939243351587943E-007	4.7124113E-006	4.2925504E+004
4.9352359E+004	7.0260921E+000	1.8720903E-002	7.0261168E+000	-1.5266326E-001	2.046148665555083E+002	4.4975534E-001	1.2260965E-002	1.7226039E+002	1.2229487E-003	1.000000000000000E+000	10	1.0617377E-002	1.5111301E-003	0	3.565986255007253E-005	1.4232562E-001	3.7922419E-004	1.4232613E-001	1.5266326E-001	1.2229561E+000	4.5898163E+002	4.5898325E+002	-8.9847336E+001	0.0000000E+000	0.0000000E+000	0.0000000E+000	8.9847336E+001	0.0000000E+000	0.0000000E+000	0.0000000E+000	-8.9847336E+001	0.0000000E+000	0.0000000E+000	0.0000000E+000	-1.5266326E-001	0.0000000E+000	0.0000000E+000	0.0000000E+000	1.5266326E-001	3.7530734E+002	8.9847336E+001	7.009369164136164E-007	5.5144346E-006	3.6681887E+004
3.3551066E+004	7.0342541E+000	3.9061036E-002	7.0343623E+000	-3.1815875E-001	2.050368813755485E+002	4.4976276E-001	1.3971610E-002	1.2144231E+002	3.7446229E-003	1.000000000000000E+000	10	1.0533207E-002	1.4973934E-003	0	3.958854557173779E-005	1.4215711E-001	7.8939484E-004	1.4215930E-001	3.1815875E-001	3.7446494E+000	6.7434540E+002	6.7435577E+002	-8.9681839E+001	0.0000000E+000	0.0000000E+000	0.0000000E+000	8.9681839E+001	0.0000000E+000	0.0000000E+000	0.0000000E+000	-8.9681839E+001	0.0000000E+000	0.0000000E+000	0.0000000E+000	-3.1815875E-001	0.0000000E+000	0.0000000E+000	0.0000000E+000	3.1815875E-001	1.8008365E+002	8.9681839E+001	3.928683021665262E-006	6.2839099E-006	3.2191191E+004
2.2806563E+004	7.0533628E+000	4.7785666E-002	7.0535245E+000	-3.8816595E-001	2.054588672355894E+002	4.4976202E-001	1.2029898E-002	1.4603691E+002	6.7026350E-003	1.000000000000000E+000	10	1.0486867E-002	1.4867557E-003	0	3.897671860794071E-005	1.4176984E-001	9.6047326E-004	1.4177309E-001	3.8816595E-001	6.7026768E+000	9.8933679E+002	9.8935950E+002	-8.9611832E+001	0.0000000E+000	0.0000000E+000	0.0000000E+000	8.9611832E+001	0.0000000E+000	0.0000000E+000	0.0000000E+000	-8.9611832E+001	0.0000000E+000	0.0000000E+000	0.0000000E+000	-3.8816595E-001	0.0000000E+000	0.0000000E+000	0.0000000E+000	3.8816595E-001	1.4760416E+002	8.9611832E+001	-6.118269637970803E-007	5.4105913E-006	3.7387016E+004
1.5504379E+004	7.0619144E+000	5.2309569E-002	7.0621080E+000	-4.2439806E-001	2.058808836823009E+002	4.4976357E-001	9.9074347E-003	1.9623868E+002	1.0766591E-002	1.000000000000000E+000	10	1.0384154E-002	1.4704042E-003	0	3.877610488407987E-005	1.4159688E-001	1.0488477E-003	1.4160077E-001	4.2439806E-001	1.0766648E+001	1.4535149E+003	1.4535548E+003	-8.9575600E+001	0.0000000E+000	0.0000000E+000	0.0000000E+000	8.9575600E+001	0.0000000E+000	0.0000000E+000	0.0000000E+000	-8.9575600E+001	0.0000000E+000	0.0000000E+000	0.0000000E+000	-4.2439806E-001	0.0000000E+000	0.0000000E+000	0.0000000E+000	4.2439806E-001	1.3500235E+002	8.9575600E+001	-2.006137238608465E-007	4.4560034E-006	4.5396570E+004
1.0540381E+004	7.0793285E+000	5.9088551E-002	7.0795751E+000	-4.7821569E-001	2.063028785023052E+002	4.4975549E-001	9.8366225E-003	2.5554095E+002	1.7801344E-002	1.000000000000000E+000	10	1.0291169E-002	1.4536423E-003	0	3.999584942202717E-005	1.4124650E-001	1.1789325E-003	1.4125142E-001	4.7821569E-001	1.7801434E+001	2.1327578E+003	2.1328320E+003	-8.9521782E+001	0.0000000E+000	0.0000000E+000	0.0000000E+000	8.9521782E+001	0.0000000E+000	0.0000000E+000	0.0000000E+000	-8.9521782E+001	0.0000000E+000	0.0000000E+000	0.0000000E+000	-4.7821569E-001	0.0000000E+000	0.0000000E+000	0.0000000E+000	4.7821569E-001	1.1980880E+002	8.9521782E+001	1.219744537947309E-006	4.4240751E-006	4.5722551E+004
7.1637817E+003	7.0878954E+000	5.5680461E-002	7.0881143E+000	-4.5008984E-001	2.068274797539489E+002	4.4974032E-001	1.0745984E-002	3.9900189E+002	2.4621766E-002	1.000000000000000E+000	10	1.0248156E-002	1.4458227E-003	0	4.024128220231634E-005	1.4107689E-001	1.1082593E-003	1.4108124E-001	4.5008984E-001	2.4621691E+001	3.1342502E+003	3.1343469E+003	-8.9549911E+001	0.0000000E+000	0.0000000E+000	0.0000000E+000	8.9549911E+001	0.0000000E+000	0.0000000E+000	0.0000000E+000	-8.9549911E+001	0.0000000E+000	0.0000000E+000	0.0000000E+000	-4.5008984E-001	0.0000000E+000	0.0000000E+000	0.0000000E+000	4.5008984E-001	1.2729591E+002	8.9549911E+001	2.454327802891670E-007	4.8329021E-006	4.1851945E+004
4.8715591E+003	7.0980625E+000	5.9045423E-002	7.0983081E+000	-4.7660547E-001	2.075170841067229E+002	4.4976357E-001	1.2361591E-002	5.5330670E+002	3.8285006E-002	1.000000000000000E+000	10	1.0097029E-002	1.4224557E-003	0	4.125001532122850E-005	1.4087377E-001	1.1718622E-003	1.4087865E-001	4.7660547E-001	3.8285229E+001	4.6023779E+003	4.6025371E+003	-8.9523392E+001	0.0000000E+000	0.0000000E+000	0.0000000E+000	8.9523392E+001	0.0000000E+000	0.0000000E+000	0.0000000E+000	-8.9523392E+001	0.0000000E+000	0.0000000E+000	0.0000000E+000	-4.7660547E-001	0.0000000E+000	0.0000000E+000	0.0000000E+000	4.7660547E-001	1.2021359E+002	8.9523392E+001	1.008733118912156E-006	5.5597930E-006	3.6383957E+004
3.3110596E+003	7.1121559E+000	6.4831927E-002	7.1124516E+000	-5.2227384E-001	2.079820806888092E+002	4.4975248E-001	1.0418016E-002	7.4141986E+002	6.1603226E-002	1.000000000000000E+000	10	1.0596287E-002	1.4898219E-003	0	4.157884827228393E-005	1.4059265E-001	1.2815935E-003	1.4059849E-001	5.2227384E-001	6.1602791E+001	6.7579619E+003	6.7582427E+003	-8.9477730E+001	0.0000000E+000	0.0000000E+000	0.0000000E+000	8.9477730E+001	0.0000000E+000	0.0000000E+000	0.0000000E+000	-8.9477730E+001	0.0000000E+000	0.0000000E+000	0.0000000E+000	-5.2227384E-001	0.0000000E+000	0.0000000E+000	0.0000000E+000	5.2227384E-001	1.0970144E+002	8.9477730E+001	3.288329510554272E-007	4.6855289E-006	4.3170645E+004
2.2507205E+003	7.1216302E+000	7.4225955E-002	7.1220169E+000	-5.9714979E-001	2.084470793775617E+002	4.4975832E-001	1.0591318E-002	9.5267072E+002	1.0347808E-001	1.000000000000000E+000	10	1.0854630E-002	1.5240950E-003	0	4.435814334676575E-005	1.4040203E-001	1.4633553E-003	1.4040966E-001	5.9714979E-001	1.0347858E+002	9.9282334E+003	9.9287725E+003	-8.9402847E+001	0.0000000E+000	0.0000000E+000	0.0000000E+000	8.9402847E+001	0.0000000E+000	0.0000000E+000	0.0000000E+000	-8.9402847E+001	0.0000000E+000	0.0000000E+000	0.0000000E+000	-5.9714979E-001	0.0000000E+000	0.0000000E+000	0.0000000E+000	5.9714979E-001	9.5945282E+001	8.9402847E+001	2.779295074481825E-006	4.7635335E-006	4.2464813E+004
1.5304901E+003	7.1227498E+000	9.2350490E-002	7.1233482E+000	-7.4283069E-001	2.089120718263148E+002	4.4975826E-001	1.2050398E-002	1.1260313E+003	1.8926072E-001	1.000000000000000E+000	10	1.0971182E-002	1.5401720E-003	0	4.693965186832551E-005	1.4037162E-001	1.8199978E-003	1.4038342E-001	7.4283069E-001	1.8926012E+002	1.4597179E+004	1.4598405E+004	-8.9257172E+001	0.0000000E+000	0.0000000E+000	0.0000000E+000	8.9257172E+001	0.0000000E+000	0.0000000E+000	0.0000000E+000	-8.9257172E+001	0.0000000E+000	0.0000000E+000	0.0000000E+000	-7.4283069E-001	0.0000000E+000	0.0000000E+000	0.0000000E+000	7.4283069E-001	7.7127365E+001	8.9257172E+001	2.581508521559755E-006	5.4197658E-006	3.7323105E+004
1.0403328E+003	7.1317754E+000	1.1553694E-001	7.1327114E+000	-9.2812794E-001	2.095990760189452E+002	4.4975725E-001	1.0990096E-002	1.3241189E+003	3.4742367E-001	1.000000000000000E+000	10	1.0062193E-002	1.4107109E-003	0	4.714543578258922E-005	1.4018075E-001	2.2709710E-003	1.4019914E-001	9.2812794E-001	3.4742484E+002	2.1445500E+004	2.1448314E+004	-8.9071869E+001	0.0000000E+000	0.0000000E+000	0.0000000E+000	8.9071869E+001	0.0000000E+000	0.0000000E+000	0.0000000E+000	-8.9071869E+001	0.0000000E+000	0.0000000E+000	0.0000000E+000	-9.2812794E-001	0.0000000E+000	0.0000000E+000	0.0000000E+000	9.2812794E-001	6.1727230E+001	8.9071869E+001	2.057839142637183E-007	4.9428754E-006	4.0923867E+004
7.0703625E+002	7.1385598E+000	1.5958811E-001	7.1403437E+000	-1.2806789E+000	2.100635694543162E+002	4.4976377E-001	1.1871506E-002	1.4105155E+003	7.0459694E-001	1.000000000000000E+000	10	1.0089812E-002	1.4130709E-003	0	4.908277596086393E-005	1.4001429E-001	3.1301295E-003	1.4004928E-001	1.2806789E+000	7.0459644E+002	3.1517434E+004	3.1525309E+004	-8.8719322E+001	0.0000000E+000	0.0000000E+000	0.0000000E+000	8.8719322E+001	0.0000000E+000	0.0000000E+000	0.0000000E+000	-8.8719322E+001	0.0000000E+000	0.0000000E+000	0.0000000E+000	-1.2806789E+000	0.0000000E+000	0.0000000E+000	0.0000000E+000	1.2806789E+000	4.4731152E+001	8.8719322E+001	1.937340178274708E-006	5.3393733E-006	3.7885992E+004
4.8076920E+002	7.1404991E+000	2.1886887E-001	7.1438527E+000	-1.7556669E+000	2.105288472630346E+002	4.4976065E-001	9.9055702E-003	1.5125144E+003	1.4197193E+000	1.000000000000000E+000	10	1.0092669E-002	1.4127768E-003	0	5.101688598677154E-005	1.3991478E-001	4.2886348E-003	1.3998049E-001	1.7556669E+000	1.4197208E+003	4.6317711E+004	4.6339465E+004	-8.8244331E+001	0.0000000E+000	0.0000000E+000	0.0000000E+000	8.8244331E+001	0.0000000E+000	0.0000000E+000	0.0000000E+000	-8.8244331E+001	0.0000000E+000	0.0000000E+000	0.0000000E+000	-1.7556669E+000	0.0000000E+000	0.0000000E+000	0.0000000E+000	1.7556669E+000	3.2624554E+001	8.8244331E+001	1.934110025907607E-006	4.4551357E-006	4.5404820E+004
3.2677771E+002	7.1595488E+000	3.1612727E-001	7.1665244E+000	-2.5282321E+000	2.109920481917761E+002	4.4974884E-001	9.3968483E-003	1.5406563E+003	2.9978681E+000	1.000000000000000E+000	10	1.0115907E-002	1.4115499E-003	0	5.235959548276151E-005	1.3940182E-001	6.1552366E-003	1.3953765E-001	2.5282321E+000	2.9978638E+003	6.7894742E+004	6.7960898E+004	-8.7471771E+001	0.0000000E+000	0.0000000E+000	0.0000000E+000	8.7471771E+001	0.0000000E+000	0.0000000E+000	0.0000000E+000	-8.7471771E+001	0.0000000E+000	0.0000000E+000	0.0000000E+000	-2.5282321E+000	0.0000000E+000	0.0000000E+000	0.0000000E+000	2.5282321E+000	2.2647678E+001	8.7471771E+001	1.342709495989969E-006	4.2262218E-006	4.7861668E+004
2.2206076E+002	7.1734424E+000	4.4086802E-001	7.1869769E+000	-3.5168815E+000	2.114533062403352E+002	4.4976011E-001	1.0302484E-002	1.6256974E+003	6.1173654E+000	1.000000000000000E+000	10	1.0122322E-002	1.4084256E-003	0	5.388688050455595E-005	1.3887852E-001	8.5352473E-003	1.3914056E-001	3.5168815E+000	6.1173691E+003	9.9536734E+004	9.9724539E+004	-8.6483116E+001	0.0000000E+000	0.0000000E+000	0.0000000E+000	8.6483116E+001	0.0000000E+000	0.0000000E+000	0.0000000E+000	-8.6483116E+001	0.0000000E+000	0.0000000E+000	0.0000000E+000	-3.5168815E+000	0.0000000E+000	0.0000000E+000	0.0000000E+000	3.5168815E+000	1.6271179E+001	8.6483116E+001	1.527285021794443E-006	4.6336463E-006	4.3655500E+004
1.5101485E+002	7.1911693E+000	6.3023835E-001	7.2187338E+000	-5.0086389E+000	2.119148103155458E+002	4.4975320E-001	1.1314335E-002	1.6722288E+003	1.2746275E+001	1.000000000000000E+000	10	1.0125301E-002	1.4026422E-003	0	5.483363264508727E-005	1.3799949E-001	1.2094357E-002	1.3852845E-001	5.0086389E+000	1.2746269E+004	1.4543802E+005	1.4599550E+005	-8.4991364E+001	0.0000000E+000	0.0000000E+000	0.0000000E+000	8.4991364E+001	0.0000000E+000	0.0000000E+000	0.0000000E+000	-8.4991364E+001	0.0000000E+000	0.0000000E+000	0.0000000E+000	-5.0086389E+000	0.0000000E+000	0.0000000E+000	0.0000000E+000	5.0086389E+000	1.1410237E+001	8.4991364E+001	9.467521405313154E-007	5.0886583E-006	3.9750738E+004
1.0266736E+002	7.2120409E+000	9.0665811E-001	7.2688074E+000	-7.1653209E+000	2.123896839647932E+002	4.4975731E-001	9.6800933E-003	1.7097954E+003	2.6601429E+001	1.000000000000000E+000	10	1.0122806E-002	1.3926364E-003	0	5.495703066687565E-005	1.3649975E-001	1.7159998E-002	1.3757415E-001	7.1653209E+000	2.6601430E+004	2.1160191E+005	2.1326744E+005	-8.2834679E+001	0.0000000E+000	0.0000000E+000	0.0000000E+000	8.2834679E+001	0.0000000E+000	0.0000000E+000	0.0000000E+000	-8.2834679E+001	0.0000000E+000	0.0000000E+000	0.0000000E+000	-7.1653209E+000	0.0000000E+000	0.0000000E+000	0.0000000E+000	7.1653209E+000	7.9545321E+000	8.2834679E+001	1.233980217883851E-007	4.3536925E-006	4.6462086E+004
6.9754463E+001	7.2532167E+000	1.2979181E+000	7.3684287E+000	-1.0145346E+001	2.128568347869586E+002	4.4976512E-001	1.1230481E-002	1.7579270E+003	5.4543831E+001	1.000000000000000E+000	10	1.0130683E-002	1.3748769E-003	0	5.552999789892541E-005	1.3359213E-001	2.3905482E-002	1.3571414E-001	1.0145346E+001	5.4543840E+004	3.0480984E+005	3.0965153E+005	-7.9854652E+001	0.0000000E+000	0.0000000E+000	0.0000000E+000	7.9854652E+001	0.0000000E+000	0.0000000E+000	0.0000000E+000	-7.9854652E+001	0.0000000E+000	0.0000000E+000	0.0000000E+000	-1.0145346E+001	0.0000000E+000	0.0000000E+000	0.0000000E+000	1.0145346E+001	5.5883470E+000	7.9854652E+001	5.729672320497572E-007	5.0510785E-006	4.0048605E+004
4.7444328E+001	7.3043590E+000	1.8595407E+000	7.5373440E+000	-1.4282932E+001	2.133008324614057E+002	4.4975710E-001	1.0166452E-002	1.8039735E+003	1.0980064E+002	1.000000000000000E+000	10	1.0133449E-002	1.3444324E-003	0	5.533600739537117E-005	1.2857172E-001	3.2731734E-002	1.3267273E-001	1.4282932E+001	1.0980061E+005	4.3130181E+005	4.4505891E+005	-7.5717072E+001	0.0000000E+000	0.0000000E+000	0.0000000E+000	7.5717072E+001	0.0000000E+000	0.0000000E+000	0.0000000E+000	-7.5717072E+001	0.0000000E+000	0.0000000E+000	0.0000000E+000	-1.4282932E+001	0.0000000E+000	0.0000000E+000	0.0000000E+000	1.4282932E+001	3.9280448E+000	7.5717072E+001	-1.939905035542341E-007	4.5724341E-006	4.4239336E+004
