EC-Lab ASCII FILE
Nb header lines : 63                          

Potentio Electrochemical Impedance Spectroscopy

Run on channel : 2 (SN 69290)
User : 
CE vs. WE compliance from -10 V to 10 V
Electrode connection : standard
Potential control : Ewe
Ewe ctrl range : min = -1.00 V, max = 1.00 V
Safety Limits :
	Do not start on E overload
Acquisition started on : 11/12/2025 19:49:32.045
Loaded Setting File :  C:\Users\User\Documents\EC-Lab\Data\Yatsuzuka\20251112_2-148_alpha_reproducibility\20251112_2-148_002_alpha_reproducibility_2_K1.mps
Saved on :
	File : 20251112_2-148_006_gamma_reproducibility_2_Na1_02_PEIS_C02.mpr
	Directory : C:\Users\User\Documents\EC-Lab\Data\Yatsuzuka\20251112_2-148_alpha_reproducibility\
	Host : 192.109.209.127
Device : SP-150e (SN .003883)
Address : 192.109.209.128
EC-Lab for windows v11.52 (software)
Internet server v11.52 (firmware)
Command interpretor v11.50 (firmware)
Electrode material : 
Initial state : 
Electrolyte : 
Comments : 
Electrode surface area : 0.001 cm2
Characteristic mass : 0.001 g
Equivalent Weight : 0.000 g/eq.
Density : 0.000 g/cm3
Volume (V) : 0.001 cm3
Cycle Definition : Charge/Discharge alternance
Mode                Single sine         
E (V)               0.4500              
vs.                 Ref                 
tE (h:m:s)          0:00:0.0000         
record              0                   
dI                  0.000               
unit dI             mA                  
dt (s)              0.000               
fi                  500.000             
unit fi             kHz                 
ff                  1.000               
unit ff             Hz                  
Nd                  6                   
Points              per decade          
spacing             Logarithmic         
Va (mV)             10.0                
pw                  0.10                
Na                  2                   
corr                0                   
E range min (V)     -1.000              
E range max (V)     1.000               
I Range             Auto                
Bandwidth           5                   
nc cycles           0                   
goto Ns'            0                   
nr cycles           0                   
inc. cycle          0                   

freq/Hz	Re(Z)/Ohm	-Im(Z)/Ohm	|Z|/Ohm	Phase(Z)/deg	time/s	<Ewe>/V	<I>/mA	Cs/uF	Cp/uF	cycle number	I Range	|Ewe|/V	|I|/A	Ns	(Q-Qo)/mA.h	Re(Y)/Ohm-1	Im(Y)/Ohm-1	|Y|/Ohm-1	Phase(Y)/deg	Re(C)/nF	Im(C)/nF	|C|/nF	Phase(C)/deg	Re(M)	Im(M)	|M|	Phase(M)/deg	Re(Permittivity)	Im(Permittivity)	|Permittivity|	Phase(Permittivity)/deg	Re(Resistivity)/Ohm.cm	Im(Resistivity)/Ohm.cm	|Resistivity|/Ohm.cm	Phase(Resistivity)/deg	Re(Conductivity)/mS/cm	Im(Conductivity)/mS/cm	|Conductivity|/mS/cm	Phase(Conductivity)/deg	Tan(Delta)	Loss Angle(Delta)/deg	dq/mA.h	
5.0001856E+005	1.9619284E+001	-2.1711702E+000	1.9739054E+001	6.3149481E+000	2.019340733337012E+002	4.4978759E-001	1.9221721E-002	-1.4660208E-001	-1.7736799E-003	1.000000000000000E+000	10	6.1106510E-003	3.0957162E-004	0	3.017135601523074E-005	5.0353594E-002	-5.5723861E-003	5.0660990E-002	-6.3149481E+000	-1.7736800E+000	1.6027452E+001	1.6125296E+001	-9.6314949E+001	0.0000000E+000	0.0000000E+000	0.0000000E+000	9.6314949E+001	0.0000000E+000	0.0000000E+000	0.0000000E+000	-9.6314949E+001	0.0000000E+000	0.0000000E+000	0.0000000E+000	6.3149481E+000	0.0000000E+000	0.0000000E+000	0.0000000E+000	-6.3149481E+000	9.0362711E+000	8.3685051E+001	3.017135601523074E-005
3.3989941E+005	1.4032033E+001	-1.5417488E+000	1.4116478E+001	6.2701378E+000	2.022190678806073E+002	4.4968623E-001	1.9109860E-002	-3.0370790E-001	-3.6226853E-003	1.000000000000000E+000	10	9.8848902E-003	7.0023770E-004	0	3.205033459318414E-005	7.0415437E-002	-7.7367914E-003	7.0839196E-002	-6.2701378E+000	-3.6226878E+000	3.2971420E+001	3.3169842E+001	-9.6270142E+001	0.0000000E+000	0.0000000E+000	0.0000000E+000	9.6270142E+001	0.0000000E+000	0.0000000E+000	0.0000000E+000	-9.6270142E+001	0.0000000E+000	0.0000000E+000	0.0000000E+000	6.2701378E+000	0.0000000E+000	0.0000000E+000	0.0000000E+000	-6.2701378E+000	9.1013746E+000	8.3729858E+001	1.878978577953402E-006
2.3106258E+005	1.1951983E+001	-8.9860290E-001	1.1985716E+001	4.2996602E+000	2.026420702206815E+002	4.4955099E-001	1.9188181E-002	-7.6651859E-001	-4.3085422E-003	1.000000000000000E+000	10	1.0668275E-002	8.9008245E-004	0	3.518754374371040E-005	8.3197832E-002	-6.2551801E-003	8.3432645E-002	-4.2996602E+000	-4.3085418E+000	5.7306320E+001	5.7468060E+001	-9.4299660E+001	0.0000000E+000	0.0000000E+000	0.0000000E+000	9.4299660E+001	0.0000000E+000	0.0000000E+000	0.0000000E+000	-9.4299660E+001	0.0000000E+000	0.0000000E+000	0.0000000E+000	4.2996602E+000	0.0000000E+000	0.0000000E+000	0.0000000E+000	-4.2996602E+000	1.3300629E+001	8.5700340E+001	3.137209150526258E-006
1.5707578E+005	1.1179335E+001	-4.1522115E-001	1.1187043E+001	2.1270933E+000	2.032000678738259E+002	4.4954973E-001	1.9171398E-002	-2.4402337E+000	-3.3617062E-003	1.000000000000000E+000	10	1.0096018E-002	9.0247422E-004	0	3.790493607066391E-005	8.9327529E-002	-3.3177894E-003	8.9389123E-002	-2.1270933E+000	-3.3617015E+000	9.0509933E+001	9.0572342E+001	-9.2127090E+001	0.0000000E+000	0.0000000E+000	0.0000000E+000	9.2127090E+001	0.0000000E+000	0.0000000E+000	0.0000000E+000	-9.2127090E+001	0.0000000E+000	0.0000000E+000	0.0000000E+000	2.1270933E+000	0.0000000E+000	0.0000000E+000	0.0000000E+000	-2.1270933E+000	2.6923807E+001	8.7872910E+001	2.717392326953512E-006
1.0678630E+005	1.0946138E+001	-1.2814030E-001	1.0946888E+001	6.7069894E-001	2.036220714139199E+002	4.4953984E-001	1.9326154E-002	-1.1631049E+001	-1.5937090E-003	1.000000000000000E+000	10	1.0821484E-002	9.8854431E-004	0	3.856994002680424E-005	9.1343902E-002	-1.0693119E-003	9.1350161E-002	-6.7069894E-001	-1.5937116E+000	1.3613951E+002	1.3614883E+002	-9.0670700E+001	0.0000000E+000	0.0000000E+000	0.0000000E+000	9.0670700E+001	0.0000000E+000	0.0000000E+000	0.0000000E+000	-9.0670700E+001	0.0000000E+000	0.0000000E+000	0.0000000E+000	6.7069894E-001	0.0000000E+000	0.0000000E+000	0.0000000E+000	-6.7069894E-001	8.5423073E+001	8.9329300E+001	6.650039561403279E-007
7.2595008E+004	1.0901484E+001	9.0358295E-003	1.0901487E+001	-4.7490306E-002	2.040440869539307E+002	4.4955122E-001	1.9734483E-002	2.4263049E+002	1.6669014E-004	1.000000000000000E+000	10	1.0722126E-002	9.8354707E-004	0	4.035184917224817E-005	9.1730572E-002	7.6032018E-005	9.1730602E-002	4.7490306E-002	1.6669951E-001	2.0110712E+002	2.0110719E+002	-8.9952507E+001	0.0000000E+000	0.0000000E+000	0.0000000E+000	8.9952507E+001	0.0000000E+000	0.0000000E+000	0.0000000E+000	-8.9952507E+001	0.0000000E+000	0.0000000E+000	0.0000000E+000	-4.7490306E-002	0.0000000E+000	0.0000000E+000	0.0000000E+000	4.7490306E-002	1.2064729E+003	8.9952507E+001	1.781909145443934E-006
4.9352359E+004	1.0901144E+001	6.7374229E-002	1.0901352E+001	-3.5411051E-001	2.044670885473752E+002	4.4955254E-001	1.9190043E-002	4.7865036E+001	1.8282909E-003	1.000000000000000E+000	10	1.0623116E-002	9.7447698E-004	0	4.081188543991367E-005	9.1729991E-002	5.6693470E-004	9.1731742E-002	3.5411051E-001	1.8282918E+000	2.9581729E+002	2.9582294E+002	-8.9645889E+001	0.0000000E+000	0.0000000E+000	0.0000000E+000	8.9645889E+001	0.0000000E+000	0.0000000E+000	0.0000000E+000	-8.9645889E+001	0.0000000E+000	0.0000000E+000	0.0000000E+000	-3.5411051E-001	0.0000000E+000	0.0000000E+000	0.0000000E+000	3.5411051E-001	1.6179991E+002	8.9645889E+001	4.600362676654987E-007
3.3551066E+004	1.0912038E+001	1.0963649E-001	1.0912589E+001	-5.7564837E-001	2.048900702474784E+002	4.4955450E-001	1.9633800E-002	4.3267189E+001	4.3673031E-003	1.000000000000000E+000	10	1.0488958E-002	9.6117961E-004	0	4.159300729732624E-005	9.1632657E-002	9.2066056E-004	9.1637284E-002	5.7564837E-001	4.3672814E+000	4.3467444E+002	4.3469638E+002	-8.9424355E+001	0.0000000E+000	0.0000000E+000	0.0000000E+000	8.9424355E+001	0.0000000E+000	0.0000000E+000	0.0000000E+000	-8.9424355E+001	0.0000000E+000	0.0000000E+000	0.0000000E+000	-5.7564837E-001	0.0000000E+000	0.0000000E+000	0.0000000E+000	5.7564837E-001	9.9529251E+001	8.9424355E+001	7.811218574125728E-007
2.2806563E+004	1.0936892E+001	1.3770749E-001	1.0937758E+001	-7.2137874E-001	2.053120921075024E+002	4.4955146E-001	1.9523792E-002	5.0676048E+001	8.0326935E-003	1.000000000000000E+000	10	1.0459219E-002	9.5624884E-004	0	4.400953969484868E-005	9.1419160E-002	1.1510678E-003	9.1426410E-002	7.2137874E-001	8.0327311E+000	6.3796594E+002	6.3801654E+002	-8.9278618E+001	0.0000000E+000	0.0000000E+000	0.0000000E+000	8.9278618E+001	0.0000000E+000	0.0000000E+000	0.0000000E+000	-8.9278618E+001	0.0000000E+000	0.0000000E+000	0.0000000E+000	-7.2137874E-001	0.0000000E+000	0.0000000E+000	0.0000000E+000	7.2137874E-001	7.9421181E+001	8.9278618E+001	2.416532397522436E-006
1.5504379E+004	1.0969352E+001	1.6646075E-001	1.0970614E+001	-8.6940110E-001	2.057340803942207E+002	4.4954631E-001	1.8746288E-002	6.1667152E+001	1.4197625E-002	1.000000000000000E+000	10	1.0295400E-002	9.3845249E-004	0	4.717783809740407E-005	9.1142111E-002	1.3830884E-003	9.1152601E-002	8.6940110E-001	1.4197607E+001	9.3558832E+002	9.3569604E+002	-8.9130600E+001	0.0000000E+000	0.0000000E+000	0.0000000E+000	8.9130600E+001	0.0000000E+000	0.0000000E+000	0.0000000E+000	-8.9130600E+001	0.0000000E+000	0.0000000E+000	0.0000000E+000	-8.6940110E-001	0.0000000E+000	0.0000000E+000	0.0000000E+000	8.6940110E-001	6.5897530E+001	8.9130600E+001	3.168298402555392E-006
1.0540381E+004	1.0998779E+001	1.9161691E-001	1.1000448E+001	-9.9808615E-001	2.061560776675615E+002	4.4954610E-001	1.8887993E-002	7.8800690E+001	2.3909854E-002	1.000000000000000E+000	10	1.0245919E-002	9.3140925E-004	0	4.876312576984573E-005	9.0891592E-002	1.5834817E-003	9.0905383E-002	9.9808615E-001	2.3909824E+001	1.3724216E+003	1.3726299E+003	-8.9001915E+001	0.0000000E+000	0.0000000E+000	0.0000000E+000	8.9001915E+001	0.0000000E+000	0.0000000E+000	0.0000000E+000	-8.9001915E+001	0.0000000E+000	0.0000000E+000	0.0000000E+000	-9.9808615E-001	0.0000000E+000	0.0000000E+000	0.0000000E+000	9.9808615E-001	5.7399837E+001	8.9001915E+001	1.585287672441660E-006
7.1637817E+003	1.1022711E+001	2.3622082E-001	1.1025242E+001	-1.2276821E+000	2.066806765191868E+002	4.4953495E-001	1.6851936E-002	9.4050179E+001	4.3173745E-002	1.000000000000000E+000	10	1.0162681E-002	9.2176493E-004	0	5.133295974535092E-005	9.0680145E-002	1.9433094E-003	9.0700962E-002	1.2276821E+000	4.3173813E+001	2.0146053E+003	2.0150679E+003	-8.8772316E+001	0.0000000E+000	0.0000000E+000	0.0000000E+000	8.8772316E+001	0.0000000E+000	0.0000000E+000	0.0000000E+000	-8.8772316E+001	0.0000000E+000	0.0000000E+000	0.0000000E+000	-1.2276821E+000	0.0000000E+000	0.0000000E+000	0.0000000E+000	1.2276821E+000	4.6662739E+001	8.8772316E+001	2.569833975505186E-006
4.8715591E+003	1.1046713E+001	3.0073538E-001	1.1050806E+001	-1.5594333E+000	2.071482730214339E+002	4.4955668E-001	1.9154616E-002	1.0863446E+002	8.0454208E-002	1.000000000000000E+000	10	1.0751899E-002	9.7295159E-004	0	5.399700920458418E-005	9.0457626E-002	2.4626155E-003	9.0491138E-002	1.5594333E+000	8.0454185E+001	2.9552710E+003	2.9563660E+003	-8.8440567E+001	0.0000000E+000	0.0000000E+000	0.0000000E+000	8.8440567E+001	0.0000000E+000	0.0000000E+000	0.0000000E+000	-8.8440567E+001	0.0000000E+000	0.0000000E+000	0.0000000E+000	-1.5594333E+000	0.0000000E+000	0.0000000E+000	0.0000000E+000	1.5594333E+000	3.6732334E+001	8.8440567E+001	2.664049459233259E-006
3.3110596E+003	1.1083984E+001	3.9636496E-001	1.1091069E+001	-2.0480330E+000	2.078353046540651E+002	4.4956011E-001	1.9249709E-002	1.2127126E+002	1.5488222E-001	1.000000000000000E+000	10	1.0104548E-002	9.1105263E-004	0	5.767438408350811E-005	9.0105042E-002	3.2221698E-003	9.0162635E-002	2.0480330E+000	1.5488234E+002	4.3311396E+003	4.3339082E+003	-8.7951965E+001	0.0000000E+000	0.0000000E+000	0.0000000E+000	8.7951965E+001	0.0000000E+000	0.0000000E+000	0.0000000E+000	-8.7951965E+001	0.0000000E+000	0.0000000E+000	0.0000000E+000	-2.0480330E+000	0.0000000E+000	0.0000000E+000	0.0000000E+000	2.0480330E+000	2.7964088E+001	8.7951965E+001	3.677374878923929E-006
2.2507205E+003	1.1117138E+001	5.3828412E-001	1.1130162E+001	-2.7720571E+000	2.083002682761507E+002	4.4954929E-001	1.9007321E-002	1.3136722E+002	3.0726081E-001	1.000000000000000E+000	10	1.0237986E-002	9.1984158E-004	0	5.986506582786226E-005	8.9740813E-002	4.3451879E-003	8.9845948E-002	2.7720571E+000	3.0726074E+002	6.3458325E+003	6.3532666E+003	-8.7227943E+001	0.0000000E+000	0.0000000E+000	0.0000000E+000	8.7227943E+001	0.0000000E+000	0.0000000E+000	0.0000000E+000	-8.7227943E+001	0.0000000E+000	0.0000000E+000	0.0000000E+000	-2.7720571E+000	0.0000000E+000	0.0000000E+000	0.0000000E+000	2.7720571E+000	2.0652918E+001	8.7227943E+001	2.190681744354150E-006
1.5304901E+003	1.1166558E+001	7.1142423E-001	1.1189198E+001	-3.6454017E+000	2.087652672582335E+002	4.4955200E-001	1.9100547E-002	1.4617091E+002	5.9090871E-001	1.000000000000000E+000	10	1.0302644E-002	9.2076702E-004	0	6.165906099590292E-005	8.9191079E-002	5.6823865E-003	8.9371912E-002	3.6454017E+000	5.9090857E+002	9.2749385E+003	9.2937432E+003	-8.6354599E+001	0.0000000E+000	0.0000000E+000	0.0000000E+000	8.6354599E+001	0.0000000E+000	0.0000000E+000	0.0000000E+000	-8.6354599E+001	0.0000000E+000	0.0000000E+000	0.0000000E+000	-3.6454017E+000	0.0000000E+000	0.0000000E+000	0.0000000E+000	3.6454017E+000	1.5696061E+001	8.6354599E+001	1.793995168040667E-006
1.0403328E+003	1.1216623E+001	9.8316300E-001	1.1259629E+001	-5.0093050E+000	2.092302894936511E+002	4.4956240E-001	1.9285133E-002	1.5560457E+002	1.1863837E+000	1.000000000000000E+000	10	1.0328989E-002	9.1734715E-004	0	6.424229667304381E-005	8.8473655E-002	7.7549205E-003	8.8812873E-002	5.0093050E+000	1.1863844E+003	1.3535110E+004	1.3587006E+004	-8.4990692E+001	0.0000000E+000	0.0000000E+000	0.0000000E+000	8.4990692E+001	0.0000000E+000	0.0000000E+000	0.0000000E+000	-8.4990692E+001	0.0000000E+000	0.0000000E+000	0.0000000E+000	-5.0093050E+000	0.0000000E+000	0.0000000E+000	0.0000000E+000	5.0093050E+000	1.1408711E+001	8.4990692E+001	2.583235677140888E-006
7.0703625E+002	1.1283386E+001	1.3621489E+000	1.1365310E+001	-6.8835297E+000	2.096947674623370E+002	4.4955710E-001	1.8705267E-002	1.6525471E+002	2.3737800E+000	1.000000000000000E+000	10	1.0341362E-002	9.0990588E-004	0	6.620877014850783E-005	8.7352820E-002	1.0545375E-002	8.7987043E-002	6.8835297E+000	2.3737803E+003	1.9663254E+004	1.9806020E+004	-8.3116470E+001	0.0000000E+000	0.0000000E+000	0.0000000E+000	8.3116470E+001	0.0000000E+000	0.0000000E+000	0.0000000E+000	-8.3116470E+001	0.0000000E+000	0.0000000E+000	0.0000000E+000	-6.8835297E+000	0.0000000E+000	0.0000000E+000	0.0000000E+000	6.8835297E+000	8.2835188E+000	8.3116470E+001	1.966473475464023E-006
4.8076920E+002	1.1358564E+001	1.9246492E+000	1.1520472E+001	-9.6171236E+000	2.101600435911241E+002	4.4955018E-001	1.8302532E-002	1.7200136E+002	4.8005896E+000	1.000000000000000E+000	10	1.0348092E-002	8.9823513E-004	0	6.835952635674686E-005	8.5582100E-002	1.4501439E-002	8.6802006E-002	9.6171236E+000	4.8005913E+003	2.8331297E+004	2.8735137E+004	-8.0382874E+001	0.0000000E+000	0.0000000E+000	0.0000000E+000	8.0382874E+001	0.0000000E+000	0.0000000E+000	0.0000000E+000	-8.0382874E+001	0.0000000E+000	0.0000000E+000	0.0000000E+000	-9.6171236E+000	0.0000000E+000	0.0000000E+000	0.0000000E+000	9.6171236E+000	5.9016285E+000	8.0382874E+001	2.150756208239024E-006
3.2677771E+002	1.1450791E+001	2.6944761E+000	1.1763538E+001	-1.3241336E+001	2.106232602798191E+002	4.4955763E-001	1.8779850E-002	1.8075627E+002	9.4834452E+000	1.000000000000000E+000	10	1.0351896E-002	8.7999849E-004	0	7.019264033690302E-005	8.2748391E-002	1.9471454E-002	8.5008435E-002	1.3241336E+001	9.4834414E+003	4.0302063E+004	4.1402801E+004	-7.6758667E+001	0.0000000E+000	0.0000000E+000	0.0000000E+000	7.6758667E+001	0.0000000E+000	0.0000000E+000	0.0000000E+000	-7.6758667E+001	0.0000000E+000	0.0000000E+000	0.0000000E+000	-1.3241336E+001	0.0000000E+000	0.0000000E+000	0.0000000E+000	1.3241336E+001	4.2497282E+000	7.6758667E+001	1.833113980156159E-006
2.2206076E+002	1.1555949E+001	3.8221571E+000	1.2171641E+001	-1.8301754E+001	2.110845152350521E+002	4.4955164E-001	1.8395755E-002	1.8751662E+002	1.8490921E+001	1.000000000000000E+000	10	1.0352325E-002	8.5052825E-004	0	7.331191777648766E-005	7.8002281E-002	2.5799438E-002	8.2158186E-002	1.8301754E+001	1.8490926E+004	5.5905645E+004	5.8884254E+004	-7.1698242E+001	0.0000000E+000	0.0000000E+000	0.0000000E+000	7.1698242E+001	0.0000000E+000	0.0000000E+000	0.0000000E+000	-7.1698242E+001	0.0000000E+000	0.0000000E+000	0.0000000E+000	-1.8301754E+001	0.0000000E+000	0.0000000E+000	0.0000000E+000	1.8301754E+001	3.0234103E+000	7.1698242E+001	3.119277439584647E-006
1.5101485E+002	1.1683517E+001	5.4664660E+000	1.2899102E+001	-2.5073881E+001	2.115469843236642E+002	4.4955215E-001	1.8455420E-002	1.9279414E+002	3.4624870E+001	1.000000000000000E+000	10	1.0342305E-002	8.0178486E-004	0	7.523458585210675E-005	7.0219003E-002	3.2853957E-002	7.7524774E-002	2.5073881E+001	3.4624875E+004	7.4003984E+004	8.1703563E+004	-6.4926117E+001	0.0000000E+000	0.0000000E+000	0.0000000E+000	6.4926117E+001	0.0000000E+000	0.0000000E+000	0.0000000E+000	-6.4926117E+001	0.0000000E+000	0.0000000E+000	0.0000000E+000	-2.5073881E+001	0.0000000E+000	0.0000000E+000	0.0000000E+000	2.5073881E+001	2.1373072E+000	6.4926117E+001	1.922668075619090E-006
1.0266736E+002	1.1858908E+001	7.8735433E+000	1.4234689E+001	-3.3581573E+001	2.120218717328535E+002	4.4956025E-001	1.8632542E-002	1.9688721E+002	6.0236813E+001	1.000000000000000E+000	10	1.0348938E-002	7.2702247E-004	0	7.691669374316310E-005	5.8525983E-002	3.8857445E-002	7.0250921E-002	3.3581573E+001	6.0236813E+004	9.0726977E+004	1.0890298E+005	-5.6418427E+001	0.0000000E+000	0.0000000E+000	0.0000000E+000	5.6418427E+001	0.0000000E+000	0.0000000E+000	0.0000000E+000	-5.6418427E+001	0.0000000E+000	0.0000000E+000	0.0000000E+000	-3.3581573E+001	0.0000000E+000	0.0000000E+000	0.0000000E+000	3.3581573E+001	1.5061717E+000	5.6418427E+001	1.682107891056347E-006
6.9754463E+001	1.2078127E+001	1.1359543E+001	1.6580723E+001	-4.3243896E+001	2.124890370617068E+002	4.4956508E-001	1.8382696E-002	2.0085715E+002	9.4276199E+001	1.000000000000000E+000	10	1.0340382E-002	6.2363880E-004	0	7.880155511094360E-005	4.3933183E-002	4.1319393E-002	6.0311001E-002	4.3243896E+001	9.4276195E+004	1.0023995E+005	1.3760831E+005	-4.6756104E+001	0.0000000E+000	0.0000000E+000	0.0000000E+000	4.6756104E+001	0.0000000E+000	0.0000000E+000	0.0000000E+000	-4.6756104E+001	0.0000000E+000	0.0000000E+000	0.0000000E+000	-4.3243896E+001	0.0000000E+000	0.0000000E+000	0.0000000E+000	4.3243896E+001	1.0632582E+000	4.6756104E+001	1.884861367780499E-006
4.7444328E+001	1.2391862E+001	1.6406260E+001	2.0560244E+001	-5.2935772E+001	2.131770570944209E+002	4.4955245E-001	8.4789761E-004	2.0446843E+002	1.3019337E+002	1.000000000000000E+000	11	1.0365318E-002	5.0414371E-004	0	8.017978344777819E-005	2.9314337E-002	3.8810845E-002	4.8637558E-002	5.2935772E+001	1.3019338E+005	9.8336766E+004	1.6315770E+005	-3.7064228E+001	0.0000000E+000	0.0000000E+000	0.0000000E+000	3.7064228E+001	0.0000000E+000	0.0000000E+000	0.0000000E+000	-3.7064228E+001	0.0000000E+000	0.0000000E+000	0.0000000E+000	-5.2935772E+001	0.0000000E+000	0.0000000E+000	0.0000000E+000	5.2935772E+001	7.5531304E-001	3.7064224E+001	1.378228336834588E-006
3.2238655E+001	1.2845238E+001	2.3762667E+001	2.7012302E+001	-6.1605949E+001	2.136144319152227E+002	4.4954857E-001	7.2161399E-004	2.0775336E+002	1.6077376E+002	1.000000000000000E+000	11	1.0351666E-002	3.8322044E-004	0	8.003990404138645E-005	1.7604306E-002	3.2566566E-002	3.7020169E-002	6.1605949E+001	1.6077378E+005	8.6908484E+004	1.8276020E+005	-2.8394051E+001	0.0000000E+000	0.0000000E+000	0.0000000E+000	2.8394051E+001	0.0000000E+000	0.0000000E+000	0.0000000E+000	-2.8394051E+001	0.0000000E+000	0.0000000E+000	0.0000000E+000	-6.1605949E+001	0.0000000E+000	0.0000000E+000	0.0000000E+000	6.1605949E+001	5.4056382E-001	2.8394043E+001	-1.398794063917351E-007
