EC-Lab ASCII FILE
Nb header lines : 63                          

Potentio Electrochemical Impedance Spectroscopy

Run on channel : 1 (SN 69187)
User : 
CE vs. WE compliance from -10 V to 10 V
Electrode connection : standard
Potential control : Ewe
Ewe ctrl range : min = -1.00 V, max = 1.00 V
Safety Limits :
	Do not start on E overload
Acquisition started on : 11/12/2025 19:47:23.448
Loaded Setting File :  C:\Users\User\Documents\EC-Lab\Data\Yatsuzuka\20251030_2-147_gamma_reproducibility\20251030_2-147_001_gamma1_K_1.mps
Saved on :
	File : 20251112_2-148_005_gamma_reproducibility_Na1_02_PEIS_C01.mpr
	Directory : C:\Users\User\Documents\EC-Lab\Data\Yatsuzuka\20251112_2-148_alpha_reproducibility\
	Host : 192.109.209.127
Device : SP-150e (SN .003883)
Address : 192.109.209.128
EC-Lab for windows v11.52 (software)
Internet server v11.52 (firmware)
Command interpretor v11.50 (firmware)
Electrode material : 
Initial state : 
Electrolyte : 
Comments : 
Electrode surface area : 0.001 cm2
Characteristic mass : 0.001 g
Equivalent Weight : 0.000 g/eq.
Density : 0.000 g/cm3
Volume (V) : 0.001 cm3
Cycle Definition : Charge/Discharge alternance
Mode                Single sine         
E (V)               0.4500              
vs.                 Ref                 
tE (h:m:s)          0:00:0.0000         
record              0                   
dI                  0.000               
unit dI             mA                  
dt (s)              0.000               
fi                  500.000             
unit fi             kHz                 
ff                  1.000               
unit ff             Hz                  
Nd                  6                   
Points              per decade          
spacing             Logarithmic         
Va (mV)             10.0                
pw                  0.10                
Na                  2                   
corr                0                   
E range min (V)     -1.000              
E range max (V)     1.000               
I Range             Auto                
Bandwidth           5                   
nc cycles           0                   
goto Ns'            0                   
nr cycles           0                   
inc. cycle          0                   

freq/Hz	Re(Z)/Ohm	-Im(Z)/Ohm	|Z|/Ohm	Phase(Z)/deg	time/s	<Ewe>/V	<I>/mA	Cs/uF	Cp/uF	cycle number	I Range	|Ewe|/V	|I|/A	Ns	(Q-Qo)/mA.h	Re(Y)/Ohm-1	Im(Y)/Ohm-1	|Y|/Ohm-1	Phase(Y)/deg	Re(C)/nF	Im(C)/nF	|C|/nF	Phase(C)/deg	Re(M)	Im(M)	|M|	Phase(M)/deg	Re(Permittivity)	Im(Permittivity)	|Permittivity|	Phase(Permittivity)/deg	Re(Resistivity)/Ohm.cm	Im(Resistivity)/Ohm.cm	|Resistivity|/Ohm.cm	Phase(Resistivity)/deg	Re(Conductivity)/mS/cm	Im(Conductivity)/mS/cm	|Conductivity|/mS/cm	Phase(Conductivity)/deg	Tan(Delta)	Loss Angle(Delta)/deg	dq/mA.h	
5.0001856E+005	2.2553209E+001	-1.0412883E+000	2.2577234E+001	2.6434855E+000	2.022588876435912E+002	4.5010832E-001	9.0614017E-003	-3.0567718E-001	-6.5022474E-004	1.000000000000000E+000	10	6.9055581E-003	3.0586377E-004	0	1.713853297679614E-005	4.4245273E-002	-2.0428172E-003	4.4292405E-002	-2.6434855E+000	-6.5022486E-001	1.4083185E+001	1.4098187E+001	-9.2643486E+001	0.0000000E+000	0.0000000E+000	0.0000000E+000	9.2643486E+001	0.0000000E+000	0.0000000E+000	0.0000000E+000	-9.2643486E+001	0.0000000E+000	0.0000000E+000	0.0000000E+000	2.6434855E+000	0.0000000E+000	0.0000000E+000	0.0000000E+000	-2.6434855E+000	2.1658949E+001	8.7356514E+001	1.713853297679614E-005
3.3989941E+005	1.6632957E+001	-1.1076739E+000	1.6669800E+001	3.8099940E+000	2.026808691036567E+002	4.4994760E-001	1.0436634E-002	-4.2272487E-001	-1.8664694E-003	1.000000000000000E+000	10	9.9675860E-003	5.9794274E-004	0	1.859332598147093E-005	5.9856139E-002	-3.9861272E-003	5.9988722E-002	-3.8099940E+000	-1.8664714E+000	2.8027121E+001	2.8089201E+001	-9.3809998E+001	0.0000000E+000	0.0000000E+000	0.0000000E+000	9.3809998E+001	0.0000000E+000	0.0000000E+000	0.0000000E+000	-9.3809998E+001	0.0000000E+000	0.0000000E+000	0.0000000E+000	3.8099940E+000	0.0000000E+000	0.0000000E+000	0.0000000E+000	-3.8099940E+000	1.5016114E+001	8.6190002E+001	1.454793004674788E-006
2.3106258E+005	1.4297089E+001	-7.8211331E-001	1.4318465E+001	3.1312089E+000	2.031028842436644E+002	4.4977948E-001	1.1375813E-002	-8.8068551E-001	-2.6276484E-003	1.000000000000000E+000	10	1.0773637E-002	7.5242959E-004	0	1.982165899545200E-005	6.9735624E-002	-3.8148437E-003	6.9839887E-002	-3.1312089E+000	-2.6276498E+000	4.8033607E+001	4.8105427E+001	-9.3131210E+001	0.0000000E+000	0.0000000E+000	0.0000000E+000	9.3131210E+001	0.0000000E+000	0.0000000E+000	0.0000000E+000	-9.3131210E+001	0.0000000E+000	0.0000000E+000	0.0000000E+000	3.1312089E+000	0.0000000E+000	0.0000000E+000	0.0000000E+000	-3.1312089E+000	1.8280073E+001	8.6868790E+001	1.228333013981075E-006
1.5707578E+005	1.3329012E+001	-4.2240107E-001	1.3335703E+001	1.8151159E+000	2.036618670969183E+002	4.4974872E-001	1.1593836E-002	-2.3987551E+000	-2.4066009E-003	1.000000000000000E+000	10	1.0104600E-002	7.5771037E-004	0	2.150666359298824E-005	7.4949048E-002	-2.3751617E-003	7.4986674E-002	-1.8151159E+000	-2.4066021E+000	7.5941124E+001	7.5979248E+001	-9.1815117E+001	0.0000000E+000	0.0000000E+000	0.0000000E+000	9.1815117E+001	0.0000000E+000	0.0000000E+000	0.0000000E+000	-9.1815117E+001	0.0000000E+000	0.0000000E+000	0.0000000E+000	1.8151159E+000	0.0000000E+000	0.0000000E+000	0.0000000E+000	-1.8151159E+000	3.1555346E+001	8.8184883E+001	1.685004597536238E-006
1.0678630E+005	1.2977090E+001	-1.6918817E-001	1.2978192E+001	7.4694866E-001	2.040838809569395E+002	4.4975227E-001	1.1297554E-002	-8.8091621E+000	-1.4970842E-003	1.000000000000000E+000	10	1.0803841E-002	8.3246117E-004	0	2.127474793159248E-005	7.7045783E-002	-1.0044808E-003	7.7052332E-002	-7.4694866E-001	-1.4970833E+000	1.1482951E+002	1.1483926E+002	-9.0746948E+001	0.0000000E+000	0.0000000E+000	0.0000000E+000	9.0746948E+001	0.0000000E+000	0.0000000E+000	0.0000000E+000	-9.0746948E+001	0.0000000E+000	0.0000000E+000	0.0000000E+000	7.4694866E-001	0.0000000E+000	0.0000000E+000	0.0000000E+000	-7.4694866E-001	7.6702110E+001	8.9253052E+001	-2.319156613957611E-007
7.2595008E+004	1.2872264E+001	-3.5300344E-002	1.2872313E+001	1.5712509E-001	2.045058732970065E+002	4.4974536E-001	1.1526757E-002	-6.2106129E+001	-4.6706700E-004	1.000000000000000E+000	10	1.0739601E-002	8.3431794E-004	0	2.279598853727415E-005	7.7685826E-002	-2.1304227E-004	7.7686116E-002	-1.5712509E-001	-4.6707383E-001	1.7031590E+002	1.7031654E+002	-9.0157127E+001	0.0000000E+000	0.0000000E+000	0.0000000E+000	9.0157127E+001	0.0000000E+000	0.0000000E+000	0.0000000E+000	-9.0157127E+001	0.0000000E+000	0.0000000E+000	0.0000000E+000	1.5712509E-001	0.0000000E+000	0.0000000E+000	0.0000000E+000	-1.5712509E-001	3.6464981E+002	8.9842873E+001	1.521240605681671E-006
4.9352359E+004	1.2826077E+001	1.9743068E-002	1.2826093E+001	-8.8194817E-002	2.049278757170105E+002	4.4974238E-001	1.1211834E-002	1.6334189E+002	3.8702416E-004	1.000000000000000E+000	10	1.0605169E-002	8.2684326E-004	0	2.433926318459109E-005	7.7965975E-002	1.2001233E-004	7.7966064E-002	8.8194817E-002	3.8702852E-001	2.5143013E+002	2.5143044E+002	-8.9911804E+001	0.0000000E+000	0.0000000E+000	0.0000000E+000	8.9911804E+001	0.0000000E+000	0.0000000E+000	0.0000000E+000	-8.9911804E+001	0.0000000E+000	0.0000000E+000	0.0000000E+000	-8.8194817E-002	0.0000000E+000	0.0000000E+000	0.0000000E+000	8.8194817E-002	6.4964966E+002	8.9911804E+001	1.543274647316945E-006
3.3551066E+004	1.2798225E+001	6.1181251E-002	1.2798371E+001	-2.7389741E-001	2.053498813637561E+002	4.4974598E-001	1.1291962E-002	7.7534584E+001	1.7718328E-003	1.000000000000000E+000	10	1.0460351E-002	8.1731891E-004	0	2.608674980465892E-005	7.8134045E-002	3.7351574E-004	7.8134939E-002	2.7389741E-001	1.7718189E+000	3.7064157E+002	3.7064581E+002	-8.9726105E+001	0.0000000E+000	0.0000000E+000	0.0000000E+000	8.9726105E+001	0.0000000E+000	0.0000000E+000	0.0000000E+000	-8.9726105E+001	0.0000000E+000	0.0000000E+000	0.0000000E+000	-2.7389741E-001	0.0000000E+000	0.0000000E+000	0.0000000E+000	2.7389741E-001	2.0918541E+002	8.9726105E+001	1.747486620067824E-006
2.2806563E+004	1.2806870E+001	1.1450616E-001	1.2807383E+001	-5.1226759E-001	2.057718806904304E+002	4.4974640E-001	1.2009389E-002	6.0944065E+001	4.8715640E-003	1.000000000000000E+000	10	1.0398108E-002	8.1188389E-004	0	2.807923553533490E-005	7.8076847E-002	6.9808465E-004	7.8079969E-002	5.1226759E-001	4.8715677E+000	5.4485699E+002	5.4487878E+002	-8.9487732E+001	0.0000000E+000	0.0000000E+000	0.0000000E+000	8.9487732E+001	0.0000000E+000	0.0000000E+000	0.0000000E+000	-8.9487732E+001	0.0000000E+000	0.0000000E+000	0.0000000E+000	-5.1226759E-001	0.0000000E+000	0.0000000E+000	0.0000000E+000	5.1226759E-001	1.1184438E+002	8.9487732E+001	1.992485730675981E-006
1.5504379E+004	1.2812725E+001	1.6774285E-001	1.2813823E+001	-7.5006747E-001	2.061938891905156E+002	4.4975355E-001	1.1685149E-002	6.1195820E+001	1.0487027E-002	1.000000000000000E+000	10	1.0338800E-002	8.0684741E-004	0	2.768613266136446E-005	7.8034036E-002	1.0216135E-003	7.8040726E-002	7.5006747E-001	1.0487041E+001	8.0103186E+002	8.0110052E+002	-8.9249931E+001	0.0000000E+000	0.0000000E+000	0.0000000E+000	8.9249931E+001	0.0000000E+000	0.0000000E+000	0.0000000E+000	-8.9249931E+001	0.0000000E+000	0.0000000E+000	0.0000000E+000	-7.5006747E-001	0.0000000E+000	0.0000000E+000	0.0000000E+000	7.5006747E-001	7.6383141E+001	8.9249931E+001	-3.931028739704417E-007
1.0540381E+004	1.2830121E+001	2.2311743E-001	1.2832061E+001	-9.9628043E-001	2.066158822772122E+002	4.4973835E-001	1.1567750E-002	6.7675323E+001	2.0459948E-002	1.000000000000000E+000	10	1.0136156E-002	7.8990869E-004	0	2.935161488170949E-005	7.7918023E-002	1.3550043E-003	7.7929802E-002	9.9628043E-001	2.0459875E+001	1.1765267E+003	1.1767046E+003	-8.9003723E+001	0.0000000E+000	0.0000000E+000	0.0000000E+000	8.9003723E+001	0.0000000E+000	0.0000000E+000	0.0000000E+000	-8.9003723E+001	0.0000000E+000	0.0000000E+000	0.0000000E+000	-9.9628043E-001	0.0000000E+000	0.0000000E+000	0.0000000E+000	9.9628043E-001	5.7503895E+001	8.9003723E+001	1.665482220345034E-006
7.1637817E+003	1.2851218E+001	3.2623187E-001	1.2855358E+001	-1.4541575E+000	2.071394900887535E+002	4.4973460E-001	9.9297799E-003	6.8100677E+001	4.3856688E-002	1.000000000000000E+000	10	1.0097067E-002	7.8543642E-004	0	3.120828252751057E-005	7.7763528E-002	1.9740493E-003	7.7788576E-002	1.4541575E+000	4.3856606E+001	1.7276418E+003	1.7281984E+003	-8.8545845E+001	0.0000000E+000	0.0000000E+000	0.0000000E+000	8.8545845E+001	0.0000000E+000	0.0000000E+000	0.0000000E+000	-8.8545845E+001	0.0000000E+000	0.0000000E+000	0.0000000E+000	-1.4541575E+000	0.0000000E+000	0.0000000E+000	0.0000000E+000	1.4541575E+000	3.9392895E+001	8.8545845E+001	1.856667645801075E-006
4.8715591E+003	1.2861382E+001	4.3547305E-001	1.2868752E+001	-1.9392347E+000	2.076070876309968E+002	4.4976041E-001	1.1966530E-002	7.5022385E+001	8.5909374E-002	1.000000000000000E+000	10	1.0528057E-002	8.1811013E-004	0	3.252055788422715E-005	7.7663109E-002	2.6295921E-003	7.7707611E-002	1.9392347E+000	8.5909248E+001	2.5372712E+003	2.5387253E+003	-8.8060768E+001	0.0000000E+000	0.0000000E+000	0.0000000E+000	8.8060768E+001	0.0000000E+000	0.0000000E+000	0.0000000E+000	-8.8060768E+001	0.0000000E+000	0.0000000E+000	0.0000000E+000	-1.9392347E+000	0.0000000E+000	0.0000000E+000	0.0000000E+000	1.9392347E+000	2.9534279E+001	8.8060768E+001	1.312275356716585E-006
3.3110596E+003	1.2904124E+001	6.1494619E-001	1.2918769E+001	-2.7283669E+000	2.080720847730845E+002	4.4976264E-001	1.2359717E-002	7.8165665E+001	1.7711201E-001	1.000000000000000E+000	10	1.0762951E-002	8.3312514E-004	0	3.330364837979950E-005	7.7319011E-002	3.6846383E-003	7.7406757E-002	2.7283669E+000	1.7711176E+002	3.7165452E+003	3.7207629E+003	-8.7271637E+001	0.0000000E+000	0.0000000E+000	0.0000000E+000	8.7271637E+001	0.0000000E+000	0.0000000E+000	0.0000000E+000	-8.7271637E+001	0.0000000E+000	0.0000000E+000	0.0000000E+000	-2.7283669E+000	0.0000000E+000	0.0000000E+000	0.0000000E+000	2.7283669E+000	2.0984152E+001	8.7271637E+001	7.830904955723487E-007
2.2507205E+003	1.2938740E+001	8.7154758E-001	1.2968060E+001	-3.8535962E+000	2.085370759685029E+002	4.4975826E-001	1.1791365E-002	8.1134857E+001	3.6647102E-001	1.000000000000000E+000	10	1.0875972E-002	8.3867373E-004	0	3.535702292348206E-005	7.6938182E-002	5.1825210E-003	7.7112533E-002	3.8535962E+000	3.6647134E+002	5.4405215E+003	5.4528501E+003	-8.6146400E+001	0.0000000E+000	0.0000000E+000	0.0000000E+000	8.6146400E+001	0.0000000E+000	0.0000000E+000	0.0000000E+000	-8.6146400E+001	0.0000000E+000	0.0000000E+000	0.0000000E+000	-3.8535962E+000	0.0000000E+000	0.0000000E+000	0.0000000E+000	3.8535962E+000	1.4845707E+001	8.6146400E+001	2.053374543682563E-006
1.5304901E+003	1.2973650E+001	1.2554721E+000	1.3034255E+001	-5.5273547E+000	2.090020690039237E+002	4.4976610E-001	1.2279590E-002	8.2829025E+001	7.6846528E-001	1.000000000000000E+000	10	1.0915280E-002	8.3743030E-004	0	3.755033565419338E-005	7.6364189E-002	7.3898332E-003	7.6720916E-002	5.5273547E+000	7.6846484E+002	7.9410762E+003	7.9781719E+003	-8.4472649E+001	0.0000000E+000	0.0000000E+000	0.0000000E+000	8.4472649E+001	0.0000000E+000	0.0000000E+000	0.0000000E+000	-8.4472649E+001	0.0000000E+000	0.0000000E+000	0.0000000E+000	-5.5273547E+000	0.0000000E+000	0.0000000E+000	0.0000000E+000	5.5273547E+000	1.0333683E+001	8.4472649E+001	2.193312730711320E-006
1.0403328E+003	1.3031109E+001	1.7646967E+000	1.3150055E+001	-7.7121835E+000	2.094670978260110E+002	4.4975987E-001	1.1944169E-002	8.6691750E+001	1.5612153E+000	1.000000000000000E+000	10	1.0939938E-002	8.3193096E-004	0	3.851288360763324E-005	7.5357459E-002	1.0205045E-002	7.6045312E-002	7.7121835E+000	1.5612147E+003	1.1528533E+004	1.1633765E+004	-8.2287819E+001	0.0000000E+000	0.0000000E+000	0.0000000E+000	8.2287819E+001	0.0000000E+000	0.0000000E+000	0.0000000E+000	-8.2287819E+001	0.0000000E+000	0.0000000E+000	0.0000000E+000	-7.7121835E+000	0.0000000E+000	0.0000000E+000	0.0000000E+000	7.7121835E+000	7.3843331E+000	8.2287819E+001	9.625479534398535E-007
7.0703625E+002	1.3108691E+001	2.5368767E+000	1.3351911E+001	-1.0952844E+001	2.099325595814298E+002	4.4975904E-001	1.1854723E-002	8.8731758E+001	3.2032509E+000	1.000000000000000E+000	10	1.0949398E-002	8.2006230E-004	0	4.050153112996162E-005	7.3531345E-002	1.4230249E-002	7.4895650E-002	1.0952844E+001	3.2032507E+003	1.6552018E+004	1.6859125E+004	-7.9047157E+001	0.0000000E+000	0.0000000E+000	0.0000000E+000	7.9047157E+001	0.0000000E+000	0.0000000E+000	0.0000000E+000	-7.9047157E+001	0.0000000E+000	0.0000000E+000	0.0000000E+000	-1.0952844E+001	0.0000000E+000	0.0000000E+000	0.0000000E+000	1.0952844E+001	5.1672559E+000	7.9047157E+001	1.988647522328388E-006
4.8076920E+002	1.3217800E+001	3.5929224E+000	1.3697421E+001	-1.5206965E+001	2.103978294701810E+002	4.4976217E-001	1.1642287E-002	9.2137337E+001	6.3394814E+000	1.000000000000000E+000	10	1.0955661E-002	7.9983380E-004	0	4.228331182098999E-005	7.0450097E-002	1.9150063E-002	7.3006444E-002	1.5206965E+001	6.3394800E+003	2.3321961E+004	2.4168221E+004	-7.4793037E+001	0.0000000E+000	0.0000000E+000	0.0000000E+000	7.4793037E+001	0.0000000E+000	0.0000000E+000	0.0000000E+000	-7.4793037E+001	0.0000000E+000	0.0000000E+000	0.0000000E+000	-1.5206965E+001	0.0000000E+000	0.0000000E+000	0.0000000E+000	1.5206965E+001	3.6788437E+000	7.4793037E+001	1.781780691028366E-006
3.2677771E+002	1.3347957E+001	5.1421776E+000	1.4304193E+001	-2.1068722E+001	2.108610527188866E+002	4.4975299E-001	1.1478302E-002	9.4715408E+001	1.2240187E+001	1.000000000000000E+000	10	1.0948613E-002	7.6541281E-004	0	4.417779945836325E-005	6.5236107E-002	2.5131611E-002	6.9909565E-002	2.1068722E+001	1.2240188E+004	3.1772816E+004	3.4048996E+004	-6.8931274E+001	0.0000000E+000	0.0000000E+000	0.0000000E+000	6.8931274E+001	0.0000000E+000	0.0000000E+000	0.0000000E+000	-6.8931274E+001	0.0000000E+000	0.0000000E+000	0.0000000E+000	-2.1068722E+001	0.0000000E+000	0.0000000E+000	0.0000000E+000	2.1068722E+001	2.5957789E+000	6.8931274E+001	1.894487637373256E-006
2.2206076E+002	1.3498837E+001	7.4310336E+000	1.5409051E+001	-2.8832537E+001	2.113223055941198E+002	4.4975382E-001	1.1815586E-002	9.6449303E+001	2.2430851E+001	1.000000000000000E+000	10	1.0940931E-002	7.1003276E-004	0	4.495272471050784E-005	5.6851845E-002	3.1296622E-002	6.4896926E-002	2.8832537E+001	2.2430850E+004	4.0746742E+004	4.6512793E+004	-6.1167465E+001	0.0000000E+000	0.0000000E+000	0.0000000E+000	6.1167465E+001	0.0000000E+000	0.0000000E+000	0.0000000E+000	-6.1167465E+001	0.0000000E+000	0.0000000E+000	0.0000000E+000	-2.8832537E+001	0.0000000E+000	0.0000000E+000	0.0000000E+000	2.8832537E+001	1.8165489E+000	6.1167465E+001	7.749252521445916E-007
1.5101485E+002	1.3738949E+001	1.0679907E+001	1.7401699E+001	-3.7859539E+001	2.117838104959956E+002	4.4975680E-001	1.1683281E-002	9.8680878E+001	3.7169323E+001	1.000000000000000E+000	10	1.0943719E-002	6.2888797E-004	0	4.666126821743415E-005	4.5370150E-002	3.5268269E-002	5.7465654E-002	3.7859539E+001	3.7169320E+004	4.7815719E+004	6.0563203E+004	-5.2140461E+001	0.0000000E+000	0.0000000E+000	0.0000000E+000	5.2140461E+001	0.0000000E+000	0.0000000E+000	0.0000000E+000	-5.2140461E+001	0.0000000E+000	0.0000000E+000	0.0000000E+000	-3.7859539E+001	0.0000000E+000	0.0000000E+000	0.0000000E+000	3.7859539E+001	1.2864296E+000	5.2140457E+001	1.708543506926312E-006
1.0266736E+002	1.4031585E+001	1.5415334E+001	2.0845093E+001	-4.7690422E+001	2.122587032918964E+002	4.4976613E-001	1.1567743E-002	1.0056221E+002	5.4996239E+001	1.000000000000000E+000	10	1.0937272E-002	5.2469288E-004	0	4.836501162224643E-005	3.2292306E-002	3.5476867E-002	4.7972921E-002	4.7690422E+001	5.4996234E+004	5.0059531E+004	7.4367617E+004	-4.2309578E+001	0.0000000E+000	0.0000000E+000	0.0000000E+000	4.2309578E+001	0.0000000E+000	0.0000000E+000	0.0000000E+000	-4.2309578E+001	0.0000000E+000	0.0000000E+000	0.0000000E+000	-4.7690422E+001	0.0000000E+000	0.0000000E+000	0.0000000E+000	4.7690422E+001	9.1023552E-001	4.2309570E+001	1.703743404812285E-006
6.9754463E+001	1.4459691E+001	2.2379887E+001	2.6644737E+001	-5.7133415E+001	2.129798375127866E+002	4.4975096E-001	4.7090932E-004	1.0195071E+002	7.1925537E+001	1.000000000000000E+000	11	1.0967801E-002	4.1163104E-004	0	4.946597097622321E-005	2.0367423E-002	3.1523541E-002	3.7530862E-002	5.7133415E+001	7.1925539E+004	4.6471238E+004	8.5632117E+004	-3.2866585E+001	0.0000000E+000	0.0000000E+000	0.0000000E+000	3.2866585E+001	0.0000000E+000	0.0000000E+000	0.0000000E+000	-3.2866585E+001	0.0000000E+000	0.0000000E+000	0.0000000E+000	-5.7133415E+001	0.0000000E+000	0.0000000E+000	0.0000000E+000	5.7133415E+001	6.4610207E-001	3.2866577E+001	1.100959353976779E-006
4.7444328E+001	1.5058189E+001	3.2404320E+001	3.5732185E+001	-6.5075851E+001	2.134238268138870E+002	4.4974622E-001	3.4025952E-004	1.0352206E+002	8.5137245E+001	1.000000000000000E+000	11	1.0942422E-002	3.0623435E-004	0	4.920939412731968E-005	1.1793795E-002	2.5379540E-002	2.7985973E-002	6.5075851E+001	8.5137250E+004	3.9563020E+004	9.3880688E+004	-2.4924149E+001	0.0000000E+000	0.0000000E+000	0.0000000E+000	2.4924149E+001	0.0000000E+000	0.0000000E+000	0.0000000E+000	-2.4924149E+001	0.0000000E+000	0.0000000E+000	0.0000000E+000	-6.5075851E+001	0.0000000E+000	0.0000000E+000	0.0000000E+000	6.5075851E+001	4.6469697E-001	2.4924149E+001	-2.565768489035293E-007
3.2238655E+001	1.5862881E+001	4.6979954E+001	4.9585754E+001	-7.1342636E+001	2.138602451013139E+002	4.4975501E-001	2.3458860E-004	1.0508255E+002	9.4328285E+001	1.000000000000000E+000	11	1.0931554E-002	2.2045756E-004	0	4.934332897054588E-005	6.4516119E-003	1.9107275E-002	2.0167083E-002	7.1342636E+001	9.4328289E+004	3.1850146E+004	9.9560320E+004	-1.8657364E+001	0.0000000E+000	0.0000000E+000	0.0000000E+000	1.8657364E+001	0.0000000E+000	0.0000000E+000	0.0000000E+000	-1.8657364E+001	0.0000000E+000	0.0000000E+000	0.0000000E+000	-7.1342636E+001	0.0000000E+000	0.0000000E+000	0.0000000E+000	7.1342636E+001	3.3765212E-001	1.8657364E+001	1.339348432261933E-007
