EC-Lab ASCII FILE
Nb header lines : 63                          

Potentio Electrochemical Impedance Spectroscopy

Run on channel : 1 (SN 69187)
User : 
CE vs. WE compliance from -10 V to 10 V
Electrode connection : standard
Potential control : Ewe
Ewe ctrl range : min = -1.00 V, max = 1.00 V
Safety Limits :
	Do not start on E overload
Acquisition started on : 11/12/2025 15:13:50.824
Loaded Setting File :  C:\Users\User\Documents\EC-Lab\Data\Yatsuzuka\20251030_2-147_gamma_reproducibility\20251030_2-147_001_gamma1_K_1.mps
Saved on :
	File : 20251112_2-148_001_alpha_reproducibility_1_Na2_02_PEIS_C01.mpr
	Directory : C:\Users\User\Documents\EC-Lab\Data\Yatsuzuka\20251112_2-148_alpha_reproducibility\
	Host : 192.109.209.127
Device : SP-150e (SN .003883)
Address : 192.109.209.128
EC-LAB for windows v11.52 (software)
Internet server v11.52 (firmware)
Command interpretor v11.50 (firmware)
Electrode material : 
Initial state : 
Electrolyte : 
Comments : 
Electrode surface area : 0.001 cm2
Characteristic mass : 0.001 g
Equivalent Weight : 0.000 g/eq.
Density : 0.000 g/cm3
Volume (V) : 0.001 cm3
Cycle Definition : Charge/Discharge alternance
Mode                Single sine         
E (V)               0.4500              
vs.                 Ref                 
tE (h:m:s)          0:00:0.0000         
record              0                   
dI                  0.000               
unit dI             mA                  
dt (s)              0.000               
fi                  500.000             
unit fi             kHz                 
ff                  1.000               
unit ff             Hz                  
Nd                  6                   
Points              per decade          
spacing             Logarithmic         
Va (mV)             10.0                
pw                  0.10                
Na                  2                   
corr                0                   
E range min (V)     -1.000              
E range max (V)     1.000               
I Range             Auto                
Bandwidth           5                   
nc cycles           0                   
goto Ns'            0                   
nr cycles           0                   
inc. cycle          0                   

freq/Hz	Re(Z)/Ohm	-Im(Z)/Ohm	|Z|/Ohm	Phase(Z)/deg	time/s	<Ewe>/V	<I>/mA	Cs/uF	Cp/uF	cycle number	I Range	|Ewe|/V	|I|/A	Ns	(Q-Qo)/mA.h	Re(Y)/Ohm-1	Im(Y)/Ohm-1	|Y|/Ohm-1	Phase(Y)/deg	Re(C)/nF	Im(C)/nF	|C|/nF	Phase(C)/deg	Re(M)	Im(M)	|M|	Phase(M)/deg	Re(Permittivity)	Im(Permittivity)	|Permittivity|	Phase(Permittivity)/deg	Re(Resistivity)/Ohm.cm	Im(Resistivity)/Ohm.cm	|Resistivity|/Ohm.cm	Phase(Resistivity)/deg	Re(Conductivity)/mS/cm	Im(Conductivity)/mS/cm	|Conductivity|/mS/cm	Phase(Conductivity)/deg	Tan(Delta)	Loss Angle(Delta)/deg	dq/mA.h	Pwe/W	Rwe/Ohm	
5.0001856E+005	1.7477592E+001	-1.9637381E+000	1.7587566E+001	6.4107223E+000	2.015988772655983E+002	4.5013303E-001	1.0615516E-002	-1.6208784E-001	-2.0207197E-003	1.000000000000000E+000	10	5.8098971E-003	3.3034116E-004	0	2.155884789337870E-005	5.6502815E-002	-6.3485135E-003	5.6858350E-002	-6.4107223E+000	-2.0207193E+000	1.7984739E+001	1.8097904E+001	-9.6410721E+001	0.0000000E+000	0.0000000E+000	0.0000000E+000	9.6410721E+001	0.0000000E+000	0.0000000E+000	0.0000000E+000	-9.6410721E+001	0.0000000E+000	0.0000000E+000	0.0000000E+000	6.4107223E+000	0.0000000E+000	0.0000000E+000	0.0000000E+000	-6.4107223E+000	8.9001646E+000	8.3589279E+001	2.155884789337870E-005	4.7783947E-006	4.2403309E+004
3.3989941E+005	1.2521016E+001	-1.2618935E+000	1.2584443E+001	5.7549534E+000	2.018848880791484E+002	4.5000383E-001	1.2376484E-002	-3.7106246E-001	-3.7309928E-003	1.000000000000000E+000	10	9.5838914E-003	7.6156657E-004	0	2.276448295053706E-005	7.9062685E-002	-7.9680979E-003	7.9463191E-002	-5.7549534E+000	-3.7309914E+000	3.7020412E+001	3.7207947E+001	-9.5754951E+001	0.0000000E+000	0.0000000E+000	0.0000000E+000	9.5754951E+001	0.0000000E+000	0.0000000E+000	0.0000000E+000	-9.5754951E+001	0.0000000E+000	0.0000000E+000	0.0000000E+000	5.7549534E+000	0.0000000E+000	0.0000000E+000	0.0000000E+000	-5.7549534E+000	9.9224033E+000	8.4245049E+001	1.205635057158363E-006	5.5694650E-006	3.6359586E+004
2.3106258E+005	1.0727299E+001	-6.9768304E-001	1.0749963E+001	3.7211673E+000	2.023078909259202E+002	4.4979593E-001	1.2708186E-002	-9.8726183E-001	-4.1584815E-003	1.000000000000000E+000	10	1.0667387E-002	9.9231850E-004	0	2.582014367625945E-005	9.2827454E-002	-6.0373205E-003	9.3023576E-002	-3.7211673E+000	-4.1584826E+000	6.3939163E+001	6.4074249E+001	-9.3721169E+001	0.0000000E+000	0.0000000E+000	0.0000000E+000	9.3721169E+001	0.0000000E+000	0.0000000E+000	0.0000000E+000	-9.3721169E+001	0.0000000E+000	0.0000000E+000	0.0000000E+000	3.7211673E+000	0.0000000E+000	0.0000000E+000	0.0000000E+000	-3.7211673E+000	1.5375605E+001	8.6278831E+001	3.055660725722392E-006	5.7160905E-006	3.5394188E+004
1.5707578E+005	1.0061440E+001	-3.0133724E-001	1.0065952E+001	1.7154793E+000	2.028658856190887E+002	4.4977489E-001	1.1921812E-002	-3.3624673E+000	-3.0133806E-003	1.000000000000000E+000	10	1.0119381E-002	1.0053079E-003	0	2.735910644005829E-005	9.9300273E-002	-2.9740145E-003	9.9344797E-002	-1.7154793E+000	-3.0133767E+000	1.0061469E+002	1.0065980E+002	-9.1715477E+001	0.0000000E+000	0.0000000E+000	0.0000000E+000	9.1715477E+001	0.0000000E+000	0.0000000E+000	0.0000000E+000	-9.1715477E+001	0.0000000E+000	0.0000000E+000	0.0000000E+000	1.7154793E+000	0.0000000E+000	0.0000000E+000	0.0000000E+000	-1.7154793E+000	3.3389301E+001	8.8284523E+001	1.538962763798837E-006	5.3621316E-006	3.7727059E+004
1.0678630E+005	9.8654413E+000	-9.2041984E-002	9.8658705E+000	5.3453916E-001	2.032878835591400E+002	4.4975373E-001	1.4314480E-002	-1.6192677E+001	-1.4093530E-003	1.000000000000000E+000	10	1.0833869E-002	1.0981158E-003	0	2.678583491270870E-005	1.0135512E-001	-9.4561680E-004	1.0135953E-001	-5.3453916E-001	-1.4093508E+000	1.5106029E+002	1.5106686E+002	-9.0534538E+001	0.0000000E+000	0.0000000E+000	0.0000000E+000	9.0534538E+001	0.0000000E+000	0.0000000E+000	0.0000000E+000	-9.0534538E+001	0.0000000E+000	0.0000000E+000	0.0000000E+000	5.3453916E-001	0.0000000E+000	0.0000000E+000	0.0000000E+000	-5.3453916E-001	1.0718414E+002	8.9465462E+001	-5.732715273495881E-007	6.4379910E-006	3.1419494E+004
7.2595008E+004	9.8209944E+000	2.0963810E-003	9.8209944E+000	-1.2230308E-002	2.037098798191437E+002	4.4975609E-001	9.1545973E-003	1.0457869E+003	4.7651072E-005	1.000000000000000E+000	10	1.0736348E-002	1.0932038E-003	0	2.884465587741902E-005	1.0182268E-001	2.1734983E-005	1.0182268E-001	1.2230308E-002	4.7649555E-002	2.2323274E+002	2.2323274E+002	-8.9987770E+001	0.0000000E+000	0.0000000E+000	0.0000000E+000	8.9987770E+001	0.0000000E+000	0.0000000E+000	0.0000000E+000	-8.9987770E+001	0.0000000E+000	0.0000000E+000	0.0000000E+000	-1.2230308E-002	0.0000000E+000	0.0000000E+000	0.0000000E+000	1.2230308E-002	4.6847373E+003	8.9987770E+001	2.058820964710323E-006	4.1173357E-006	4.9128988E+004
4.9352359E+004	9.8043661E+000	3.0862683E-002	9.8044147E+000	-1.8035798E-001	2.041318710658961E+002	4.4976160E-001	1.2708188E-002	1.0449091E+002	1.0353866E-003	1.000000000000000E+000	10	1.0595866E-002	1.0807239E-003	0	3.023821039543448E-005	1.0199437E-001	3.2106307E-004	1.0199487E-001	1.8035798E-001	1.0353917E+000	3.2891855E+002	3.2892017E+002	-8.9819641E+001	0.0000000E+000	0.0000000E+000	0.0000000E+000	8.9819641E+001	0.0000000E+000	0.0000000E+000	0.0000000E+000	-8.9819641E+001	0.0000000E+000	0.0000000E+000	0.0000000E+000	-1.8035798E-001	0.0000000E+000	0.0000000E+000	0.0000000E+000	1.8035798E-001	3.1767703E+002	8.9819641E+001	1.393554518015461E-006	5.7156549E-006	3.5391480E+004
3.3551066E+004	9.8064566E+000	4.4913944E-002	9.8065596E+000	-2.6241502E-001	2.045538734059228E+002	4.4976270E-001	1.3360394E-002	1.0561671E+002	2.2154485E-003	1.000000000000000E+000	10	1.0508540E-002	1.0715828E-003	0	3.245012921129172E-005	1.0197149E-001	4.6703333E-004	1.0197257E-001	2.6241502E-001	2.2154317E+000	4.8371838E+002	4.8372345E+002	-8.9737587E+001	0.0000000E+000	0.0000000E+000	0.0000000E+000	8.9737587E+001	0.0000000E+000	0.0000000E+000	0.0000000E+000	-8.9737587E+001	0.0000000E+000	0.0000000E+000	0.0000000E+000	-2.6241502E-001	0.0000000E+000	0.0000000E+000	0.0000000E+000	2.6241502E-001	2.1833881E+002	8.9737587E+001	2.211918815857236E-006	6.0090069E-006	3.3663879E+004
2.2806563E+004	9.8257589E+000	5.3130504E-002	9.8259029E+000	-3.0981055E-001	2.049758868392819E+002	4.4975358E-001	9.3912529E-003	1.3134586E+002	3.8402481E-003	1.000000000000000E+000	10	1.0437195E-002	1.0622123E-003	0	3.249834614695283E-005	1.0177033E-001	5.5029930E-004	1.0177182E-001	3.0981055E-001	3.8402016E+000	7.1020129E+002	7.1021167E+002	-8.9690193E+001	0.0000000E+000	0.0000000E+000	0.0000000E+000	8.9690193E+001	0.0000000E+000	0.0000000E+000	0.0000000E+000	-8.9690193E+001	0.0000000E+000	0.0000000E+000	0.0000000E+000	-3.0981055E-001	0.0000000E+000	0.0000000E+000	0.0000000E+000	3.0981055E-001	1.8493631E+002	8.9690193E+001	4.821693566110915E-008	4.2237498E-006	4.7890691E+004
1.5504379E+004	9.8365107E+000	6.1760955E-002	9.8367043E+000	-3.5974094E-001	2.053988850460883E+002	4.4975543E-001	1.2816266E-002	1.6620793E+002	6.5521002E-003	1.000000000000000E+000	10	1.0287262E-002	1.0458037E-003	0	3.540158529925652E-005	1.0165806E-001	6.3828519E-004	1.0166007E-001	3.5974094E-001	6.5521049E+000	1.0435363E+003	1.0435569E+003	-8.9640259E+001	0.0000000E+000	0.0000000E+000	0.0000000E+000	8.9640259E+001	0.0000000E+000	0.0000000E+000	0.0000000E+000	-8.9640259E+001	0.0000000E+000	0.0000000E+000	0.0000000E+000	-3.5974094E-001	0.0000000E+000	0.0000000E+000	0.0000000E+000	3.5974094E-001	1.5926747E+002	8.9640259E+001	2.903239152303689E-006	5.7641855E-006	3.5092547E+004
1.0540381E+004	9.8271761E+000	4.9252406E-002	9.8272991E+000	-2.8715587E-001	2.058208694394125E+002	4.4976056E-001	1.2225553E-002	3.0657477E+002	7.7005713E-003	1.000000000000000E+000	10	1.0223980E-002	1.0403652E-003	0	3.766678296250110E-005	1.0175607E-001	5.0998694E-004	1.0175736E-001	2.8715587E-001	7.7005510E+000	1.5364703E+003	1.5364896E+003	-8.9712845E+001	0.0000000E+000	0.0000000E+000	0.0000000E+000	8.9712845E+001	0.0000000E+000	0.0000000E+000	0.0000000E+000	-8.9712845E+001	0.0000000E+000	0.0000000E+000	0.0000000E+000	-2.8715587E-001	0.0000000E+000	0.0000000E+000	0.0000000E+000	2.8715587E-001	1.9952682E+002	8.9712845E+001	2.265197663244584E-006	5.4985717E-006	3.6788563E+004
7.1637817E+003	9.8582058E+000	5.7325814E-002	9.8583727E+000	-3.3317322E-001	2.063444665576826E+002	4.4974500E-001	9.5067853E-003	3.8754984E+002	1.3104413E-002	1.000000000000000E+000	10	1.0216069E-002	1.0362836E-003	0	3.882739438049288E-005	1.0143491E-001	5.8984756E-004	1.0143662E-001	3.3317322E-001	1.3104509E+001	2.2535398E+003	2.2535779E+003	-8.9666824E+001	0.0000000E+000	0.0000000E+000	0.0000000E+000	8.9666824E+001	0.0000000E+000	0.0000000E+000	0.0000000E+000	-8.9666824E+001	0.0000000E+000	0.0000000E+000	0.0000000E+000	-3.3317322E-001	0.0000000E+000	0.0000000E+000	0.0000000E+000	3.3317322E-001	1.7196800E+002	8.9666824E+001	1.160611417991780E-006	4.2756292E-006	4.7307789E+004
4.8715591E+003	9.8678856E+000	5.5656940E-002	9.8680429E+000	-3.2315674E-001	2.068120715665718E+002	4.4976580E-001	1.3651093E-002	5.8699286E+002	1.8672800E-002	1.000000000000000E+000	10	1.0780583E-002	1.0924743E-003	0	4.095214365394269E-005	1.0133561E-001	5.7155400E-004	1.0133722E-001	3.2315674E-001	1.8672888E+001	3.3106572E+003	3.3107100E+003	-8.9676842E+001	0.0000000E+000	0.0000000E+000	0.0000000E+000	8.9676842E+001	0.0000000E+000	0.0000000E+000	0.0000000E+000	-8.9676842E+001	0.0000000E+000	0.0000000E+000	0.0000000E+000	-3.2315674E-001	0.0000000E+000	0.0000000E+000	0.0000000E+000	3.2315674E-001	1.7729839E+002	8.9676842E+001	2.124749273449805E-006	6.1397950E-006	3.2947234E+004
3.3110596E+003	9.8768530E+000	7.7293895E-002	9.8771553E+000	-4.4837394E-001	2.074990680258634E+002	4.4977441E-001	1.3412568E-002	6.2188196E+002	3.8083300E-002	1.000000000000000E+000	10	1.0119628E-002	1.0245489E-003	0	4.377710231200197E-005	1.0124063E-001	7.9228496E-004	1.0124373E-001	4.4837394E-001	3.8083126E+001	4.8664019E+003	4.8665508E+003	-8.9551628E+001	0.0000000E+000	0.0000000E+000	0.0000000E+000	8.9551628E+001	0.0000000E+000	0.0000000E+000	0.0000000E+000	-8.9551628E+001	0.0000000E+000	0.0000000E+000	0.0000000E+000	-4.4837394E-001	0.0000000E+000	0.0000000E+000	0.0000000E+000	4.4837394E-001	1.2778310E+002	8.9551628E+001	2.824958658059279E-006	6.0326297E-006	3.3533805E+004
2.2507205E+003	9.8747406E+000	6.8539523E-002	9.8749781E+000	-3.9767751E-001	2.079640599146223E+002	4.4976032E-001	1.1698198E-002	1.0317097E+003	4.9701259E-002	1.000000000000000E+000	10	1.0247384E-002	1.0377121E-003	0	4.503321912160997E-005	1.0126361E-001	7.0285989E-004	1.0126605E-001	3.9767751E-001	4.9700882E+001	7.1606421E+003	7.1608145E+003	-8.9602325E+001	0.0000000E+000	0.0000000E+000	0.0000000E+000	8.9602325E+001	0.0000000E+000	0.0000000E+000	0.0000000E+000	-8.9602325E+001	0.0000000E+000	0.0000000E+000	0.0000000E+000	-3.9767751E-001	0.0000000E+000	0.0000000E+000	0.0000000E+000	3.9767751E-001	1.4407367E+002	8.9602325E+001	1.256116809608003E-006	5.2613850E-006	3.8446977E+004
1.5304901E+003	9.8855324E+000	8.7656386E-002	9.8859215E+000	-5.0803632E-001	2.084291024967024E+002	4.4976369E-001	1.1291967E-002	1.1863315E+003	9.3269333E-002	1.000000000000000E+000	10	1.0315501E-002	1.0434537E-003	0	4.596915826656106E-005	1.0114997E-001	8.9691085E-004	1.0115395E-001	5.0803632E-001	9.3268875E+001	1.0518539E+004	1.0518952E+004	-8.9491966E+001	0.0000000E+000	0.0000000E+000	0.0000000E+000	8.9491966E+001	0.0000000E+000	0.0000000E+000	0.0000000E+000	-8.9491966E+001	0.0000000E+000	0.0000000E+000	0.0000000E+000	-5.0803632E-001	0.0000000E+000	0.0000000E+000	0.0000000E+000	5.0803632E-001	1.1277596E+002	8.9491966E+001	9.359391449510870E-007	5.0787166E-006	3.9830410E+004
1.0403328E+003	9.8998070E+000	1.1461794E-001	9.9004707E+000	-6.6332918E-001	2.088940932121259E+002	4.4976372E-001	1.2642966E-002	1.3347356E+003	1.7889112E-001	1.000000000000000E+000	10	1.0356107E-002	1.0460217E-003	0	4.756512776437578E-005	1.0099853E-001	1.1693403E-003	1.0100530E-001	6.6332918E-001	1.7889137E+002	1.5451226E+004	1.5452261E+004	-8.9336670E+001	0.0000000E+000	0.0000000E+000	0.0000000E+000	8.9336670E+001	0.0000000E+000	0.0000000E+000	0.0000000E+000	-8.9336670E+001	0.0000000E+000	0.0000000E+000	0.0000000E+000	-6.6332918E-001	0.0000000E+000	0.0000000E+000	0.0000000E+000	6.6332918E-001	8.6372223E+001	8.9336670E+001	1.595969497814719E-006	5.6863473E-006	3.5574227E+004
7.0703625E+002	9.8961277E+000	1.5040636E-001	9.8972702E+000	-8.7074327E-001	2.093585887541558E+002	4.4976309E-001	1.3563509E-002	1.4966224E+003	3.4563187E-001	1.000000000000000E+000	10	1.0371137E-002	1.0478785E-003	0	4.881229507505324E-005	1.0102630E-001	1.5354489E-003	1.0103796E-001	8.7074327E-001	3.4563168E+002	2.2741172E+004	2.2743799E+004	-8.9129257E+001	0.0000000E+000	0.0000000E+000	0.0000000E+000	8.9129257E+001	0.0000000E+000	0.0000000E+000	0.0000000E+000	-8.9129257E+001	0.0000000E+000	0.0000000E+000	0.0000000E+000	-8.7074327E-001	0.0000000E+000	0.0000000E+000	0.0000000E+000	8.7074327E-001	6.5795937E+001	8.9129257E+001	1.247167310677469E-006	6.1003657E-006	3.3159789E+004
4.8076920E+002	9.9045916E+000	2.0161647E-001	9.9066429E+000	-1.1661438E+000	2.098238183495851E+002	4.4975355E-001	1.2080205E-002	1.6419408E+003	6.8007445E-001	1.000000000000000E+000	10	1.0376955E-002	1.0474744E-003	0	5.015581953151074E-005	1.0092146E-001	2.0543430E-003	1.0094237E-001	1.1661438E+000	6.8007538E+002	3.3409273E+004	3.3416195E+004	-8.8833855E+001	0.0000000E+000	0.0000000E+000	0.0000000E+000	8.8833855E+001	0.0000000E+000	0.0000000E+000	0.0000000E+000	-8.8833855E+001	0.0000000E+000	0.0000000E+000	0.0000000E+000	-1.1661438E+000	0.0000000E+000	0.0000000E+000	0.0000000E+000	1.1661438E+000	4.9125908E+001	8.8833855E+001	1.343524456457494E-006	5.4331149E-006	3.7230625E+004
3.2677771E+002	9.9193707E+000	2.8524357E-001	9.9234715E+000	-1.6471559E+000	2.102870362649555E+002	4.4976044E-001	9.8589780E-003	1.7074652E+003	1.4107704E+000	1.000000000000000E+000	10	1.0388815E-002	1.0468932E-003	0	5.103387607386362E-005	1.0072955E-001	2.8966006E-003	1.0077119E-001	1.6471559E+000	1.4107703E+003	4.9059664E+004	4.9079945E+004	-8.8352844E+001	0.0000000E+000	0.0000000E+000	0.0000000E+000	8.8352844E+001	0.0000000E+000	0.0000000E+000	0.0000000E+000	-8.8352844E+001	0.0000000E+000	0.0000000E+000	0.0000000E+000	-1.6471559E+000	0.0000000E+000	0.0000000E+000	0.0000000E+000	1.6471559E+000	3.4775089E+001	8.8352844E+001	8.780565423528792E-007	4.4341782E-006	4.5619379E+004
2.2206076E+002	9.9181166E+000	4.1457781E-001	9.9267778E+000	-2.3935733E+000	2.107482950868580E+002	4.4976208E-001	1.0690073E-002	1.7287902E+003	3.0153501E+000	1.000000000000000E+000	10	1.0382421E-002	1.0459004E-003	0	5.355797101782325E-005	1.0064973E-001	4.2071640E-003	1.0073762E-001	2.3935733E+000	3.0153459E+003	7.2137469E+004	7.2200461E+004	-8.7606430E+001	0.0000000E+000	0.0000000E+000	0.0000000E+000	8.7606430E+001	0.0000000E+000	0.0000000E+000	0.0000000E+000	-8.7606430E+001	0.0000000E+000	0.0000000E+000	0.0000000E+000	-2.3935733E+000	0.0000000E+000	0.0000000E+000	0.0000000E+000	2.3935733E+000	2.3923414E+001	8.7606430E+001	2.524094943959627E-006	4.8079896E-006	4.2072871E+004
1.5101485E+002	9.9390135E+000	6.0621017E-001	9.9574833E+000	-3.4903173E+000	2.112097893220634E+002	4.4975498E-001	1.1269606E-002	1.7385104E+003	6.4435401E+000	1.000000000000000E+000	10	1.0390403E-002	1.0434767E-003	0	5.451881145699170E-005	1.0024070E-001	6.1139804E-003	1.0042698E-001	3.4903173E+000	6.4435425E+003	1.0564395E+005	1.0584027E+005	-8.6509682E+001	0.0000000E+000	0.0000000E+000	0.0000000E+000	8.6509682E+001	0.0000000E+000	0.0000000E+000	0.0000000E+000	-8.6509682E+001	0.0000000E+000	0.0000000E+000	0.0000000E+000	-3.4903173E+000	0.0000000E+000	0.0000000E+000	0.0000000E+000	3.4903173E+000	1.6395327E+001	8.6509682E+001	9.608404391684520E-007	5.0685612E-006	3.9908672E+004
1.0266736E+002	9.9617090E+000	8.5209763E-001	9.9980860E+000	-4.8890252E+000	2.116847075579717E+002	4.4976413E-001	1.2231142E-002	1.8192750E+003	1.3214275E+001	1.000000000000000E+000	10	1.0389998E-002	1.0391987E-003	0	5.550306589240467E-005	9.9655233E-002	8.5242391E-003	1.0001914E-001	4.8890252E+000	1.3214270E+004	1.5448556E+005	1.5504969E+005	-8.5110977E+001	0.0000000E+000	0.0000000E+000	0.0000000E+000	8.5110977E+001	0.0000000E+000	0.0000000E+000	0.0000000E+000	-8.5110977E+001	0.0000000E+000	0.0000000E+000	0.0000000E+000	-4.8890252E+000	0.0000000E+000	0.0000000E+000	0.0000000E+000	4.8890252E+000	1.1690807E+001	8.5110977E+001	9.842544354129743E-007	5.5011292E-006	3.6772047E+004
6.9754463E+001	9.9977684E+000	1.2448330E+000	1.0074968E+001	-7.0974326E+000	2.121528562468739E+002	4.4976008E-001	1.0773929E-002	1.8328928E+003	2.7981556E+001	1.000000000000000E+000	10	1.0392181E-002	1.0314852E-003	0	5.702325809414227E-005	9.8495349E-002	1.2263762E-002	9.9255897E-002	7.0974326E+000	2.7981564E+004	2.2473144E+005	2.2646675E+005	-8.2902565E+001	0.0000000E+000	0.0000000E+000	0.0000000E+000	8.2902565E+001	0.0000000E+000	0.0000000E+000	0.0000000E+000	-8.2902565E+001	0.0000000E+000	0.0000000E+000	0.0000000E+000	-7.0974326E+000	0.0000000E+000	0.0000000E+000	0.0000000E+000	7.0974326E+000	8.0314131E+000	8.2902565E+001	1.520192201737597E-006	4.8456832E-006	4.1745227E+004
4.7444328E+001	1.0037421E+001	1.7799480E+000	1.0194020E+001	-1.0055793E+001	2.125968341879343E+002	4.4975618E-001	9.5887762E-003	1.8846406E+003	5.7458221E+001	1.000000000000000E+000	10	1.0398196E-002	1.0200290E-003	0	5.773325536308241E-005	9.6589789E-002	1.7128382E-002	9.8096728E-002	1.0055793E+001	5.7458223E+004	3.2401641E+005	3.2907153E+005	-7.9944206E+001	0.0000000E+000	0.0000000E+000	0.0000000E+000	7.9944206E+001	0.0000000E+000	0.0000000E+000	0.0000000E+000	-7.9944206E+001	0.0000000E+000	0.0000000E+000	0.0000000E+000	-1.0055793E+001	0.0000000E+000	0.0000000E+000	0.0000000E+000	1.0055793E+001	5.6391654E+000	7.9944206E+001	7.099972689401403E-007	4.3126115E-006	4.6904441E+004
