EC-Lab ASCII FILE
Nb header lines : 63                          

Potentio Electrochemical Impedance Spectroscopy

Run on channel : 1 (SN 69187)
User : 
CE vs. WE compliance from -10 V to 10 V
Electrode connection : standard
Potential control : Ewe
Ewe ctrl range : min = -1.00 V, max = 1.00 V
Safety Limits :
	Do not start on E overload
Acquisition started on : 11/12/2025 15:46:22.293
Loaded Setting File :  C:\Users\User\Documents\EC-Lab\Data\Yatsuzuka\20251030_2-147_gamma_reproducibility\20251030_2-147_001_gamma1_K_1.mps
Saved on :
	File : 20251112_2-148_003_alpha_Na_first_1_Na1_02_PEIS_C01.mpr
	Directory : C:\Users\User\Documents\EC-Lab\Data\Yatsuzuka\20251112_2-148_alpha_reproducibility\
	Host : 192.109.209.127
Device : SP-150e (SN .003883)
Address : 192.109.209.128
EC-Lab for windows v11.52 (software)
Internet server v11.52 (firmware)
Command interpretor v11.50 (firmware)
Electrode material : 
Initial state : 
Electrolyte : 
Comments : 
Electrode surface area : 0.001 cm2
Characteristic mass : 0.001 g
Equivalent Weight : 0.000 g/eq.
Density : 0.000 g/cm3
Volume (V) : 0.001 cm3
Cycle Definition : Charge/Discharge alternance
Mode                Single sine         
E (V)               0.4500              
vs.                 Ref                 
tE (h:m:s)          0:00:0.0000         
record              0                   
dI                  0.000               
unit dI             mA                  
dt (s)              0.000               
fi                  500.000             
unit fi             kHz                 
ff                  1.000               
unit ff             Hz                  
Nd                  6                   
Points              per decade          
spacing             Logarithmic         
Va (mV)             10.0                
pw                  0.10                
Na                  2                   
corr                0                   
E range min (V)     -1.000              
E range max (V)     1.000               
I Range             Auto                
Bandwidth           5                   
nc cycles           0                   
goto Ns'            0                   
nr cycles           0                   
inc. cycle          0                   

freq/Hz	Re(Z)/Ohm	-Im(Z)/Ohm	|Z|/Ohm	Phase(Z)/deg	time/s	<Ewe>/V	<I>/mA	Cs/uF	Cp/uF	cycle number	I Range	|Ewe|/V	|I|/A	Ns	(Q-Qo)/mA.h	Re(Y)/Ohm-1	Im(Y)/Ohm-1	|Y|/Ohm-1	Phase(Y)/deg	Re(C)/nF	Im(C)/nF	|C|/nF	Phase(C)/deg	Re(M)	Im(M)	|M|	Phase(M)/deg	Re(Permittivity)	Im(Permittivity)	|Permittivity|	Phase(Permittivity)/deg	Re(Resistivity)/Ohm.cm	Im(Resistivity)/Ohm.cm	|Resistivity|/Ohm.cm	Phase(Resistivity)/deg	Re(Conductivity)/mS/cm	Im(Conductivity)/mS/cm	|Conductivity|/mS/cm	Phase(Conductivity)/deg	Tan(Delta)	Loss Angle(Delta)/deg	dq/mA.h	
5.0001856E+005	1.7780075E+001	-2.5603297E+000	1.7963472E+001	8.1942596E+000	2.017328728452703E+002	4.5013505E-001	1.8141974E-002	-1.2431917E-001	-2.5255114E-003	1.000000000000000E+000	10	5.6044739E-003	3.1199280E-004	0	2.430070548052997E-005	5.5100180E-002	-7.9344222E-003	5.5668525E-002	-8.1942596E+000	-2.5255113E+000	1.7538280E+001	1.7719185E+001	-9.8194260E+001	0.0000000E+000	0.0000000E+000	0.0000000E+000	9.8194260E+001	0.0000000E+000	0.0000000E+000	0.0000000E+000	-9.8194260E+001	0.0000000E+000	0.0000000E+000	0.0000000E+000	8.1942596E+000	0.0000000E+000	0.0000000E+000	0.0000000E+000	-8.1942596E+000	6.9444475E+000	8.1805740E+001	2.430070548052997E-005
3.3989941E+005	1.2379208E+001	-1.7687150E+000	1.2504925E+001	8.1312666E+000	2.021548881452909E+002	4.5000750E-001	1.7515868E-002	-2.6473528E-001	-5.2962126E-003	1.000000000000000E+000	10	8.8919224E-003	7.1107363E-004	0	2.659745829501480E-005	7.9164542E-002	-1.1310862E-002	7.9968497E-002	-8.1312666E+000	-5.2962108E+000	3.7068108E+001	3.7444553E+001	-9.8131264E+001	0.0000000E+000	0.0000000E+000	0.0000000E+000	9.8131264E+001	0.0000000E+000	0.0000000E+000	0.0000000E+000	-9.8131264E+001	0.0000000E+000	0.0000000E+000	0.0000000E+000	8.1312666E+000	0.0000000E+000	0.0000000E+000	0.0000000E+000	-8.1312666E+000	6.9989839E+000	8.1868736E+001	2.296752814484836E-006
2.3106258E+005	1.0377441E+001	-1.0575199E+000	1.0431186E+001	5.8186774E+000	2.025768796586926E+002	4.4981879E-001	1.9453859E-002	-6.5133131E-001	-6.6944007E-003	1.000000000000000E+000	10	1.0494627E-002	1.0060819E-003	0	2.916219317995839E-005	9.5372453E-002	-9.7189918E-003	9.5866382E-002	-5.8186774E+000	-6.6944036E+000	6.5692146E+001	6.6032364E+001	-9.5818680E+001	0.0000000E+000	0.0000000E+000	0.0000000E+000	9.5818680E+001	0.0000000E+000	0.0000000E+000	0.0000000E+000	-9.5818680E+001	0.0000000E+000	0.0000000E+000	0.0000000E+000	5.8186774E+000	0.0000000E+000	0.0000000E+000	0.0000000E+000	-5.8186774E+000	9.8129988E+000	8.4181320E+001	2.564734884943593E-006
1.5707578E+005	9.6179295E+000	-5.6705427E-001	9.6346312E+000	3.3741407E+000	2.029988780254062E+002	4.4977298E-001	1.5822008E-002	-1.7868425E+000	-6.1896392E-003	1.000000000000000E+000	10	1.0915234E-002	1.1329167E-003	0	2.866840981599590E-005	1.0361232E-001	-6.1087790E-003	1.0379224E-001	-3.3741407E+000	-6.1896334E+000	1.0498380E+002	1.0516611E+002	-9.3374138E+001	0.0000000E+000	0.0000000E+000	0.0000000E+000	9.3374138E+001	0.0000000E+000	0.0000000E+000	0.0000000E+000	-9.3374138E+001	0.0000000E+000	0.0000000E+000	0.0000000E+000	3.3741407E+000	0.0000000E+000	0.0000000E+000	0.0000000E+000	-3.3741407E+000	1.6961216E+001	8.6625862E+001	-4.937833639624939E-007
1.0678630E+005	9.3771982E+000	-2.8968602E-001	9.3816719E+000	1.7694527E+000	2.034208908987493E+002	4.4976890E-001	2.0104209E-002	-5.1449018E+000	-4.9053691E-003	1.000000000000000E+000	10	1.0937409E-002	1.1658273E-003	0	2.906001137041151E-005	1.0653998E-001	-3.2912968E-003	1.0659081E-001	-1.7694527E+000	-4.9053750E+000	1.5878784E+002	1.5886359E+002	-9.1769455E+001	0.0000000E+000	0.0000000E+000	0.0000000E+000	9.1769455E+001	0.0000000E+000	0.0000000E+000	0.0000000E+000	-9.1769455E+001	0.0000000E+000	0.0000000E+000	0.0000000E+000	1.7694527E+000	0.0000000E+000	0.0000000E+000	0.0000000E+000	-1.7694527E+000	3.2370213E+001	8.8230545E+001	3.916015544156045E-007
7.2595008E+004	9.2924299E+000	-1.6350104E-001	9.2938681E+000	1.0080198E+000	2.038428793454805E+002	4.4976655E-001	1.6785411E-002	-1.3408891E+001	-4.1499310E-003	1.000000000000000E+000	10	1.0719128E-002	1.1533549E-003	0	3.318617751008535E-005	1.0758118E-001	-1.8928994E-003	1.0759783E-001	-1.0080198E+000	-4.1499257E+000	2.3585748E+002	2.3589398E+002	-9.1008018E+001	0.0000000E+000	0.0000000E+000	0.0000000E+000	9.1008018E+001	0.0000000E+000	0.0000000E+000	0.0000000E+000	-9.1008018E+001	0.0000000E+000	0.0000000E+000	0.0000000E+000	1.0080198E+000	0.0000000E+000	0.0000000E+000	0.0000000E+000	-1.0080198E+000	5.6834072E+001	8.8991982E+001	4.126166139673844E-006
4.9352359E+004	9.2562609E+000	-8.9492805E-002	9.2566938E+000	5.5393857E-001	2.042648722988815E+002	4.4977286E-001	1.7014615E-002	-3.6034962E+001	-3.3681274E-003	1.000000000000000E+000	10	1.0608715E-002	1.1460588E-003	0	3.588444942739119E-005	1.0802488E-001	-1.0444227E-003	1.0802993E-001	-5.5393857E-001	-3.3681350E+000	3.4836618E+002	3.4838248E+002	-9.0553940E+001	0.0000000E+000	0.0000000E+000	0.0000000E+000	9.0553940E+001	0.0000000E+000	0.0000000E+000	0.0000000E+000	-9.0553940E+001	0.0000000E+000	0.0000000E+000	0.0000000E+000	5.5393857E-001	0.0000000E+000	0.0000000E+000	0.0000000E+000	-5.5393857E-001	1.0343022E+002	8.9446060E+001	2.698271917305845E-006
3.3551066E+004	9.2508726E+000	-4.1439537E-002	9.2509651E+000	2.5665632E-001	2.046868784522667E+002	4.4976151E-001	1.9545175E-002	-1.1447191E+002	-2.2969663E-003	1.000000000000000E+000	10	1.0521791E-002	1.1373722E-003	0	3.851148418899134E-005	1.0809574E-001	-4.8421789E-004	1.0809683E-001	-2.5665632E-001	-2.2969351E+000	5.1276978E+002	5.1277490E+002	-9.0256653E+001	0.0000000E+000	0.0000000E+000	0.0000000E+000	9.0256653E+001	0.0000000E+000	0.0000000E+000	0.0000000E+000	-9.0256653E+001	0.0000000E+000	0.0000000E+000	0.0000000E+000	2.5665632E-001	0.0000000E+000	0.0000000E+000	0.0000000E+000	-2.5665632E-001	2.2323784E+002	8.9743347E+001	2.627034761600147E-006
2.2806563E+004	9.2458200E+000	-2.3711139E-002	9.2458506E+000	1.4693615E-001	2.051088744989393E+002	4.4976160E-001	1.4989050E-002	-2.9431192E+002	-1.9356150E-003	1.000000000000000E+000	10	1.0488654E-002	1.1344175E-003	0	4.091990020424257E-005	1.0815627E-001	-2.7736949E-004	1.0815663E-001	-1.4693615E-001	-1.9355932E+000	7.5476538E+002	7.5476788E+002	-9.0146935E+001	0.0000000E+000	0.0000000E+000	0.0000000E+000	9.0146935E+001	0.0000000E+000	0.0000000E+000	0.0000000E+000	-9.0146935E+001	0.0000000E+000	0.0000000E+000	0.0000000E+000	1.4693615E-001	0.0000000E+000	0.0000000E+000	0.0000000E+000	-1.4693615E-001	3.8993570E+002	8.9853065E+001	2.408416015251227E-006
1.5504379E+004	9.2413921E+000	-1.1319284E-002	9.2413988E+000	7.0178486E-002	2.055308890789893E+002	4.4976726E-001	1.8442014E-002	-9.0687366E+002	-1.3605338E-003	1.000000000000000E+000	10	1.0356554E-002	1.1206695E-003	0	4.332572773345035E-005	1.0820864E-001	-1.3253895E-004	1.0820872E-001	-7.0178486E-002	-1.3604695E+000	1.1107792E+003	1.1107800E+003	-9.0070175E+001	0.0000000E+000	0.0000000E+000	0.0000000E+000	9.0070175E+001	0.0000000E+000	0.0000000E+000	0.0000000E+000	-9.0070175E+001	0.0000000E+000	0.0000000E+000	0.0000000E+000	7.0178486E-002	0.0000000E+000	0.0000000E+000	0.0000000E+000	-7.0178486E-002	8.1642902E+002	8.9929825E+001	2.405827529207778E-006
1.0540381E+004	9.2421074E+000	1.8666316E-003	9.2421074E+000	-1.1572048E-002	2.059528736857028E+002	4.4976765E-001	1.6615836E-002	8.0891934E+003	3.2997454E-004	1.000000000000000E+000	10	1.0326447E-002	1.1173260E-003	0	4.518233299673820E-005	1.0820043E-001	2.1853277E-005	1.0820043E-001	1.1572048E-002	3.3002424E-001	1.6337772E+003	1.6337772E+003	-8.9988426E+001	0.0000000E+000	0.0000000E+000	0.0000000E+000	8.9988426E+001	0.0000000E+000	0.0000000E+000	0.0000000E+000	-8.9988426E+001	0.0000000E+000	0.0000000E+000	0.0000000E+000	-1.1572048E-002	0.0000000E+000	0.0000000E+000	0.0000000E+000	1.1572048E-002	4.9512222E+003	8.9988426E+001	1.856605263287851E-006
7.1637817E+003	9.2436590E+000	9.8679774E-003	9.2436647E+000	-6.1165519E-002	2.064764573905995E+002	4.4974607E-001	1.5857413E-002	2.2513843E+003	2.5657690E-003	1.000000000000000E+000	10	1.0132998E-002	1.0962101E-003	0	4.712847456771608E-005	1.0818214E-001	1.1548877E-004	1.0818220E-001	6.1165519E-002	2.5657413E+000	2.4034404E+003	2.4034419E+003	-8.9938835E+001	0.0000000E+000	0.0000000E+000	0.0000000E+000	8.9938835E+001	0.0000000E+000	0.0000000E+000	0.0000000E+000	-8.9938835E+001	0.0000000E+000	0.0000000E+000	0.0000000E+000	-6.1165519E-002	0.0000000E+000	0.0000000E+000	0.0000000E+000	6.1165519E-002	9.3673291E+002	8.9938835E+001	1.946141570977887E-006
4.8715591E+003	9.2513237E+000	2.9510267E-002	9.2513704E+000	-1.8276390E-001	2.069450629328858E+002	4.4976175E-001	1.6518937E-002	1.1070800E+003	1.1264532E-002	1.000000000000000E+000	10	1.0955768E-002	1.1842318E-003	0	4.887033885181235E-005	1.0809154E-001	3.4479503E-004	1.0809209E-001	1.8276390E-001	1.1264423E+001	3.5313752E+003	3.5313933E+003	-8.9817238E+001	0.0000000E+000	0.0000000E+000	0.0000000E+000	8.9817238E+001	0.0000000E+000	0.0000000E+000	0.0000000E+000	-8.9817238E+001	0.0000000E+000	0.0000000E+000	0.0000000E+000	-1.8276390E-001	0.0000000E+000	0.0000000E+000	0.0000000E+000	1.8276390E-001	3.1349509E+002	8.9817238E+001	1.741864284096266E-006
3.3110596E+003	9.2559023E+000	3.5737861E-002	9.2559710E+000	-2.2122300E-001	2.076320889921844E+002	4.4977373E-001	1.7036974E-002	1.3450072E+003	2.0051079E-002	1.000000000000000E+000	10	1.0109480E-002	1.0922117E-003	0	5.040854669707025E-005	1.0803756E-001	4.1714261E-004	1.0803837E-001	2.2122300E-001	2.0050980E+001	5.1931147E+003	5.1931533E+003	-8.9778778E+001	0.0000000E+000	0.0000000E+000	0.0000000E+000	8.9778778E+001	0.0000000E+000	0.0000000E+000	0.0000000E+000	-8.9778778E+001	0.0000000E+000	0.0000000E+000	0.0000000E+000	-2.2122300E-001	0.0000000E+000	0.0000000E+000	0.0000000E+000	2.2122300E-001	2.5899429E+002	8.9778778E+001	1.538207845257902E-006
2.2507205E+003	9.2526360E+000	5.6306720E-002	9.2528076E+000	-3.4866792E-001	2.080970936809390E+002	4.4976571E-001	1.6075438E-002	1.2558517E+003	4.6506297E-002	1.000000000000000E+000	10	1.0309485E-002	1.1142007E-003	0	5.227193205608314E-005	1.0807330E-001	6.5767777E-004	1.0807531E-001	3.4866792E-001	4.6506695E+001	7.6421748E+003	7.6423164E+003	-8.9651329E+001	0.0000000E+000	0.0000000E+000	0.0000000E+000	8.9651329E+001	0.0000000E+000	0.0000000E+000	0.0000000E+000	-8.9651329E+001	0.0000000E+000	0.0000000E+000	0.0000000E+000	-3.4866792E-001	0.0000000E+000	0.0000000E+000	0.0000000E+000	3.4866792E-001	1.6432561E+002	8.9651329E+001	1.863385359012887E-006
1.5304901E+003	9.2556610E+000	6.8236105E-002	9.2559128E+000	-4.2239767E-001	2.085620824763537E+002	4.4976643E-001	1.6477942E-002	1.5239663E+003	8.2825743E-002	1.000000000000000E+000	10	1.0407076E-002	1.1243706E-003	0	5.455648032614651E-005	1.0803611E-001	7.9648150E-004	1.0803904E-001	4.2239767E-001	8.2826477E+001	1.1234624E+004	1.1234930E+004	-8.9577599E+001	0.0000000E+000	0.0000000E+000	0.0000000E+000	8.9577599E+001	0.0000000E+000	0.0000000E+000	0.0000000E+000	-8.9577599E+001	0.0000000E+000	0.0000000E+000	0.0000000E+000	-4.2239767E-001	0.0000000E+000	0.0000000E+000	0.0000000E+000	4.2239767E-001	1.3564169E+002	8.9577599E+001	2.284548270063370E-006
1.0403328E+003	9.2612696E+000	9.1135599E-002	9.2617178E+000	-5.6380141E-001	2.090270755651072E+002	4.4976798E-001	1.6755594E-002	1.6786487E+003	1.6253722E-001	1.000000000000000E+000	10	1.0457563E-002	1.1291170E-003	0	5.694324071501614E-005	1.0796610E-001	1.0624414E-003	1.0797133E-001	5.6380141E-001	1.6253816E+002	1.6517158E+004	1.6517957E+004	-8.9436195E+001	0.0000000E+000	0.0000000E+000	0.0000000E+000	8.9436195E+001	0.0000000E+000	0.0000000E+000	0.0000000E+000	-8.9436195E+001	0.0000000E+000	0.0000000E+000	0.0000000E+000	-5.6380141E-001	0.0000000E+000	0.0000000E+000	0.0000000E+000	5.6380141E-001	1.0162077E+002	8.9436195E+001	2.386760388869634E-006
7.0703625E+002	9.2726078E+000	1.3886502E-001	9.2736473E+000	-8.5798788E-001	2.094915732404479E+002	4.4977084E-001	1.6053077E-002	1.6210095E+003	3.6347133E-001	1.000000000000000E+000	10	1.0483978E-002	1.1305129E-003	0	5.912473022147121E-005	1.0782035E-001	1.6146995E-003	1.0783244E-001	8.5798788E-001	3.6347070E+002	2.4270525E+004	2.4273246E+004	-8.9142014E+001	0.0000000E+000	0.0000000E+000	0.0000000E+000	8.9142014E+001	0.0000000E+000	0.0000000E+000	0.0000000E+000	-8.9142014E+001	0.0000000E+000	0.0000000E+000	0.0000000E+000	-8.5798788E-001	0.0000000E+000	0.0000000E+000	0.0000000E+000	8.5798788E-001	6.6774246E+001	8.9142014E+001	2.181489506455063E-006
4.8076920E+002	9.2836761E+000	1.9491360E-001	9.2857218E+000	-1.2027656E+000	2.099568077158910E+002	4.4976613E-001	1.5097129E-002	1.6984053E+003	7.4833196E-001	1.000000000000000E+000	10	1.0497090E-002	1.1304549E-003	0	6.115606281867562E-005	1.0766849E-001	2.2605327E-003	1.0769222E-001	1.2027656E+000	7.4833252E+002	3.5642828E+004	3.5650684E+004	-8.8797234E+001	0.0000000E+000	0.0000000E+000	0.0000000E+000	8.8797234E+001	0.0000000E+000	0.0000000E+000	0.0000000E+000	-8.8797234E+001	0.0000000E+000	0.0000000E+000	0.0000000E+000	-1.2027656E+000	0.0000000E+000	0.0000000E+000	0.0000000E+000	1.2027656E+000	4.7629700E+001	8.8797234E+001	2.031332597204411E-006
3.2677771E+002	9.2969379E+000	2.6304343E-001	9.3006582E+000	-1.6206690E+000	2.104200628046092E+002	4.4976687E-001	1.6054939E-002	1.8515706E+003	1.4810435E+000	1.000000000000000E+000	10	1.0506058E-002	1.1296037E-003	0	6.368412360067789E-005	1.0747626E-001	3.0408856E-003	1.0751927E-001	1.6206690E+000	1.4810413E+003	5.2345609E+004	5.2366559E+004	-8.8379333E+001	0.0000000E+000	0.0000000E+000	0.0000000E+000	8.8379333E+001	0.0000000E+000	0.0000000E+000	0.0000000E+000	-8.8379333E+001	0.0000000E+000	0.0000000E+000	0.0000000E+000	-1.6206690E+000	0.0000000E+000	0.0000000E+000	0.0000000E+000	1.6206690E+000	3.5343739E+001	8.8379333E+001	2.528060782002275E-006
2.2206076E+002	9.3144884E+000	3.7702179E-001	9.3221159E+000	-2.3178914E+000	2.108813147731562E+002	4.4976139E-001	1.6213333E-002	1.9009989E+003	3.1094656E+000	1.000000000000000E+000	10	1.0508887E-002	1.1273070E-003	0	6.458704527327144E-005	1.0718402E-001	4.3384787E-003	1.0727178E-001	2.3178914E+000	3.1094692E+003	7.6820711E+004	7.6883617E+004	-8.7682106E+001	0.0000000E+000	0.0000000E+000	0.0000000E+000	8.7682106E+001	0.0000000E+000	0.0000000E+000	0.0000000E+000	-8.7682106E+001	0.0000000E+000	0.0000000E+000	0.0000000E+000	-2.3178914E+000	0.0000000E+000	0.0000000E+000	0.0000000E+000	2.3178914E+000	2.4705439E+001	8.7682106E+001	9.029216725935508E-007
1.5101485E+002	9.3399200E+000	5.3042722E-001	9.3549700E+000	-3.2504165E+000	2.113437827684247E+002	4.4976270E-001	1.5456772E-002	1.9868939E+003	6.3876557E+000	1.000000000000000E+000	10	1.0512629E-002	1.1237480E-003	0	6.696868360760466E-005	1.0672309E-001	6.0609542E-003	1.0689505E-001	3.2504165E+000	6.3876616E+003	1.1247574E+005	1.1265698E+005	-8.6749580E+001	0.0000000E+000	0.0000000E+000	0.0000000E+000	8.6749580E+001	0.0000000E+000	0.0000000E+000	0.0000000E+000	-8.6749580E+001	0.0000000E+000	0.0000000E+000	0.0000000E+000	-3.2504165E+000	0.0000000E+000	0.0000000E+000	0.0000000E+000	3.2504165E+000	1.7608297E+001	8.6749580E+001	2.381638334333217E-006
1.0266736E+002	9.3716583E+000	7.5316852E-001	9.4018745E+000	-4.5947928E+000	2.118187190310127E+002	4.4976079E-001	1.5352421E-002	2.0582378E+003	1.3208424E+001	1.000000000000000E+000	10	1.0515060E-002	1.1184004E-003	0	7.005718654002218E-005	1.0601994E-001	8.5204644E-003	1.0636177E-001	4.5947928E+000	1.3208431E+004	1.6435211E+005	1.6488202E+005	-8.5405205E+001	0.0000000E+000	0.0000000E+000	0.0000000E+000	8.5405205E+001	0.0000000E+000	0.0000000E+000	0.0000000E+000	-8.5405205E+001	0.0000000E+000	0.0000000E+000	0.0000000E+000	-4.5947928E+000	0.0000000E+000	0.0000000E+000	0.0000000E+000	4.5947928E+000	1.2442977E+001	8.5405205E+001	3.088502932417522E-006
6.9754463E+001	9.4244928E+000	1.0635483E+000	9.4843130E+000	-6.4385548E+000	2.122868613732426E+002	4.4976997E-001	1.6002761E-002	2.1453142E+003	2.6976997E+001	1.000000000000000E+000	10	1.0519994E-002	1.1091994E-003	0	7.263445308992717E-005	1.0477224E-001	1.1823484E-002	1.0543726E-001	6.4385548E+000	2.6976988E+004	2.3905308E+005	2.4057044E+005	-8.3561447E+001	0.0000000E+000	0.0000000E+000	0.0000000E+000	8.3561447E+001	0.0000000E+000	0.0000000E+000	0.0000000E+000	-8.3561447E+001	0.0000000E+000	0.0000000E+000	0.0000000E+000	-6.4385548E+000	0.0000000E+000	0.0000000E+000	0.0000000E+000	6.4385548E+000	8.8613682E+000	8.3561447E+001	2.577266549904991E-006
4.7444328E+001	9.4778585E+000	1.5093399E+000	9.5972862E+000	-9.0483198E+000	2.127308585143328E+002	4.4976100E-001	1.4154224E-002	2.2225359E+003	5.4970036E+001	1.000000000000000E+000	10	1.0517982E-002	1.0959329E-003	0	7.553431573247265E-005	1.0289951E-001	1.6386651E-002	1.0419612E-001	9.0483198E+000	5.4970016E+004	3.4518278E+005	3.4953234E+005	-8.0951683E+001	0.0000000E+000	0.0000000E+000	0.0000000E+000	8.0951683E+001	0.0000000E+000	0.0000000E+000	0.0000000E+000	-8.0951683E+001	0.0000000E+000	0.0000000E+000	0.0000000E+000	-9.0483198E+000	0.0000000E+000	0.0000000E+000	0.0000000E+000	9.0483198E+000	6.2794724E+000	8.0951683E+001	2.899862642545477E-006
3.2238655E+001	9.5654793E+000	2.1315074E+000	9.8000879E+000	-1.2562168E+001	2.131682357084646E+002	4.4975322E-001	1.3727493E-002	2.3160950E+003	1.0956456E+002	1.000000000000000E+000	10	1.0533317E-002	1.0748187E-003	0	7.658104007012055E-005	9.9597126E-002	2.2193557E-002	1.0203990E-001	1.2562168E+001	1.0956453E+005	4.9168850E+005	5.0374791E+005	-7.7437836E+001	0.0000000E+000	0.0000000E+000	0.0000000E+000	7.7437836E+001	0.0000000E+000	0.0000000E+000	0.0000000E+000	-7.7437836E+001	0.0000000E+000	0.0000000E+000	0.0000000E+000	-1.2562168E+001	0.0000000E+000	0.0000000E+000	0.0000000E+000	1.2562168E+001	4.4876595E+000	7.7437836E+001	1.046724337647902E-006
