EC-Lab ASCII FILE
Nb header lines : 63                          

Potentio Electrochemical Impedance Spectroscopy

Run on channel : 1 (SN 69187)
User : 
CE vs. WE compliance from -10 V to 10 V
Electrode connection : standard
Potential control : Ewe
Ewe ctrl range : min = -1.00 V, max = 1.00 V
Safety Limits :
	Do not start on E overload
Acquisition started on : 11/12/2025 13:54:05.582
Loaded Setting File :  C:\Users\User\Documents\EC-Lab\Data\Yatsuzuka\20251030_2-147_gamma_reproducibility\20251030_2-147_001_gamma1_K_1.mps
Saved on :
	File : 20251112_2-148_001_alpha_reproducibility_1_Na1_02_PEIS_C01.mpr
	Directory : C:\Users\User\Documents\EC-Lab\Data\Yatsuzuka\20251112_2-148_alpha_reproducibility\
	Host : 192.109.209.127
Device : SP-150e (SN .003883)
Address : 192.109.209.128
EC-LAB for windows v11.52 (software)
Internet server v11.52 (firmware)
Command interpretor v11.50 (firmware)
Electrode material : 
Initial state : 
Electrolyte : 
Comments : 
Electrode surface area : 0.001 cm2
Characteristic mass : 0.001 g
Equivalent Weight : 0.000 g/eq.
Density : 0.000 g/cm3
Volume (V) : 0.001 cm3
Cycle Definition : Charge/Discharge alternance
Mode                Single sine         
E (V)               0.4500              
vs.                 Ref                 
tE (h:m:s)          0:00:0.0000         
record              0                   
dI                  0.000               
unit dI             mA                  
dt (s)              0.000               
fi                  500.000             
unit fi             kHz                 
ff                  1.000               
unit ff             Hz                  
Nd                  6                   
Points              per decade          
spacing             Logarithmic         
Va (mV)             10.0                
pw                  0.10                
Na                  2                   
corr                0                   
E range min (V)     -1.000              
E range max (V)     1.000               
I Range             Auto                
Bandwidth           5                   
nc cycles           0                   
goto Ns'            0                   
nr cycles           0                   
inc. cycle          0                   

freq/Hz	Re(Z)/Ohm	-Im(Z)/Ohm	|Z|/Ohm	Phase(Z)/deg	time/s	<Ewe>/V	<I>/mA	Cs/uF	Cp/uF	cycle number	I Range	|Ewe|/V	|I|/A	Ns	(Q-Qo)/mA.h	Re(Y)/Ohm-1	Im(Y)/Ohm-1	|Y|/Ohm-1	Phase(Y)/deg	Re(C)/nF	Im(C)/nF	|C|/nF	Phase(C)/deg	Re(M)	Im(M)	|M|	Phase(M)/deg	Re(Permittivity)	Im(Permittivity)	|Permittivity|	Phase(Permittivity)/deg	Re(Resistivity)/Ohm.cm	Im(Resistivity)/Ohm.cm	|Resistivity|/Ohm.cm	Phase(Resistivity)/deg	Re(Conductivity)/mS/cm	Im(Conductivity)/mS/cm	|Conductivity|/mS/cm	Phase(Conductivity)/deg	Tan(Delta)	Loss Angle(Delta)/deg	dq/mA.h	Pwe/W	Rwe/Ohm	
5.0001856E+005	1.6099075E+001	-2.0990331E+000	1.6235336E+001	7.4284472E+000	2.015998798522778E+002	4.5015416E-001	1.4385267E-002	-1.5164034E-001	-2.5347243E-003	1.000000000000000E+000	10	4.9716188E-003	3.0622209E-004	0	2.124523904054432E-005	6.1077088E-002	-7.9633668E-003	6.1594043E-002	-7.4284472E+000	-2.5347233E+000	1.9440720E+001	1.9605265E+001	-9.7428444E+001	0.0000000E+000	0.0000000E+000	0.0000000E+000	9.7428444E+001	0.0000000E+000	0.0000000E+000	0.0000000E+000	-9.7428444E+001	0.0000000E+000	0.0000000E+000	0.0000000E+000	7.4284472E+000	0.0000000E+000	0.0000000E+000	0.0000000E+000	-7.4284472E+000	7.6697578E+000	8.2571556E+001	2.124523904054432E-005	6.4755877E-006	3.1292721E+004
3.3989941E+005	1.1241850E+001	-1.3335104E+000	1.1320664E+001	6.7648258E+000	2.020218681923143E+002	4.5002708E-001	1.4515719E-002	-3.5113436E-001	-4.8721684E-003	1.000000000000000E+000	10	7.8626191E-003	6.9453690E-004	0	2.397411491118126E-005	8.7719060E-002	-1.0405252E-002	8.8334039E-002	-6.7648258E+000	-4.8721671E+000	4.1073685E+001	4.1361645E+001	-9.6764824E+001	0.0000000E+000	0.0000000E+000	0.0000000E+000	9.6764824E+001	0.0000000E+000	0.0000000E+000	0.0000000E+000	-9.6764824E+001	0.0000000E+000	0.0000000E+000	0.0000000E+000	6.7648258E+000	0.0000000E+000	0.0000000E+000	0.0000000E+000	-6.7648258E+000	8.4302683E+000	8.3235176E+001	2.728875870636935E-006	6.5324666E-006	3.1002740E+004
2.3106258E+005	9.4819603E+000	-7.6110023E-001	9.5124569E+000	4.5891919E+000	2.024448770923918E+002	4.4983435E-001	1.0565225E-002	-9.0500021E-001	-5.7935794E-003	1.000000000000000E+000	10	1.0252208E-002	1.0777665E-003	0	2.342862234987681E-005	1.0478828E-001	-8.4111709E-003	1.0512532E-001	-4.5891919E+000	-5.7935834E+000	7.2177734E+001	7.2409882E+001	-9.4589195E+001	0.0000000E+000	0.0000000E+000	0.0000000E+000	9.4589195E+001	0.0000000E+000	0.0000000E+000	0.0000000E+000	-9.4589195E+001	0.0000000E+000	0.0000000E+000	0.0000000E+000	4.5891919E+000	0.0000000E+000	0.0000000E+000	0.0000000E+000	-4.5891919E+000	1.2458228E+001	8.5410805E+001	-5.454925613044496E-007	4.7526009E-006	4.2576883E+004
1.5707578E+005	8.8043375E+000	-3.6412635E-001	8.8118639E+000	2.3682668E+000	2.028678826324904E+002	4.4978118E-001	1.6066119E-002	-2.7826514E+000	-4.7514639E-003	1.000000000000000E+000	10	1.0939156E-002	1.2414122E-003	0	2.350955808637405E-005	1.1338644E-001	-4.6893922E-003	1.1348337E-001	-2.3682668E+000	-4.7514567E+000	1.1488730E+002	1.1498551E+002	-9.2368263E+001	0.0000000E+000	0.0000000E+000	0.0000000E+000	9.2368263E+001	0.0000000E+000	0.0000000E+000	0.0000000E+000	-9.2368263E+001	0.0000000E+000	0.0000000E+000	0.0000000E+000	2.3682668E+000	0.0000000E+000	0.0000000E+000	0.0000000E+000	-2.3682668E+000	2.4179348E+001	8.7631737E+001	8.093573649724516E-008	7.2262378E-006	2.7995633E+004
1.0678630E+005	8.5896816E+000	-1.3951279E-001	8.5908146E+000	9.3051082E-001	2.032898688925343E+002	4.4978267E-001	1.2126792E-002	-1.0682936E+001	-2.8174093E-003	1.000000000000000E+000	10	1.0951512E-002	1.2747933E-003	0	2.560045830367340E-005	1.1638805E-001	-1.8903636E-003	1.1640339E-001	-9.3051082E-001	-2.8174114E+000	1.7346545E+002	1.7348833E+002	-9.0930511E+001	0.0000000E+000	0.0000000E+000	0.0000000E+000	9.0930511E+001	0.0000000E+000	0.0000000E+000	0.0000000E+000	-9.0930511E+001	0.0000000E+000	0.0000000E+000	0.0000000E+000	9.3051082E-001	0.0000000E+000	0.0000000E+000	0.0000000E+000	-9.3051082E-001	6.1569134E+001	8.9069489E+001	2.090900217299347E-006	5.4544212E-006	3.7089996E+004
7.2595008E+004	8.5327797E+000	-4.4925224E-002	8.5328979E+000	3.0166042E-001	2.037128746459639E+002	4.4976833E-001	1.2933664E-002	-4.8800373E+001	-1.3527282E-003	1.000000000000000E+000	10	1.0746025E-002	1.2593641E-003	0	2.698584200750985E-005	1.1719186E-001	-6.1701704E-004	1.1719348E-001	-3.0166042E-001	-1.3527200E+000	2.5692761E+002	2.5693118E+002	-9.0301659E+001	0.0000000E+000	0.0000000E+000	0.0000000E+000	9.0301659E+001	0.0000000E+000	0.0000000E+000	0.0000000E+000	-9.0301659E+001	0.0000000E+000	0.0000000E+000	0.0000000E+000	3.0166042E-001	0.0000000E+000	0.0000000E+000	0.0000000E+000	-3.0166042E-001	1.8993294E+002	8.9698341E+001	1.385383703836449E-006	5.8171527E-006	3.4775012E+004
4.9352359E+004	8.5141096E+000	-6.4757061E-003	8.5141125E+000	4.3578316E-002	2.041358804527117E+002	4.4977283E-001	1.4970412E-002	-4.9799512E+002	-2.8808494E-004	1.000000000000000E+000	10	1.0622462E-002	1.2476300E-003	0	2.884717307625396E-005	1.1745202E-001	-8.9332272E-005	1.1745206E-001	-4.3578316E-002	-2.8809017E-001	3.7876749E+002	3.7876761E+002	-9.0043579E+001	0.0000000E+000	0.0000000E+000	0.0000000E+000	9.0043579E+001	0.0000000E+000	0.0000000E+000	0.0000000E+000	-9.0043579E+001	0.0000000E+000	0.0000000E+000	0.0000000E+000	4.3578316E-002	0.0000000E+000	0.0000000E+000	0.0000000E+000	-4.3578316E-002	1.3147770E+003	8.9956421E+001	1.861331068744117E-006	6.7332849E-006	3.0044117E+004
3.3551066E+004	8.5065489E+000	1.3347571E-002	8.5065594E+000	-8.9902364E-002	2.045588811395137E+002	4.4976291E-001	9.7248117E-003	3.5539523E+002	8.7500026E-004	1.000000000000000E+000	10	1.0559963E-002	1.2413906E-003	0	3.012370428866254E-005	1.1755620E-001	1.8445667E-004	1.1755634E-001	8.9902364E-002	8.7502378E-001	5.5764697E+002	5.5764764E+002	-8.9910095E+001	0.0000000E+000	0.0000000E+000	0.0000000E+000	8.9910095E+001	0.0000000E+000	0.0000000E+000	0.0000000E+000	-8.9910095E+001	0.0000000E+000	0.0000000E+000	0.0000000E+000	-8.9902364E-002	0.0000000E+000	0.0000000E+000	0.0000000E+000	8.9902364E-002	6.3731067E+002	8.9910095E+001	1.276531212408577E-006	4.3738596E-006	4.6249012E+004
2.2806563E+004	8.5080166E+000	2.9155301E-002	8.5080662E+000	-1.9634062E-001	2.049808915861795E+002	4.4977179E-001	1.4525051E-002	2.3935515E+002	2.8107103E-003	1.000000000000000E+000	10	1.0482585E-002	1.2320761E-003	0	3.218604898007147E-005	1.1753483E-001	4.0276881E-004	1.1753552E-001	1.9634062E-001	2.8107371E+000	8.2021350E+002	8.2021832E+002	-8.9803658E+001	0.0000000E+000	0.0000000E+000	0.0000000E+000	8.9803658E+001	0.0000000E+000	0.0000000E+000	0.0000000E+000	-8.9803658E+001	0.0000000E+000	0.0000000E+000	0.0000000E+000	-1.9634062E-001	0.0000000E+000	0.0000000E+000	0.0000000E+000	1.9634062E-001	2.9181714E+002	8.9803658E+001	2.062344691408928E-006	6.5329582E-006	3.0965246E+004
1.5504379E+004	8.5156355E+000	3.1794928E-002	8.5156946E+000	-2.1392494E-001	2.054028904062725E+002	4.4976935E-001	1.1940449E-002	3.2285529E+002	4.5007351E-003	1.000000000000000E+000	10	1.0360361E-002	1.2166196E-003	0	3.434623620485299E-005	1.1742941E-001	4.3844761E-004	1.1743023E-001	2.1392494E-001	4.5008044E+000	1.2054319E+003	1.2054403E+003	-8.9786072E+001	0.0000000E+000	0.0000000E+000	0.0000000E+000	8.9786072E+001	0.0000000E+000	0.0000000E+000	0.0000000E+000	-8.9786072E+001	0.0000000E+000	0.0000000E+000	0.0000000E+000	-2.1392494E-001	0.0000000E+000	0.0000000E+000	0.0000000E+000	2.1392494E-001	2.6782999E+002	8.9786072E+001	2.160187224781515E-006	5.3704480E-006	3.7667707E+004
1.0540381E+004	8.5253391E+000	4.3768693E-002	8.5254517E+000	-2.9415128E-001	2.058258911729936E+002	4.4976363E-001	1.1198798E-002	3.4498505E+002	9.0926951E-003	1.000000000000000E+000	10	1.0320798E-002	1.2105866E-003	0	3.531180136558639E-005	1.1729430E-001	6.0218346E-004	1.1729584E-001	2.9415128E-001	9.0926962E+000	1.7710905E+003	1.7711138E+003	-8.9705849E+001	0.0000000E+000	0.0000000E+000	0.0000000E+000	8.9705849E+001	0.0000000E+000	0.0000000E+000	0.0000000E+000	-8.9705849E+001	0.0000000E+000	0.0000000E+000	0.0000000E+000	-2.9415128E-001	0.0000000E+000	0.0000000E+000	0.0000000E+000	2.9415128E-001	1.9478168E+002	8.9705849E+001	9.655651607333996E-007	5.0368121E-006	4.0161777E+004
7.1637817E+003	8.5312853E+000	4.2848453E-002	8.5313931E+000	-2.8776613E-001	2.063494776512525E+002	4.4974282E-001	1.1293834E-002	5.1849274E+002	1.3078955E-002	1.000000000000000E+000	10	1.0175269E-002	1.1926856E-003	0	3.877227655066721E-005	1.1721268E-001	5.8870169E-004	1.1721415E-001	2.8776613E-001	1.3078925E+001	2.6040679E+003	2.6041008E+003	-8.9712234E+001	0.0000000E+000	0.0000000E+000	0.0000000E+000	8.9712234E+001	0.0000000E+000	0.0000000E+000	0.0000000E+000	-8.9712234E+001	0.0000000E+000	0.0000000E+000	0.0000000E+000	-2.8776613E-001	0.0000000E+000	0.0000000E+000	0.0000000E+000	2.8776613E-001	1.9910370E+002	8.9712234E+001	3.460475185080822E-006	5.0793210E-006	3.9821980E+004
4.8715591E+003	8.5404329E+000	4.4333074E-002	8.5405483E+000	-2.9741761E-001	2.070390755506814E+002	4.4976810E-001	1.2039212E-002	7.3692670E+002	1.9856766E-002	1.000000000000000E+000	10	1.0120599E-002	1.1850058E-003	0	4.175401637182868E-005	1.1708692E-001	6.0779392E-004	1.1708850E-001	2.9741761E-001	1.9856703E+001	3.8252563E+003	3.8253079E+003	-8.9702583E+001	0.0000000E+000	0.0000000E+000	0.0000000E+000	8.9702583E+001	0.0000000E+000	0.0000000E+000	0.0000000E+000	-8.9702583E+001	0.0000000E+000	0.0000000E+000	0.0000000E+000	-2.9741761E-001	0.0000000E+000	0.0000000E+000	0.0000000E+000	2.9741761E-001	1.9264247E+002	8.9702583E+001	2.981739821161477E-006	5.4148531E-006	3.7358602E+004
3.3110596E+003	8.5483246E+000	5.3175896E-002	8.5484896E+000	-3.5641080E-001	2.075040755194350E+002	4.4977099E-001	1.2398858E-002	9.0393732E+002	3.4977537E-002	1.000000000000000E+000	10	1.0623282E-002	1.2427086E-003	0	4.429263432649248E-005	1.1697747E-001	7.2767265E-004	1.1697973E-001	3.5641080E-001	3.4977180E+001	5.6228354E+003	5.6229443E+003	-8.9643593E+001	0.0000000E+000	0.0000000E+000	0.0000000E+000	8.9643593E+001	0.0000000E+000	0.0000000E+000	0.0000000E+000	-8.9643593E+001	0.0000000E+000	0.0000000E+000	0.0000000E+000	-3.5641080E-001	0.0000000E+000	0.0000000E+000	0.0000000E+000	3.5641080E-001	1.6075563E+002	8.9643593E+001	2.538617954663801E-006	5.5766463E-006	3.6275195E+004
2.2507205E+003	8.5483522E+000	6.4613648E-002	8.5485964E+000	-4.3306816E-001	2.079690788481894E+002	4.4976202E-001	1.2328044E-002	1.0943955E+003	6.2522054E-002	1.000000000000000E+000	10	1.0872090E-002	1.2717983E-003	0	4.482677384158079E-005	1.1697493E-001	8.8416773E-004	1.1697827E-001	4.3306816E-001	6.2521935E+001	8.2716348E+003	8.2718711E+003	-8.9566933E+001	0.0000000E+000	0.0000000E+000	0.0000000E+000	8.9566933E+001	0.0000000E+000	0.0000000E+000	0.0000000E+000	-8.9566933E+001	0.0000000E+000	0.0000000E+000	0.0000000E+000	-4.3306816E-001	0.0000000E+000	0.0000000E+000	0.0000000E+000	4.3306816E-001	1.3229948E+002	8.9566933E+001	5.341395150883032E-007	5.5446858E-006	3.6482840E+004
1.5304901E+003	8.5551758E+000	7.6181084E-002	8.5555153E+000	-5.1018697E-001	2.084340793502779E+002	4.4977096E-001	1.2274006E-002	1.3650309E+003	1.0822920E-001	1.000000000000000E+000	10	1.0994736E-002	1.2851050E-003	0	4.530192409673732E-005	1.1687903E-001	1.0407701E-003	1.1688367E-001	5.1018697E-001	1.0822883E+002	1.2154196E+004	1.2154678E+004	-8.9489815E+001	0.0000000E+000	0.0000000E+000	0.0000000E+000	8.9489815E+001	0.0000000E+000	0.0000000E+000	0.0000000E+000	-8.9489815E+001	0.0000000E+000	0.0000000E+000	0.0000000E+000	-5.1018697E-001	0.0000000E+000	0.0000000E+000	0.0000000E+000	5.1018697E-001	1.1230053E+002	8.9489815E+001	4.751502551565272E-007	5.5204914E-006	3.6644184E+004
1.0403328E+003	8.5671768E+000	1.0460862E-001	8.5678158E+000	-6.9956934E-001	2.091200688228564E+002	4.4976452E-001	1.1994490E-002	1.4624479E+003	2.1800932E-001	1.000000000000000E+000	10	1.0083647E-002	1.1769215E-003	0	4.892545415863990E-005	1.1670716E-001	1.4250405E-003	1.1671586E-001	6.9956934E-001	2.1800943E+002	1.7854404E+004	1.7855734E+004	-8.9300430E+001	0.0000000E+000	0.0000000E+000	0.0000000E+000	8.9300430E+001	0.0000000E+000	0.0000000E+000	0.0000000E+000	-8.9300430E+001	0.0000000E+000	0.0000000E+000	0.0000000E+000	-6.9956934E-001	0.0000000E+000	0.0000000E+000	0.0000000E+000	6.9956934E-001	8.1897430E+001	8.9300430E+001	3.623530061902583E-006	5.3946960E-006	3.7497594E+004
7.0703625E+002	8.5714417E+000	1.4007330E-001	8.5725861E+000	-9.3623620E-001	2.095845490315260E+002	4.4976404E-001	1.2160338E-002	1.6070267E+003	4.2905214E-001	1.000000000000000E+000	10	1.0110509E-002	1.1794001E-003	0	4.975835566474901E-005	1.1663534E-001	1.9060383E-003	1.1665092E-001	9.3623620E-001	4.2905090E+002	2.6254793E+004	2.6258299E+004	-8.9063766E+001	0.0000000E+000	0.0000000E+000	0.0000000E+000	8.9063766E+001	0.0000000E+000	0.0000000E+000	0.0000000E+000	-8.9063766E+001	0.0000000E+000	0.0000000E+000	0.0000000E+000	-9.3623620E-001	0.0000000E+000	0.0000000E+000	0.0000000E+000	9.3623620E-001	6.1192543E+001	8.9063766E+001	8.329015061091108E-007	5.4692828E-006	3.6986145E+004
4.8076920E+002	8.5793152E+000	2.0174135E-001	8.5816870E+000	-1.3470536E+000	2.100498244402843E+002	4.4975954E-001	1.1448502E-002	1.6409243E+003	9.0684503E-001	1.000000000000000E+000	10	1.0123226E-002	1.1796312E-003	0	5.055452206856312E-005	1.1649501E-001	2.7393631E-003	1.1652721E-001	1.3470536E+000	9.0684491E+002	3.8564773E+004	3.8575434E+004	-8.8652946E+001	0.0000000E+000	0.0000000E+000	0.0000000E+000	8.8652946E+001	0.0000000E+000	0.0000000E+000	0.0000000E+000	-8.8652946E+001	0.0000000E+000	0.0000000E+000	0.0000000E+000	-1.3470536E+000	0.0000000E+000	0.0000000E+000	0.0000000E+000	1.3470536E+000	4.2526310E+001	8.8652946E+001	7.961664038141125E-007	5.1490729E-006	3.9285449E+004
3.2677771E+002	8.5884619E+000	2.8563452E-001	8.5932102E+000	-1.9048373E+000	2.105130725423587E+002	4.4976440E-001	1.1543537E-002	1.7051282E+003	1.8839420E+000	1.000000000000000E+000	10	1.0129394E-002	1.1787672E-003	0	5.162490919538282E-005	1.1630664E-001	3.8681189E-003	1.1637095E-001	1.9048373E+000	1.8839432E+003	5.6646387E+004	5.6677707E+004	-8.8095161E+001	0.0000000E+000	0.0000000E+000	0.0000000E+000	8.8095161E+001	0.0000000E+000	0.0000000E+000	0.0000000E+000	-8.8095161E+001	0.0000000E+000	0.0000000E+000	0.0000000E+000	-1.9048373E+000	0.0000000E+000	0.0000000E+000	0.0000000E+000	1.9048373E+000	3.0068010E+001	8.8095161E+001	1.070387126819698E-006	5.1918723E-006	3.8962441E+004
2.2206076E+002	8.5982943E+000	4.0548313E-001	8.6078501E+000	-2.6999857E+000	2.109742753642349E+002	4.4976661E-001	1.1612484E-002	1.7675656E+003	3.9222178E+000	1.000000000000000E+000	10	1.0133895E-002	1.1772853E-003	0	5.330686999856132E-005	1.1604407E-001	5.4724701E-003	1.1617303E-001	2.6999857E+000	3.9222229E+003	8.3170867E+004	8.3263297E+004	-8.7300011E+001	0.0000000E+000	0.0000000E+000	0.0000000E+000	8.7300011E+001	0.0000000E+000	0.0000000E+000	0.0000000E+000	-8.7300011E+001	0.0000000E+000	0.0000000E+000	0.0000000E+000	-2.6999857E+000	0.0000000E+000	0.0000000E+000	0.0000000E+000	2.6999857E+000	2.1205061E+001	8.7300011E+001	1.681960803178500E-006	5.2229075E-006	3.8731301E+004
1.5101485E+002	8.6158781E+000	5.8347601E-001	8.6356125E+000	-3.8742130E+000	2.114378051462263E+002	4.4976586E-001	1.1856596E-002	1.8062485E+003	8.2458839E+000	1.000000000000000E+000	10	1.0134462E-002	1.1735661E-003	0	5.440941123375281E-005	1.1553492E-001	7.8241415E-003	1.1579955E-001	3.8742130E+000	8.2458867E+003	1.2176255E+005	1.2204145E+005	-8.6125786E+001	0.0000000E+000	0.0000000E+000	0.0000000E+000	8.6125786E+001	0.0000000E+000	0.0000000E+000	0.0000000E+000	-8.6125786E+001	0.0000000E+000	0.0000000E+000	0.0000000E+000	-3.8742130E+000	0.0000000E+000	0.0000000E+000	0.0000000E+000	3.8742130E+000	1.4766465E+001	8.6125786E+001	1.102541235191495E-006	5.3326921E-006	3.7933809E+004
1.0266736E+002	8.6375904E+000	8.3221138E-001	8.6775885E+000	-5.5033259E+000	2.119127090887778E+002	4.4976941E-001	1.1511859E-002	1.8627479E+003	1.7132601E+001	1.000000000000000E+000	10	1.0139062E-002	1.1684194E-003	0	5.602450760142529E-005	1.1470821E-001	1.1051864E-002	1.1523939E-001	5.5033259E+000	1.7132604E+004	1.7782067E+005	1.7864411E+005	-8.4496674E+001	0.0000000E+000	0.0000000E+000	0.0000000E+000	8.4496674E+001	0.0000000E+000	0.0000000E+000	0.0000000E+000	-8.4496674E+001	0.0000000E+000	0.0000000E+000	0.0000000E+000	-5.5033259E+000	0.0000000E+000	0.0000000E+000	0.0000000E+000	5.5033259E+000	1.0379083E+001	8.4496674E+001	1.615096367672472E-006	5.1776819E-006	3.9070094E+004
6.9754463E+001	8.6762257E+000	1.1923020E+000	8.7577667E+000	-7.8246751E+000	2.123798297776520E+002	4.4976988E-001	1.1469001E-002	1.9136472E+003	3.5468895E+001	1.000000000000000E+000	10	1.0141342E-002	1.1579826E-003	0	5.798555805783932E-005	1.1312123E-001	1.5545315E-002	1.1418436E-001	7.8246751E+000	3.5468898E+004	2.5810250E+005	2.6052820E+005	-8.2175323E+001	0.0000000E+000	0.0000000E+000	0.0000000E+000	8.2175323E+001	0.0000000E+000	0.0000000E+000	0.0000000E+000	-8.2175323E+001	0.0000000E+000	0.0000000E+000	0.0000000E+000	-7.8246751E+000	0.0000000E+000	0.0000000E+000	0.0000000E+000	7.8246751E+000	7.2768693E+000	8.2175323E+001	1.961050456414034E-006	5.1584111E-006	3.9216133E+004
