EC-Lab ASCII FILE
Nb header lines : 63                          

Potentio Electrochemical Impedance Spectroscopy

Run on channel : 2 (SN 69290)
User : 
CE vs. WE compliance from -10 V to 10 V
Electrode connection : standard
Potential control : Ewe
Ewe ctrl range : min = -1.00 V, max = 1.00 V
Safety Limits :
	Do not start on E overload
Acquisition started on : 11/12/2025 13:57:42.969
Loaded Setting File :  C:\Users\User\Documents\EC-Lab\Data\Yatsuzuka\20251112_2-148_alpha_reproducibility\20251112_2-148_002_alpha_reproducibility_2_K1.mps
Saved on :
	File : 20251112_2-148_002_alpha_reproducibility_2_Na1_02_PEIS_C02.mpr
	Directory : C:\Users\User\Documents\EC-Lab\Data\Yatsuzuka\20251112_2-148_alpha_reproducibility\
	Host : 192.109.209.127
Device : SP-150e (SN .003883)
Address : 192.109.209.128
EC-LAB for windows v11.52 (software)
Internet server v11.52 (firmware)
Command interpretor v11.50 (firmware)
Electrode material : 
Initial state : 
Electrolyte : 
Comments : 
Electrode surface area : 0.001 cm2
Characteristic mass : 0.001 g
Equivalent Weight : 0.000 g/eq.
Density : 0.000 g/cm3
Volume (V) : 0.001 cm3
Cycle Definition : Charge/Discharge alternance
Mode                Single sine         
E (V)               0.4500              
vs.                 Ref                 
tE (h:m:s)          0:00:0.0000         
record              0                   
dI                  0.000               
unit dI             mA                  
dt (s)              0.000               
fi                  500.000             
unit fi             kHz                 
ff                  1.000               
unit ff             Hz                  
Nd                  6                   
Points              per decade          
spacing             Logarithmic         
Va (mV)             10.0                
pw                  0.10                
Na                  2                   
corr                0                   
E range min (V)     -1.000              
E range max (V)     1.000               
I Range             Auto                
Bandwidth           5                   
nc cycles           0                   
goto Ns'            0                   
nr cycles           0                   
inc. cycle          0                   

freq/Hz	Re(Z)/Ohm	-Im(Z)/Ohm	|Z|/Ohm	Phase(Z)/deg	time/s	<Ewe>/V	<I>/mA	Cs/uF	Cp/uF	cycle number	I Range	|Ewe|/V	|I|/A	Ns	(Q-Qo)/mA.h	Re(Y)/Ohm-1	Im(Y)/Ohm-1	|Y|/Ohm-1	Phase(Y)/deg	Re(C)/nF	Im(C)/nF	|C|/nF	Phase(C)/deg	Re(M)	Im(M)	|M|	Phase(M)/deg	Re(Permittivity)	Im(Permittivity)	|Permittivity|	Phase(Permittivity)/deg	Re(Resistivity)/Ohm.cm	Im(Resistivity)/Ohm.cm	|Resistivity|/Ohm.cm	Phase(Resistivity)/deg	Re(Conductivity)/mS/cm	Im(Conductivity)/mS/cm	|Conductivity|/mS/cm	Phase(Conductivity)/deg	Tan(Delta)	Loss Angle(Delta)/deg	dq/mA.h	Pwe/W	Rwe/Ohm	
5.0001856E+005	1.3351988E+001	-2.6742642E+000	1.3617168E+001	1.1325886E+001	2.016140829185169E+002	4.4978085E-001	1.9747518E-002	-1.1902268E-001	-4.5905500E-003	1.000000000000000E+000	10	4.4807512E-003	3.2905160E-004	0	3.258773741764243E-005	7.2006606E-002	-1.4422173E-002	7.3436707E-002	-1.1325886E+001	-4.5905480E+000	2.2919563E+001	2.3374762E+001	-1.0132588E+002	0.0000000E+000	0.0000000E+000	0.0000000E+000	1.0132588E+002	0.0000000E+000	0.0000000E+000	0.0000000E+000	-1.0132588E+002	0.0000000E+000	0.0000000E+000	0.0000000E+000	1.1325886E+001	0.0000000E+000	0.0000000E+000	0.0000000E+000	-1.1325886E+001	4.9927707E+000	7.8674118E+001	3.258773741764243E-005	8.8820552E-006	2.2776576E+004
3.3989941E+005	9.3044777E+000	-1.3922577E+000	9.4080648E+000	8.5102053E+000	2.020360777119204E+002	4.4966674E-001	2.0116702E-002	-3.3631799E-001	-7.3652710E-003	1.000000000000000E+000	10	7.0914128E-003	7.5375888E-004	0	3.578537751976789E-005	1.0512146E-001	-1.5729651E-002	1.0629179E-001	-8.5102053E+000	-7.3652749E+000	4.9222214E+001	4.9770206E+001	-9.8510208E+001	0.0000000E+000	0.0000000E+000	0.0000000E+000	9.8510208E+001	0.0000000E+000	0.0000000E+000	0.0000000E+000	-9.8510208E+001	0.0000000E+000	0.0000000E+000	0.0000000E+000	8.5102053E+000	0.0000000E+000	0.0000000E+000	0.0000000E+000	-8.5102053E+000	6.6830139E+000	8.1489792E+001	3.197640102125455E-006	9.0458116E-006	2.2352906E+004
2.3106258E+005	7.9477715E+000	-6.2660855E-001	7.9724345E+000	4.5079193E+000	2.024590799186408E+002	4.4953522E-001	2.0944566E-002	-1.0992442E+000	-6.7905495E-003	1.000000000000000E+000	10	1.0150193E-002	1.2731610E-003	0	3.885541021871096E-005	1.2504417E-001	-9.8585803E-003	1.2543219E-001	-4.5079193E+000	-6.7905493E+000	8.6129906E+001	8.6397179E+001	-9.4507919E+001	0.0000000E+000	0.0000000E+000	0.0000000E+000	9.4507919E+001	0.0000000E+000	0.0000000E+000	0.0000000E+000	-9.4507919E+001	0.0000000E+000	0.0000000E+000	0.0000000E+000	4.5079193E+000	0.0000000E+000	0.0000000E+000	0.0000000E+000	-4.5079193E+000	1.2683790E+001	8.5492081E+001	3.070032698943077E-006	9.4153202E-006	2.1463096E+004
1.5707578E+005	7.5157971E+000	-2.0000660E-001	7.5184579E+000	1.5243666E+000	2.028810690853425E+002	4.4952118E-001	1.9954510E-002	-5.0660157E+000	-3.5850704E-003	1.000000000000000E+000	10	1.0959514E-002	1.4576812E-003	0	4.222392960703776E-005	1.3295892E-001	-3.5382358E-003	1.3300599E-001	-1.5243666E+000	-3.5850744E+000	1.3471886E+002	1.3476656E+002	-9.1524368E+001	0.0000000E+000	0.0000000E+000	0.0000000E+000	9.1524368E+001	0.0000000E+000	0.0000000E+000	0.0000000E+000	-9.1524368E+001	0.0000000E+000	0.0000000E+000	0.0000000E+000	1.5243666E+000	0.0000000E+000	0.0000000E+000	0.0000000E+000	-1.5243666E+000	3.7577744E+001	8.8475632E+001	3.368519388326800E-006	8.9699752E-006	2.2527297E+004
1.0678630E+005	7.4366965E+000	-2.3825396E-002	7.4367347E+000	1.8356134E-001	2.033030690520682E+002	4.4952404E-001	1.8121686E-002	-6.2555359E+001	-6.4206676E-004	1.000000000000000E+000	10	1.0951737E-002	1.4726539E-003	0	4.661511303402303E-005	1.3446693E-001	-4.3079985E-004	1.3446762E-001	-1.8356134E-001	-6.4207333E-001	2.0041032E+002	2.0041135E+002	-9.0183563E+001	0.0000000E+000	0.0000000E+000	0.0000000E+000	9.0183563E+001	0.0000000E+000	0.0000000E+000	0.0000000E+000	-9.0183563E+001	0.0000000E+000	0.0000000E+000	0.0000000E+000	1.8356134E-001	0.0000000E+000	0.0000000E+000	0.0000000E+000	-1.8356134E-001	3.1213318E+002	8.9816437E+001	4.391183426985263E-006	8.1461340E-006	2.4805863E+004
7.2595008E+004	7.4285808E+000	4.0966008E-002	7.4286938E+000	-3.1596285E-001	2.037260747788387E+002	4.4953278E-001	1.7692847E-002	5.3516754E+001	1.6274668E-003	1.000000000000000E+000	10	1.0733066E-002	1.4448120E-003	0	4.725483675476992E-005	1.3461113E-001	7.4233295E-004	1.3461317E-001	3.1596285E-001	1.6274713E+000	2.9511707E+002	2.9512155E+002	-8.9684036E+001	0.0000000E+000	0.0000000E+000	0.0000000E+000	8.9684036E+001	0.0000000E+000	0.0000000E+000	0.0000000E+000	-8.9684036E+001	0.0000000E+000	0.0000000E+000	0.0000000E+000	-3.1596285E-001	0.0000000E+000	0.0000000E+000	0.0000000E+000	3.1596285E-001	1.8133524E+002	8.9684036E+001	6.397237207468904E-007	7.9535148E-006	2.5407600E+004
4.9352359E+004	7.4395838E+000	5.6689888E-002	7.4397998E+000	-4.3658739E-001	2.041480758122198E+002	4.4954276E-001	1.9214295E-002	5.6886158E+001	3.3028990E-003	1.000000000000000E+000	10	1.0604407E-002	1.4253618E-003	0	4.827794439750465E-005	1.3440831E-001	1.0241960E-003	1.3441221E-001	4.3658739E-001	3.3028769E+000	4.3344934E+002	4.3346191E+002	-8.9563416E+001	0.0000000E+000	0.0000000E+000	0.0000000E+000	8.9563416E+001	0.0000000E+000	0.0000000E+000	0.0000000E+000	-8.9563416E+001	0.0000000E+000	0.0000000E+000	0.0000000E+000	-4.3658739E-001	0.0000000E+000	0.0000000E+000	0.0000000E+000	4.3658739E-001	1.3123300E+002	8.9563416E+001	1.023107642734732E-006	8.6376467E-006	2.3396266E+004
3.3551066E+004	7.4410791E+000	5.2540373E-002	7.4412646E+000	-4.0455040E-001	2.045700777255843E+002	4.4954348E-001	2.0827102E-002	9.0286049E+001	4.5010461E-003	1.000000000000000E+000	10	1.0531886E-002	1.4153356E-003	0	4.866613803536812E-005	1.3438241E-001	9.4885461E-004	1.3438576E-001	4.0455040E-001	4.5010266E+000	6.3746490E+002	6.3748077E+002	-8.9595451E+001	0.0000000E+000	0.0000000E+000	0.0000000E+000	8.9595451E+001	0.0000000E+000	0.0000000E+000	0.0000000E+000	-8.9595451E+001	0.0000000E+000	0.0000000E+000	0.0000000E+000	-4.0455040E-001	0.0000000E+000	0.0000000E+000	0.0000000E+000	4.0455040E-001	1.4162593E+002	8.9595451E+001	3.881936378634718E-007	9.3626877E-006	2.1584543E+004
2.2806563E+004	7.4517174E+000	5.1818464E-002	7.4518976E+000	-3.9842245E-001	2.049920700122748E+002	4.4953954E-001	2.0027224E-002	1.3467152E+002	6.5119504E-003	1.000000000000000E+000	10	1.0505888E-002	1.4098271E-003	0	5.031036265843108E-005	1.3419075E-001	9.3314855E-004	1.3419400E-001	3.9842245E-001	6.5119467E+000	9.3644635E+002	9.3646899E+002	-8.9601578E+001	0.0000000E+000	0.0000000E+000	0.0000000E+000	8.9601578E+001	0.0000000E+000	0.0000000E+000	0.0000000E+000	-8.9601578E+001	0.0000000E+000	0.0000000E+000	0.0000000E+000	-3.9842245E-001	0.0000000E+000	0.0000000E+000	0.0000000E+000	3.9842245E-001	1.4380429E+002	8.9601578E+001	1.644224623062961E-006	9.0030289E-006	2.2446424E+004
1.5504379E+004	7.4535279E+000	4.3424938E-002	7.4536543E+000	-3.3380672E-001	2.054140761656599E+002	4.4954205E-001	1.7828953E-002	2.3638861E+002	8.0235489E-003	1.000000000000000E+000	10	1.0382150E-002	1.3928940E-003	0	5.157646538776397E-005	1.3416010E-001	7.8162918E-004	1.3416238E-001	3.3380672E-001	8.0236006E+000	1.3771750E+003	1.3771984E+003	-8.9666191E+001	0.0000000E+000	0.0000000E+000	0.0000000E+000	8.9666191E+001	0.0000000E+000	0.0000000E+000	0.0000000E+000	-8.9666191E+001	0.0000000E+000	0.0000000E+000	0.0000000E+000	-3.3380672E-001	0.0000000E+000	0.0000000E+000	0.0000000E+000	3.3380672E-001	1.7164165E+002	8.9666191E+001	1.266102729332891E-006	8.0148639E-006	2.5214158E+004
1.0540381E+004	7.4616718E+000	4.3930445E-002	7.4618011E+000	-3.3732387E-001	2.058360841057292E+002	4.4954374E-001	1.6803464E-002	3.4371478E+002	1.1913575E-002	1.000000000000000E+000	10	1.0286512E-002	1.3785561E-003	0	5.281806271465677E-005	1.3401358E-001	7.8900228E-004	1.3401590E-001	3.3732387E-001	1.1913652E+001	2.0235441E+003	2.0235791E+003	-8.9662674E+001	0.0000000E+000	0.0000000E+000	0.0000000E+000	8.9662674E+001	0.0000000E+000	0.0000000E+000	0.0000000E+000	-8.9662674E+001	0.0000000E+000	0.0000000E+000	0.0000000E+000	-3.3732387E-001	0.0000000E+000	0.0000000E+000	0.0000000E+000	3.3732387E-001	1.6985196E+002	8.9662674E+001	1.241597326892793E-006	7.5538919E-006	2.6753041E+004
7.1637817E+003	7.4721494E+000	4.4601865E-002	7.4722824E+000	-3.4199908E-001	2.063596579439618E+002	4.4952643E-001	1.5084377E-002	4.9810947E+002	1.7746972E-002	1.000000000000000E+000	10	1.0251636E-002	1.3719550E-003	0	5.449343774386216E-005	1.3382554E-001	7.9881551E-004	1.3382792E-001	3.4199908E-001	1.7747168E+001	2.9731497E+003	2.9732026E+003	-8.9657997E+001	0.0000000E+000	0.0000000E+000	0.0000000E+000	8.9657997E+001	0.0000000E+000	0.0000000E+000	0.0000000E+000	-8.9657997E+001	0.0000000E+000	0.0000000E+000	0.0000000E+000	-3.4199908E-001	0.0000000E+000	0.0000000E+000	0.0000000E+000	3.4199908E-001	1.6752997E+002	8.9657997E+001	1.675375029205397E-006	6.7808264E-006	2.9800795E+004
4.8715591E+003	7.4783759E+000	4.4020817E-002	7.4785056E+000	-3.3726278E-001	2.070502936567791E+002	4.4954628E-001	1.7200606E-002	7.4215405E+002	2.5714649E-002	1.000000000000000E+000	10	1.0116232E-002	1.3527076E-003	0	5.484818160552337E-005	1.3371424E-001	7.8709732E-004	1.3371655E-001	3.3726278E-001	2.5714821E+001	4.3684746E+003	4.3685503E+003	-8.9662735E+001	0.0000000E+000	0.0000000E+000	0.0000000E+000	8.9662735E+001	0.0000000E+000	0.0000000E+000	0.0000000E+000	-8.9662735E+001	0.0000000E+000	0.0000000E+000	0.0000000E+000	-3.3726278E-001	0.0000000E+000	0.0000000E+000	0.0000000E+000	3.3726278E-001	1.6988272E+002	8.9662735E+001	3.547438616612091E-007	7.7324685E-006	2.6135490E+004
3.3110596E+003	7.4861507E+000	5.3058751E-002	7.4863386E+000	-4.0608206E-001	2.075152929321994E+002	4.4953573E-001	1.7463509E-002	9.0593311E+002	4.5506269E-002	1.000000000000000E+000	10	1.0679367E-002	1.4265140E-003	0	5.769715962791492E-005	1.3357329E-001	9.4671245E-004	1.3357665E-001	4.0608206E-001	4.5506275E+001	6.4205576E+003	6.4207188E+003	-8.9593918E+001	0.0000000E+000	0.0000000E+000	0.0000000E+000	8.9593918E+001	0.0000000E+000	0.0000000E+000	0.0000000E+000	-8.9593918E+001	0.0000000E+000	0.0000000E+000	0.0000000E+000	-4.0608206E-001	0.0000000E+000	0.0000000E+000	0.0000000E+000	4.0608206E-001	1.4109172E+002	8.9593918E+001	2.848978022391545E-006	7.8504709E-006	2.5741432E+004
2.2507205E+003	7.4942942E+000	6.4339474E-002	7.4945703E+000	-4.9187949E-001	2.079792947142341E+002	4.4953227E-001	1.8550526E-002	1.0990592E+003	8.0999553E-002	1.000000000000000E+000	10	1.0975209E-002	1.4644214E-003	0	6.112709298619302E-005	1.3342501E-001	1.1454708E-003	1.3342993E-001	4.9187949E-001	8.1000015E+001	9.4348682E+003	9.4352158E+003	-8.9508118E+001	0.0000000E+000	0.0000000E+000	0.0000000E+000	8.9508118E+001	0.0000000E+000	0.0000000E+000	0.0000000E+000	-8.9508118E+001	0.0000000E+000	0.0000000E+000	0.0000000E+000	-4.9187949E-001	0.0000000E+000	0.0000000E+000	0.0000000E+000	4.9187949E-001	1.1648050E+002	8.9508118E+001	3.429933358278100E-006	8.3390605E-006	2.4232857E+004
1.5304901E+003	7.4990826E+000	8.1967801E-002	7.4995303E+000	-6.2623954E-001	2.086652606134812E+002	4.4954291E-001	1.8543061E-002	1.2686632E+003	1.5155308E-001	1.000000000000000E+000	10	1.0155945E-002	1.3542108E-003	0	6.741128431989474E-005	1.3333373E-001	1.4573878E-003	1.3334168E-001	6.2623954E-001	1.5155220E+002	1.3865310E+004	1.3866138E+004	-8.9373764E+001	0.0000000E+000	0.0000000E+000	0.0000000E+000	8.9373764E+001	0.0000000E+000	0.0000000E+000	0.0000000E+000	-8.9373764E+001	0.0000000E+000	0.0000000E+000	0.0000000E+000	-6.2623954E-001	0.0000000E+000	0.0000000E+000	0.0000000E+000	6.2623954E-001	9.1488152E+001	8.9373764E+001	6.284191333701727E-006	8.3359018E-006	2.4243188E+004
1.0403328E+003	7.5034828E+000	1.0167203E-001	7.5041718E+000	-7.7630907E-001	2.091302913555701E+002	4.4953623E-001	1.7392652E-002	1.5046876E+003	2.7621281E-001	1.000000000000000E+000	10	1.0223185E-002	1.3623335E-003	0	6.990343077061051E-005	1.3324697E-001	1.8054936E-003	1.3325921E-001	7.7630907E-001	2.7621179E+002	2.0384742E+004	2.0386613E+004	-8.9223694E+001	0.0000000E+000	0.0000000E+000	0.0000000E+000	8.9223694E+001	0.0000000E+000	0.0000000E+000	0.0000000E+000	-8.9223694E+001	0.0000000E+000	0.0000000E+000	0.0000000E+000	-7.7630907E-001	0.0000000E+000	0.0000000E+000	0.0000000E+000	7.7630907E-001	7.3800858E+001	8.9223694E+001	2.492146450715761E-006	7.8186276E-006	2.5846330E+004
7.0703625E+002	7.5152154E+000	1.3906863E-001	7.5165019E+000	-1.0601342E+000	2.095947917776211E+002	4.4953749E-001	1.6218005E-002	1.6186361E+003	5.5408460E-001	1.000000000000000E+000	10	1.0262706E-002	1.3653567E-003	0	7.212355927695171E-005	1.3301784E-001	2.4614874E-003	1.3304061E-001	1.0601342E+000	5.5408502E+002	2.9942520E+004	2.9947646E+004	-8.8939865E+001	0.0000000E+000	0.0000000E+000	0.0000000E+000	8.8939865E+001	0.0000000E+000	0.0000000E+000	0.0000000E+000	-8.8939865E+001	0.0000000E+000	0.0000000E+000	0.0000000E+000	-1.0601342E+000	0.0000000E+000	0.0000000E+000	0.0000000E+000	1.0601342E+000	5.4039616E+001	8.8939865E+001	2.220128506341204E-006	7.2906009E-006	2.7718422E+004
4.8076920E+002	7.5165024E+000	1.9668959E-001	7.5190754E+000	-1.4989567E+000	2.100600224129885E+002	4.4952852E-001	1.7827086E-002	1.6830698E+003	1.1516911E+000	1.000000000000000E+000	10	1.0269873E-002	1.3658425E-003	0	7.417808842457210E-005	1.3294956E-001	3.4789841E-003	1.3299507E-001	1.4989567E+000	1.1516895E+003	4.4011930E+004	4.4026996E+004	-8.8501045E+001	0.0000000E+000	0.0000000E+000	0.0000000E+000	8.8501045E+001	0.0000000E+000	0.0000000E+000	0.0000000E+000	-8.8501045E+001	0.0000000E+000	0.0000000E+000	0.0000000E+000	-1.4989567E+000	0.0000000E+000	0.0000000E+000	0.0000000E+000	1.4989567E+000	3.8215050E+001	8.8501045E+001	2.054529147620392E-006	8.0137834E-006	2.5216039E+004
3.2677771E+002	7.5238237E+000	2.7720651E-001	7.5289288E+000	-2.1100419E+000	2.105232819017328E+002	4.4952735E-001	1.6980592E-002	1.7569698E+003	2.3817971E+000	1.000000000000000E+000	10	1.0274992E-002	1.3647350E-003	0	7.674513012252282E-005	1.3273096E-001	4.8903180E-003	1.3282102E-001	2.1100419E+000	2.3817937E+003	6.4645746E+004	6.4689609E+004	-8.7889961E+001	0.0000000E+000	0.0000000E+000	0.0000000E+000	8.7889961E+001	0.0000000E+000	0.0000000E+000	0.0000000E+000	-8.7889961E+001	0.0000000E+000	0.0000000E+000	0.0000000E+000	-2.1100419E+000	0.0000000E+000	0.0000000E+000	0.0000000E+000	2.1100419E+000	2.7141584E+001	8.7889961E+001	2.567041697950720E-006	7.6332408E-006	2.6473008E+004
2.2206076E+002	7.5382400E+000	3.9836749E-001	7.5487585E+000	-3.0250516E+000	2.109844911502878E+002	4.4953477E-001	1.5740687E-002	1.7991377E+003	5.0105009E+000	1.000000000000000E+000	10	1.0280548E-002	1.3618859E-003	0	7.770369459122755E-005	1.3228752E-001	6.9908956E-003	1.3247211E-001	3.0250516E+000	5.0105059E+003	9.4812836E+004	9.4945141E+004	-8.6974945E+001	0.0000000E+000	0.0000000E+000	0.0000000E+000	8.6974945E+001	0.0000000E+000	0.0000000E+000	0.0000000E+000	-8.6974945E+001	0.0000000E+000	0.0000000E+000	0.0000000E+000	-3.0250516E+000	0.0000000E+000	0.0000000E+000	0.0000000E+000	3.0250516E+000	1.8922829E+001	8.6974945E+001	9.585644687047287E-007	7.0759861E-006	2.8558777E+004
1.5101485E+002	7.5610027E+000	5.6603903E-001	7.5821609E+000	-4.2813454E+000	2.114460165054916E+002	4.4953001E-001	1.7241625E-002	1.8618904E+003	1.0376739E+001	1.000000000000000E+000	10	1.0286779E-002	1.3567081E-003	0	8.047978276149904E-005	1.3152049E-001	9.8460130E-003	1.3188852E-001	4.2813454E+000	1.0376729E+004	1.3860978E+005	1.3899766E+005	-8.5718658E+001	0.0000000E+000	0.0000000E+000	0.0000000E+000	8.5718658E+001	0.0000000E+000	0.0000000E+000	0.0000000E+000	-8.5718658E+001	0.0000000E+000	0.0000000E+000	0.0000000E+000	-4.2813454E+000	0.0000000E+000	0.0000000E+000	0.0000000E+000	4.2813454E+000	1.3357741E+001	8.5718658E+001	2.776088170271487E-006	7.7506274E-006	2.6072369E+004
1.0266736E+002	7.5877252E+000	8.0062705E-001	7.6298475E+000	-6.0233383E+000	2.119208772480633E+002	4.4954327E-001	1.7073818E-002	1.9362323E+003	2.1319954E+001	1.000000000000000E+000	10	1.0288219E-002	1.3484174E-003	0	8.350008900000506E-005	1.3034065E-001	1.3753034E-002	1.3106422E-001	6.0233383E+000	2.1319953E+004	2.0205406E+005	2.0317575E+005	-8.3976662E+001	0.0000000E+000	0.0000000E+000	0.0000000E+000	8.3976662E+001	0.0000000E+000	0.0000000E+000	0.0000000E+000	-8.3976662E+001	0.0000000E+000	0.0000000E+000	0.0000000E+000	-6.0233383E+000	0.0000000E+000	0.0000000E+000	0.0000000E+000	6.0233383E+000	9.4772282E+000	8.3976662E+001	3.020306238506025E-006	7.6754195E-006	2.6329395E+004
6.9754463E+001	7.6248951E+000	1.1454027E+000	7.7104459E+000	-8.5430260E+000	2.123880682302552E+002	4.4954005E-001	1.6915336E-002	1.9920028E+003	4.3958954E+001	1.000000000000000E+000	10	1.0290199E-002	1.3345790E-003	0	8.593410201156641E-005	1.2825517E-001	1.9266339E-002	1.2969418E-001	8.5430260E+000	4.3958973E+004	2.9263281E+005	2.9591613E+005	-8.1456970E+001	0.0000000E+000	0.0000000E+000	0.0000000E+000	8.1456970E+001	0.0000000E+000	0.0000000E+000	0.0000000E+000	-8.1456970E+001	0.0000000E+000	0.0000000E+000	0.0000000E+000	-8.5430260E+000	0.0000000E+000	0.0000000E+000	0.0000000E+000	8.5430260E+000	6.6569557E+000	8.1456970E+001	2.434013011561349E-006	7.6041210E-006	2.6575887E+004
