EC-Lab ASCII FILE
Nb header lines : 63                          

Potentio Electrochemical Impedance Spectroscopy

Run on channel : 1 (SN 69187)
User : 
CE vs. WE compliance from -10 V to 10 V
Electrode connection : standard
Potential control : Ewe
Ewe ctrl range : min = -1.00 V, max = 1.00 V
Safety Limits :
	Do not start on E overload
Acquisition started on : 11/12/2025 20:57:12.203
Loaded Setting File :  C:\Users\User\Documents\EC-Lab\Data\Yatsuzuka\20251030_2-147_gamma_reproducibility\20251030_2-147_001_gamma1_K_1.mps
Saved on :
	File : 20251112_2-148_005_gamma_reproducibility_Na2_02_PEIS_C01.mpr
	Directory : C:\Users\User\Documents\EC-Lab\Data\Yatsuzuka\20251112_2-148_alpha_reproducibility\
	Host : 192.109.209.127
Device : SP-150e (SN .003883)
Address : 192.109.209.128
EC-Lab for windows v11.52 (software)
Internet server v11.52 (firmware)
Command interpretor v11.50 (firmware)
Electrode material : 
Initial state : 
Electrolyte : 
Comments : 
Electrode surface area : 0.001 cm2
Characteristic mass : 0.001 g
Equivalent Weight : 0.000 g/eq.
Density : 0.000 g/cm3
Volume (V) : 0.001 cm3
Cycle Definition : Charge/Discharge alternance
Mode                Single sine         
E (V)               0.4500              
vs.                 Ref                 
tE (h:m:s)          0:00:0.0000         
record              0                   
dI                  0.000               
unit dI             mA                  
dt (s)              0.000               
fi                  500.000             
unit fi             kHz                 
ff                  1.000               
unit ff             Hz                  
Nd                  6                   
Points              per decade          
spacing             Logarithmic         
Va (mV)             10.0                
pw                  0.10                
Na                  2                   
corr                0                   
E range min (V)     -1.000              
E range max (V)     1.000               
I Range             Auto                
Bandwidth           5                   
nc cycles           0                   
goto Ns'            0                   
nr cycles           0                   
inc. cycle          0                   

freq/Hz	Re(Z)/Ohm	-Im(Z)/Ohm	|Z|/Ohm	Phase(Z)/deg	time/s	<Ewe>/V	<I>/mA	Cs/uF	Cp/uF	cycle number	I Range	|Ewe|/V	|I|/A	Ns	(Q-Qo)/mA.h	Re(Y)/Ohm-1	Im(Y)/Ohm-1	|Y|/Ohm-1	Phase(Y)/deg	Re(C)/nF	Im(C)/nF	|C|/nF	Phase(C)/deg	Re(M)	Im(M)	|M|	Phase(M)/deg	Re(Permittivity)	Im(Permittivity)	|Permittivity|	Phase(Permittivity)/deg	Re(Resistivity)/Ohm.cm	Im(Resistivity)/Ohm.cm	|Resistivity|/Ohm.cm	Phase(Resistivity)/deg	Re(Conductivity)/mS/cm	Im(Conductivity)/mS/cm	|Conductivity|/mS/cm	Phase(Conductivity)/deg	Tan(Delta)	Loss Angle(Delta)/deg	dq/mA.h	
5.0001856E+005	2.2402311E+001	-1.7826102E+000	2.2473124E+001	4.5495877E+000	2.021058705963223E+002	4.5009935E-001	1.0140337E-002	-1.7855731E-001	-1.1234753E-003	1.000000000000000E+000	10	7.0135444E-003	3.1208587E-004	0	1.243927768732667E-005	4.4357389E-002	-3.5296325E-003	4.4497598E-002	-4.5495877E+000	-1.1234760E+000	1.4118871E+001	1.4163499E+001	-9.4549591E+001	0.0000000E+000	0.0000000E+000	0.0000000E+000	9.4549591E+001	0.0000000E+000	0.0000000E+000	0.0000000E+000	-9.4549591E+001	0.0000000E+000	0.0000000E+000	0.0000000E+000	4.5495877E+000	0.0000000E+000	0.0000000E+000	0.0000000E+000	-4.5495877E+000	1.2567140E+001	8.5450409E+001	1.243927768732667E-005
3.3989941E+005	1.6891094E+001	-1.2975577E+000	1.6940859E+001	4.3927798E+000	2.025278818430525E+002	4.4991878E-001	1.0170161E-002	-3.6086357E-001	-2.1170229E-003	1.000000000000000E+000	10	1.0106803E-002	5.9659331E-004	0	1.349321949167966E-005	5.8855485E-002	-4.5212223E-003	5.9028886E-002	-4.3927798E+000	-2.1170213E+000	2.7558569E+001	2.7639763E+001	-9.4392776E+001	0.0000000E+000	0.0000000E+000	0.0000000E+000	9.4392776E+001	0.0000000E+000	0.0000000E+000	0.0000000E+000	-9.4392776E+001	0.0000000E+000	0.0000000E+000	0.0000000E+000	4.3927798E+000	0.0000000E+000	0.0000000E+000	0.0000000E+000	-4.3927798E+000	1.3017606E+001	8.5607224E+001	1.053941804352992E-006
2.3106258E+005	1.4794302E+001	-8.1007564E-001	1.4816463E+001	3.1341536E+000	2.029508663431188E+002	4.4976550E-001	1.1174561E-002	-8.5028583E-001	-2.5417157E-003	1.000000000000000E+000	10	1.0849240E-002	7.3224225E-004	0	1.328657966078026E-005	6.7391545E-002	-3.6900861E-003	6.7492492E-002	-3.1341536E+000	-2.5417173E+000	4.6419014E+001	4.6488548E+001	-9.3134155E+001	0.0000000E+000	0.0000000E+000	0.0000000E+000	9.3134155E+001	0.0000000E+000	0.0000000E+000	0.0000000E+000	-9.3134155E+001	0.0000000E+000	0.0000000E+000	0.0000000E+000	3.1341536E+000	0.0000000E+000	0.0000000E+000	0.0000000E+000	-3.1341536E+000	1.8262865E+001	8.6865845E+001	-2.066398308993996E-007
1.5707578E+005	1.3977007E+001	-4.1605276E-001	1.3983198E+001	1.7050167E+000	2.035088807429565E+002	4.4974440E-001	1.0729197E-002	-2.4353561E+000	-2.1559878E-003	1.000000000000000E+000	10	1.0116104E-002	7.2344707E-004	0	1.398146495162594E-005	7.1482733E-002	-2.1278225E-003	7.1514398E-002	-1.7050167E+000	-2.1559885E+000	7.2428932E+001	7.2461014E+001	-9.1705017E+001	0.0000000E+000	0.0000000E+000	0.0000000E+000	9.1705017E+001	0.0000000E+000	0.0000000E+000	0.0000000E+000	-9.1705017E+001	0.0000000E+000	0.0000000E+000	0.0000000E+000	1.7050167E+000	0.0000000E+000	0.0000000E+000	0.0000000E+000	-1.7050167E+000	3.3594315E+001	8.8294983E+001	6.948852908456808E-007
1.0678630E+005	1.3684849E+001	-1.6441812E-001	1.3685837E+001	6.8835330E-001	2.039308727363386E+002	4.4973895E-001	1.1068345E-002	-9.0647316E+000	-1.3083128E-003	1.000000000000000E+000	10	1.0759366E-002	7.8616792E-004	0	1.693517939902894E-005	7.3062964E-002	-8.7782298E-004	7.3068239E-002	-6.8835330E-001	-1.3083149E+000	1.0889349E+002	1.0890134E+002	-9.0688354E+001	0.0000000E+000	0.0000000E+000	0.0000000E+000	9.0688354E+001	0.0000000E+000	0.0000000E+000	0.0000000E+000	-9.0688354E+001	0.0000000E+000	0.0000000E+000	0.0000000E+000	6.8835330E-001	0.0000000E+000	0.0000000E+000	0.0000000E+000	-6.8835330E-001	8.3232002E+001	8.9311646E+001	2.953714447402994E-006
7.2595008E+004	1.3589257E+001	-4.2781815E-002	1.3589325E+001	1.8037847E-001	2.043528911296889E+002	4.4974127E-001	1.1075798E-002	-5.1245319E+001	-5.0789840E-004	1.000000000000000E+000	10	1.0689172E-002	7.8658597E-004	0	1.754390085104387E-005	7.3586807E-002	-2.3166662E-004	7.3587172E-002	-1.8037847E-001	-5.0790775E-001	1.6132935E+002	1.6133014E+002	-9.0180382E+001	0.0000000E+000	0.0000000E+000	0.0000000E+000	9.0180382E+001	0.0000000E+000	0.0000000E+000	0.0000000E+000	-9.0180382E+001	0.0000000E+000	0.0000000E+000	0.0000000E+000	1.8037847E-001	0.0000000E+000	0.0000000E+000	0.0000000E+000	-1.8037847E-001	3.1764096E+002	8.9819618E+001	6.087214520149350E-007
4.9352359E+004	1.3553626E+001	4.0337734E-002	1.3553686E+001	-1.7052080E-001	2.047748716297356E+002	4.4973925E-001	1.0902497E-002	7.9946732E+001	7.0812320E-004	1.000000000000000E+000	10	1.0566986E-002	7.7963929E-004	0	1.948163859543921E-005	7.3780335E-002	2.1958195E-004	7.3780663E-002	1.7052080E-001	7.0813900E-001	2.3793199E+002	2.3793304E+002	-8.9829475E+001	0.0000000E+000	0.0000000E+000	0.0000000E+000	8.9829475E+001	0.0000000E+000	0.0000000E+000	0.0000000E+000	-8.9829475E+001	0.0000000E+000	0.0000000E+000	0.0000000E+000	-1.7052080E-001	0.0000000E+000	0.0000000E+000	0.0000000E+000	1.7052080E-001	3.3600366E+002	8.9829475E+001	1.937737744395337E-006
3.3551066E+004	1.3546370E+001	9.5327564E-002	1.3546705E+001	-4.0319118E-001	2.051968852498248E+002	4.4973689E-001	1.1331091E-002	4.9761715E+001	2.4641375E-003	1.000000000000000E+000	10	1.0474172E-002	7.7318965E-004	0	1.940792380731243E-005	7.3816866E-002	5.1945884E-004	7.3818691E-002	4.0319118E-001	2.4641340E+000	3.5016229E+002	3.5017096E+002	-8.9596809E+001	0.0000000E+000	0.0000000E+000	0.0000000E+000	8.9596809E+001	0.0000000E+000	0.0000000E+000	0.0000000E+000	-8.9596809E+001	0.0000000E+000	0.0000000E+000	0.0000000E+000	-4.0319118E-001	0.0000000E+000	0.0000000E+000	0.0000000E+000	4.0319118E-001	1.4210338E+002	8.9596809E+001	-7.371478812678357E-008
2.2806563E+004	1.3543089E+001	1.2675673E-001	1.3543682E+001	-5.3624499E-001	2.056188800431701E+002	4.4974220E-001	1.0949084E-002	5.5054050E+001	4.8223399E-003	1.000000000000000E+000	10	1.0417805E-002	7.6920033E-004	0	2.029685542387112E-005	7.3831931E-002	6.9103099E-004	7.3835164E-002	5.3624499E-001	4.8223605E+000	5.1523401E+002	5.1525659E+002	-8.9463753E+001	0.0000000E+000	0.0000000E+000	0.0000000E+000	8.9463753E+001	0.0000000E+000	0.0000000E+000	0.0000000E+000	-8.9463753E+001	0.0000000E+000	0.0000000E+000	0.0000000E+000	-5.3624499E-001	0.0000000E+000	0.0000000E+000	0.0000000E+000	5.3624499E-001	1.0684315E+002	8.9463753E+001	8.889316165586932E-007
1.5504379E+004	1.3559037E+001	1.7174803E-001	1.3560125E+001	-7.2570866E-001	2.060418670232903E+002	4.4974473E-001	1.1165243E-002	5.9768726E+001	9.5880460E-003	1.000000000000000E+000	10	1.0250490E-002	7.5592886E-004	0	2.139673149564058E-005	7.3739715E-002	9.3403761E-004	7.3745631E-002	7.2570866E-001	9.5880384E+000	7.5695007E+002	7.5701080E+002	-8.9274292E+001	0.0000000E+000	0.0000000E+000	0.0000000E+000	8.9274292E+001	0.0000000E+000	0.0000000E+000	0.0000000E+000	-8.9274292E+001	0.0000000E+000	0.0000000E+000	0.0000000E+000	-7.2570866E-001	0.0000000E+000	0.0000000E+000	0.0000000E+000	7.2570866E-001	7.8947266E+001	8.9274292E+001	1.099876071769458E-006
1.0540381E+004	1.3595119E+001	2.4381776E-001	1.3597304E+001	-1.0274446E+000	2.064638747233112E+002	4.4974223E-001	1.1342271E-002	6.1929634E+001	1.9912397E-002	1.000000000000000E+000	10	1.0252978E-002	7.5404486E-004	0	2.291937762352690E-005	7.3532164E-002	1.3187415E-003	7.3543988E-002	1.0274446E+000	1.9912361E+001	1.1103020E+003	1.1104806E+003	-8.8972557E+001	0.0000000E+000	0.0000000E+000	0.0000000E+000	8.8972557E+001	0.0000000E+000	0.0000000E+000	0.0000000E+000	-8.8972557E+001	0.0000000E+000	0.0000000E+000	0.0000000E+000	-1.0274446E+000	0.0000000E+000	0.0000000E+000	0.0000000E+000	1.0274446E+000	5.5759346E+001	8.8972557E+001	1.522646127886319E-006
7.1637817E+003	1.3610295E+001	3.5574099E-001	1.3614944E+001	-1.4972355E+000	2.069874725615518E+002	4.4972253E-001	1.0060220E-002	6.2451641E+001	4.2636350E-002	1.000000000000000E+000	10	1.0087924E-002	7.4094499E-004	0	2.498602755391686E-005	7.3423631E-002	1.9191204E-003	7.3448710E-002	1.4972355E+000	4.2636421E+001	1.6312240E+003	1.6317811E+003	-8.8502762E+001	0.0000000E+000	0.0000000E+000	0.0000000E+000	8.8502762E+001	0.0000000E+000	0.0000000E+000	0.0000000E+000	-8.8502762E+001	0.0000000E+000	0.0000000E+000	0.0000000E+000	-1.4972355E+000	0.0000000E+000	0.0000000E+000	0.0000000E+000	1.4972355E+000	3.8259003E+001	8.8502762E+001	2.066649930389963E-006
4.8715591E+003	1.3627495E+001	4.7923216E-001	1.3635919E+001	-2.0140657E+000	2.074550740771083E+002	4.4976124E-001	1.1992614E-002	6.8172028E+001	8.4203340E-002	1.000000000000000E+000	10	1.0527866E-002	7.7206868E-004	0	2.677995147903231E-005	7.3290423E-002	2.5773724E-003	7.3335730E-002	2.0140657E+000	8.4203461E+001	2.3944146E+003	2.3958948E+003	-8.7985931E+001	0.0000000E+000	0.0000000E+000	0.0000000E+000	8.7985931E+001	0.0000000E+000	0.0000000E+000	0.0000000E+000	-8.7985931E+001	0.0000000E+000	0.0000000E+000	0.0000000E+000	-2.0140657E+000	0.0000000E+000	0.0000000E+000	0.0000000E+000	2.0140657E+000	2.8436102E+001	8.7985931E+001	1.793923925115449E-006
3.3110596E+003	1.3643172E+001	6.8122572E-001	1.3660169E+001	-2.8584974E+000	2.079201038858664E+002	4.4975153E-001	1.2281449E-002	7.0560577E+001	1.7548180E-001	1.000000000000000E+000	10	1.0747263E-002	7.8675919E-004	0	2.780783752239464E-005	7.3114455E-002	3.6507233E-003	7.3205538E-002	2.8584974E+000	1.7548181E+002	3.5144419E+003	3.5188203E+003	-8.7141502E+001	0.0000000E+000	0.0000000E+000	0.0000000E+000	8.7141502E+001	0.0000000E+000	0.0000000E+000	0.0000000E+000	-8.7141502E+001	0.0000000E+000	0.0000000E+000	0.0000000E+000	-2.8584974E+000	0.0000000E+000	0.0000000E+000	0.0000000E+000	2.8584974E+000	2.0027390E+001	8.7141502E+001	1.027886043362336E-006
2.2507205E+003	1.3677775E+001	9.4795734E-001	1.3710586E+001	-3.9646242E+000	2.083850773479498E+002	4.4975209E-001	1.2303811E-002	7.4595016E+001	3.5659510E-001	1.000000000000000E+000	10	1.0853080E-002	7.9158397E-004	0	2.988535300035275E-005	7.2761804E-002	5.0428584E-003	7.2936349E-002	3.9646242E+000	3.5659491E+002	5.1451973E+003	5.1575396E+003	-8.6035378E+001	0.0000000E+000	0.0000000E+000	0.0000000E+000	8.6035378E+001	0.0000000E+000	0.0000000E+000	0.0000000E+000	-8.6035378E+001	0.0000000E+000	0.0000000E+000	0.0000000E+000	-3.9646242E+000	0.0000000E+000	0.0000000E+000	0.0000000E+000	3.9646242E+000	1.4428682E+001	8.6035378E+001	2.077515477958110E-006
1.5304901E+003	1.3733028E+001	1.3522202E+000	1.3799441E+001	-5.6234913E+000	2.088500742766992E+002	4.4974986E-001	1.2246043E-002	7.6902809E+001	7.3843801E-001	1.000000000000000E+000	10	1.0911717E-002	7.9073617E-004	0	3.209555589654742E-005	7.2117940E-002	7.1010799E-003	7.2466701E-002	5.6234913E+000	7.3843768E+002	7.4995103E+003	7.5357778E+003	-8.4376511E+001	0.0000000E+000	0.0000000E+000	0.0000000E+000	8.4376511E+001	0.0000000E+000	0.0000000E+000	0.0000000E+000	-8.4376511E+001	0.0000000E+000	0.0000000E+000	0.0000000E+000	-5.6234913E+000	0.0000000E+000	0.0000000E+000	0.0000000E+000	5.6234913E+000	1.0155911E+001	8.4376511E+001	2.210202896194665E-006
1.0403328E+003	1.3793088E+001	1.9239240E+000	1.3926620E+001	-7.9406481E+000	2.093150677121230E+002	4.4975793E-001	1.2342942E-002	7.9516991E+001	1.5175544E+000	1.000000000000000E+000	10	1.0936803E-002	7.8531640E-004	0	3.316890669796622E-005	7.1116440E-002	9.9196509E-003	7.1804926E-002	7.9406481E+000	1.5175549E+003	1.0879724E+004	1.0985052E+004	-8.2059349E+001	0.0000000E+000	0.0000000E+000	0.0000000E+000	8.2059349E+001	0.0000000E+000	0.0000000E+000	0.0000000E+000	-8.2059349E+001	0.0000000E+000	0.0000000E+000	0.0000000E+000	-7.9406481E+000	0.0000000E+000	0.0000000E+000	0.0000000E+000	7.9406481E+000	7.1692481E+000	8.2059349E+001	1.073350801418806E-006
7.0703625E+002	1.3875897E+001	2.7468839E+000	1.4145172E+001	-1.1197545E+001	2.097795620808174E+002	4.4975957E-001	1.1647875E-002	8.1947960E+001	3.0903115E+000	1.000000000000000E+000	10	1.0946457E-002	7.7386526E-004	0	3.515819018099379E-005	6.9349699E-002	1.3728523E-002	7.0695497E-002	1.1197545E+001	3.0903123E+003	1.5610724E+004	1.5913665E+004	-7.8802452E+001	0.0000000E+000	0.0000000E+000	0.0000000E+000	7.8802452E+001	0.0000000E+000	0.0000000E+000	0.0000000E+000	-7.8802452E+001	0.0000000E+000	0.0000000E+000	0.0000000E+000	-1.1197545E+001	0.0000000E+000	0.0000000E+000	0.0000000E+000	1.1197545E+001	5.0515051E+000	7.8802452E+001	1.989283483027570E-006
4.8076920E+002	1.3969616E+001	3.9370625E+000	1.4513808E+001	-1.5739450E+001	2.102448038628936E+002	4.4976065E-001	1.1528616E-002	8.4083580E+001	6.1871843E+000	1.000000000000000E+000	10	1.0941632E-002	7.5387739E-004	0	3.692720524083901E-005	6.6316515E-002	1.8690012E-002	6.8899907E-002	1.5739450E+001	6.1871841E+003	2.1953574E+004	2.2808785E+004	-7.4260551E+001	0.0000000E+000	0.0000000E+000	0.0000000E+000	7.4260551E+001	0.0000000E+000	0.0000000E+000	0.0000000E+000	-7.4260551E+001	0.0000000E+000	0.0000000E+000	0.0000000E+000	-1.5739450E+001	0.0000000E+000	0.0000000E+000	0.0000000E+000	1.5739450E+001	3.5482333E+000	7.4260551E+001	1.769015059845213E-006
3.2677771E+002	1.4125200E+001	5.6420274E+000	1.5210318E+001	-2.1773245E+001	2.107080458316195E+002	4.4974759E-001	1.1850992E-002	8.6324196E+001	1.1877536E+001	1.000000000000000E+000	10	1.0939050E-002	7.1918615E-004	0	3.879409305496503E-005	6.1054554E-002	2.4387013E-002	6.5744847E-002	2.1773245E+001	1.1877536E+004	2.9736221E+004	3.2020598E+004	-6.8226753E+001	0.0000000E+000	0.0000000E+000	0.0000000E+000	6.8226753E+001	0.0000000E+000	0.0000000E+000	0.0000000E+000	-6.8226753E+001	0.0000000E+000	0.0000000E+000	0.0000000E+000	-2.1773245E+001	0.0000000E+000	0.0000000E+000	0.0000000E+000	2.1773245E+001	2.5035682E+000	6.8226753E+001	1.866887814126027E-006
2.2206076E+002	1.4333808E+001	8.1151552E+000	1.6471605E+001	-2.9516581E+001	2.111693011068419E+002	4.4975159E-001	1.1919938E-002	8.8318459E+001	2.1437458E+001	1.000000000000000E+000	10	1.0948577E-002	6.6469400E-004	0	3.962419796455652E-005	5.2831110E-002	2.9910589E-002	6.0710538E-002	2.9516581E+001	2.1437455E+004	3.7865004E+004	4.3512332E+004	-6.0483421E+001	0.0000000E+000	0.0000000E+000	0.0000000E+000	6.0483421E+001	0.0000000E+000	0.0000000E+000	0.0000000E+000	-6.0483421E+001	0.0000000E+000	0.0000000E+000	0.0000000E+000	-2.9516581E+001	0.0000000E+000	0.0000000E+000	0.0000000E+000	2.9516581E+001	1.7663012E+000	6.0483421E+001	8.301049095914821E-007
1.5101485E+002	1.4581054E+001	1.1680026E+001	1.8682348E+001	-3.8696167E+001	2.116308014220704E+002	4.4975498E-001	1.1372084E-002	9.0231186E+001	3.5268044E+001	1.000000000000000E+000	10	1.0934138E-002	5.8526569E-004	0	4.128996757392047E-005	4.1775916E-002	3.3464231E-002	5.3526461E-002	3.8696167E+001	3.5268043E+004	4.4027750E+004	5.6411680E+004	-5.1303833E+001	0.0000000E+000	0.0000000E+000	0.0000000E+000	5.1303833E+001	0.0000000E+000	0.0000000E+000	0.0000000E+000	-5.1303833E+001	0.0000000E+000	0.0000000E+000	0.0000000E+000	-3.8696167E+001	0.0000000E+000	0.0000000E+000	0.0000000E+000	3.8696167E+001	1.2483751E+000	5.1303833E+001	1.665769609363954E-006
1.0266736E+002	1.4971455E+001	1.6864487E+001	2.2551172E+001	-4.8402920E+001	2.123637197235512E+002	4.4974732E-001	6.6361419E-004	9.1920975E+001	5.1407040E+001	1.000000000000000E+000	11	1.0983275E-002	4.8703788E-004	0	4.240847713186587E-005	2.9439185E-002	3.3161554E-002	4.4343594E-002	4.8402920E+001	5.1407047E+004	4.5636629E+004	6.8741445E+004	-4.1597080E+001	0.0000000E+000	0.0000000E+000	0.0000000E+000	4.1597080E+001	0.0000000E+000	0.0000000E+000	0.0000000E+000	-4.1597080E+001	0.0000000E+000	0.0000000E+000	0.0000000E+000	-4.8402920E+001	0.0000000E+000	0.0000000E+000	0.0000000E+000	4.8402920E+001	8.8775039E-001	4.1597076E+001	1.118509557945397E-006
6.9754463E+001	1.5502149E+001	2.4385988E+001	2.8896246E+001	-5.7555920E+001	2.128308436923689E+002	4.4974747E-001	4.4258049E-004	9.3563782E+001	6.6635498E+001	1.000000000000000E+000	11	1.0960106E-002	3.7929168E-004	0	4.252853703621642E-005	1.8565603E-002	2.9205021E-002	3.4606572E-002	5.7555920E+001	6.6635500E+004	4.2360121E+004	7.8959922E+004	-3.2444080E+001	0.0000000E+000	0.0000000E+000	0.0000000E+000	3.2444080E+001	0.0000000E+000	0.0000000E+000	0.0000000E+000	-3.2444080E+001	0.0000000E+000	0.0000000E+000	0.0000000E+000	-5.7555920E+001	0.0000000E+000	0.0000000E+000	0.0000000E+000	5.7555920E+001	6.3569903E-001	3.2444077E+001	1.200599043505558E-007
4.7444328E+001	1.6184927E+001	3.5266682E+001	3.8803230E+001	-6.5348206E+001	2.132758380335436E+002	4.4974309E-001	4.9177697E-004	9.5119873E+001	7.8571434E+001	1.000000000000000E+000	11	1.0949108E-002	2.8217002E-004	0	4.254019229351899E-005	1.0749171E-002	2.3422262E-002	2.5771050E-002	6.5348206E+001	7.8571430E+004	3.6058762E+004	8.6450586E+004	-2.4651794E+001	0.0000000E+000	0.0000000E+000	0.0000000E+000	2.4651794E+001	0.0000000E+000	0.0000000E+000	0.0000000E+000	-2.4651794E+001	0.0000000E+000	0.0000000E+000	0.0000000E+000	-6.5348206E+001	0.0000000E+000	0.0000000E+000	0.0000000E+000	6.5348206E+001	4.5892969E-001	2.4651794E+001	1.165525730256360E-008
3.2238655E+001	1.7276693E+001	5.1030285E+001	5.3875542E+001	-7.1296074E+001	2.137132596276788E+002	4.4974351E-001	3.6299575E-004	9.6742027E+001	8.6793640E+001	1.000000000000000E+000	11	1.0937362E-002	2.0301164E-004	0	4.250049147744398E-005	5.9521981E-003	1.7581044E-002	1.8561298E-002	7.1296074E+001	8.6793641E+004	2.9384654E+004	9.1632930E+004	-1.8703926E+001	0.0000000E+000	0.0000000E+000	0.0000000E+000	1.8703926E+001	0.0000000E+000	0.0000000E+000	0.0000000E+000	-1.8703926E+001	0.0000000E+000	0.0000000E+000	0.0000000E+000	-7.1296074E+001	0.0000000E+000	0.0000000E+000	0.0000000E+000	7.1296074E+001	3.3855766E-001	1.8703918E+001	-3.970081607501007E-008
