EC-Lab ASCII FILE
Nb header lines : 63                          

Potentio Electrochemical Impedance Spectroscopy

Run on channel : 2 (SN 69290)
User : 
CE vs. WE compliance from -10 V to 10 V
Electrode connection : standard
Potential control : Ewe
Ewe ctrl range : min = -1.00 V, max = 1.00 V
Safety Limits :
	Do not start on E overload
Acquisition started on : 11/12/2025 16:20:32.186
Loaded Setting File :  C:\Users\User\Documents\EC-Lab\Data\Yatsuzuka\20251112_2-148_alpha_reproducibility\20251112_2-148_002_alpha_reproducibility_2_K1.mps
Saved on :
	File : 20251112_2-148_004_Na_first_2_K1_02_PEIS_C02.mpr
	Directory : C:\Users\User\Documents\EC-Lab\Data\Yatsuzuka\20251112_2-148_alpha_reproducibility\
	Host : 192.109.209.127
Device : SP-150e (SN .003883)
Address : 192.109.209.128
EC-Lab for windows v11.52 (software)
Internet server v11.52 (firmware)
Command interpretor v11.50 (firmware)
Electrode material : 
Initial state : 
Electrolyte : 
Comments : 
Electrode surface area : 0.001 cm2
Characteristic mass : 0.001 g
Equivalent Weight : 0.000 g/eq.
Density : 0.000 g/cm3
Volume (V) : 0.001 cm3
Cycle Definition : Charge/Discharge alternance
Mode                Single sine         
E (V)               0.4500              
vs.                 Ref                 
tE (h:m:s)          0:00:0.0000         
record              0                   
dI                  0.000               
unit dI             mA                  
dt (s)              0.000               
fi                  500.000             
unit fi             kHz                 
ff                  1.000               
unit ff             Hz                  
Nd                  6                   
Points              per decade          
spacing             Logarithmic         
Va (mV)             10.0                
pw                  0.10                
Na                  2                   
corr                0                   
E range min (V)     -1.000              
E range max (V)     1.000               
I Range             Auto                
Bandwidth           5                   
nc cycles           0                   
goto Ns'            0                   
nr cycles           0                   
inc. cycle          0                   

freq/Hz	Re(Z)/Ohm	-Im(Z)/Ohm	|Z|/Ohm	Phase(Z)/deg	time/s	<Ewe>/V	<I>/mA	Cs/uF	Cp/uF	cycle number	I Range	|Ewe|/V	|I|/A	Ns	(Q-Qo)/mA.h	Re(Y)/Ohm-1	Im(Y)/Ohm-1	|Y|/Ohm-1	Phase(Y)/deg	Re(C)/nF	Im(C)/nF	|C|/nF	Phase(C)/deg	Re(M)	Im(M)	|M|	Phase(M)/deg	Re(Permittivity)	Im(Permittivity)	|Permittivity|	Phase(Permittivity)/deg	Re(Resistivity)/Ohm.cm	Im(Resistivity)/Ohm.cm	|Resistivity|/Ohm.cm	Phase(Resistivity)/deg	Re(Conductivity)/mS/cm	Im(Conductivity)/mS/cm	|Conductivity|/mS/cm	Phase(Conductivity)/deg	Tan(Delta)	Loss Angle(Delta)/deg	dq/mA.h	
5.0001856E+005	1.1639243E+001	-3.2033355E+000	1.2072006E+001	1.5387892E+001	2.019420865341235E+002	4.4979015E-001	2.1800354E-002	-9.9364579E-002	-6.9964468E-003	1.000000000000000E+000	10	4.2328457E-003	3.5063317E-004	0	3.291450713484017E-005	7.9866715E-002	-2.1980802E-002	8.2836270E-002	-1.5387892E+001	-6.9964471E+000	2.5421421E+001	2.6366625E+001	-1.0538789E+002	0.0000000E+000	0.0000000E+000	0.0000000E+000	1.0538789E+002	0.0000000E+000	0.0000000E+000	0.0000000E+000	-1.0538789E+002	0.0000000E+000	0.0000000E+000	0.0000000E+000	1.5387892E+001	0.0000000E+000	0.0000000E+000	0.0000000E+000	-1.5387892E+001	3.6334760E+000	7.4612106E+001	3.291450713484017E-005
3.3989941E+005	7.2963057E+000	-1.9170568E+000	7.5439501E+000	1.4721354E+001	2.023640749807964E+002	4.4968003E-001	2.2197511E-002	-2.4425009E-001	-1.5772738E-002	1.000000000000000E+000	10	6.1153043E-003	8.1062363E-004	0	3.492992016477123E-005	1.2820514E-001	-3.3685066E-002	1.3255656E-001	-1.4721354E+001	-1.5772735E+001	6.0030937E+001	6.2068451E+001	-1.0472135E+002	0.0000000E+000	0.0000000E+000	0.0000000E+000	1.0472135E+002	0.0000000E+000	0.0000000E+000	0.0000000E+000	-1.0472135E+002	0.0000000E+000	0.0000000E+000	0.0000000E+000	1.4721354E+001	0.0000000E+000	0.0000000E+000	0.0000000E+000	-1.4721354E+001	3.8059936E+000	7.5278648E+001	2.015413029931051E-006
2.3106258E+005	5.7934337E+000	-1.0434572E+000	5.8866525E+000	1.0210095E+001	2.026500923544081E+002	4.4954550E-001	2.2557393E-002	-6.6010940E-001	-2.0740936E-002	1.000000000000000E+000	10	1.0141284E-002	1.7227591E-003	0	3.591148275900115E-005	1.6718574E-001	-3.0111875E-002	1.6987583E-001	-1.0210095E+001	-2.0740940E+001	1.1515685E+002	1.1700977E+002	-1.0021010E+002	0.0000000E+000	0.0000000E+000	0.0000000E+000	1.0021010E+002	0.0000000E+000	0.0000000E+000	0.0000000E+000	-1.0021010E+002	0.0000000E+000	0.0000000E+000	0.0000000E+000	1.0210095E+001	0.0000000E+000	0.0000000E+000	0.0000000E+000	-1.0210095E+001	5.5521531E+000	7.9789902E+001	9.815625942299200E-007
1.5707578E+005	5.2799249E+000	-5.2597404E-001	5.3060584E+000	5.6889057E+000	2.030720883211034E+002	4.4952184E-001	2.2755034E-002	-1.9264004E+000	-1.8929152E-002	1.000000000000000E+000	10	1.0845208E-002	2.0439292E-003	0	3.727429284942466E-005	1.8753558E-001	-1.8681865E-002	1.8846381E-001	-5.6889057E+000	-1.8929146E+001	1.9001794E+002	1.9095845E+002	-9.5688904E+001	0.0000000E+000	0.0000000E+000	0.0000000E+000	9.5688904E+001	0.0000000E+000	0.0000000E+000	0.0000000E+000	-9.5688904E+001	0.0000000E+000	0.0000000E+000	0.0000000E+000	5.6889057E+000	0.0000000E+000	0.0000000E+000	0.0000000E+000	-5.6889057E+000	1.0038376E+001	8.4311096E+001	1.362810090423512E-006
1.0678630E+005	5.1484256E+000	-2.6836118E-001	5.1554151E+000	2.9838364E+000	2.034940764478088E+002	4.4952795E-001	2.2065166E-002	-5.5537319E+000	-1.5048633E-002	1.000000000000000E+000	10	1.0975156E-002	2.1288597E-003	0	3.706787563727185E-005	1.9370782E-001	-1.0097001E-002	1.9397080E-001	-2.9838364E+000	-1.5048615E+001	2.8870331E+002	2.8909525E+002	-9.2983833E+001	0.0000000E+000	0.0000000E+000	0.0000000E+000	9.2983833E+001	0.0000000E+000	0.0000000E+000	0.0000000E+000	-9.2983833E+001	0.0000000E+000	0.0000000E+000	0.0000000E+000	2.9838364E+000	0.0000000E+000	0.0000000E+000	0.0000000E+000	-2.9838364E+000	1.9184689E+001	8.7016167E+001	-2.064172121528035E-007
7.2595008E+004	5.1052508E+000	-1.5066372E-001	5.1074734E+000	1.6903950E+000	2.039160909478815E+002	4.4953889E-001	2.1272743E-002	-1.4551398E+001	-1.2662220E-002	1.000000000000000E+000	10	1.0756688E-002	2.1060684E-003	0	4.021490246615011E-005	1.9570632E-001	-5.7755914E-003	1.9579153E-001	-1.6903950E+000	-1.2662193E+001	4.2906021E+002	4.2924701E+002	-9.1690392E+001	0.0000000E+000	0.0000000E+000	0.0000000E+000	9.1690392E+001	0.0000000E+000	0.0000000E+000	0.0000000E+000	-9.1690392E+001	0.0000000E+000	0.0000000E+000	0.0000000E+000	1.6903950E+000	0.0000000E+000	0.0000000E+000	0.0000000E+000	-1.6903950E+000	3.3885071E+001	8.8309608E+001	3.147026828878253E-006
4.9352359E+004	5.0907669E+000	-8.8705130E-002	5.0915399E+000	9.9826115E-001	2.043380710745842E+002	4.4954559E-001	2.0689148E-002	-3.6354942E+001	-1.1034753E-002	1.000000000000000E+000	10	1.0636980E-002	2.0891479E-003	0	4.582649564620159E-005	1.9637443E-001	-3.4217669E-003	1.9640423E-001	-9.9826115E-001	-1.1034746E+001	6.3328198E+002	6.3337811E+002	-9.0998260E+001	0.0000000E+000	0.0000000E+000	0.0000000E+000	9.0998260E+001	0.0000000E+000	0.0000000E+000	0.0000000E+000	-9.0998260E+001	0.0000000E+000	0.0000000E+000	0.0000000E+000	9.9826115E-001	0.0000000E+000	0.0000000E+000	0.0000000E+000	-9.9826115E-001	5.7389771E+001	8.9001740E+001	5.611593180051483E-006
3.3551066E+004	5.0837655E+000	-5.2655313E-002	5.0840383E+000	5.9342217E-001	2.047610700546793E+002	4.4955227E-001	1.9395173E-002	-9.0088966E+001	-9.6635874E-003	1.000000000000000E+000	10	1.0555121E-002	2.0761294E-003	0	4.801299394689138E-005	1.9668348E-001	-2.0371573E-003	1.9669403E-001	-5.9342217E-001	-9.6635838E+000	9.3300012E+002	9.3305017E+002	-9.0593422E+001	0.0000000E+000	0.0000000E+000	0.0000000E+000	9.0593422E+001	0.0000000E+000	0.0000000E+000	0.0000000E+000	-9.0593422E+001	0.0000000E+000	0.0000000E+000	0.0000000E+000	5.9342217E-001	0.0000000E+000	0.0000000E+000	0.0000000E+000	-5.9342217E-001	9.6548004E+001	8.9406578E+001	2.186498300689789E-006
2.2806563E+004	5.0792108E+000	-3.0065006E-002	5.0792999E+000	3.3914280E-001	2.051830876480235E+002	4.4955453E-001	1.8101195E-002	-2.3211276E+002	-8.1323087E-003	1.000000000000000E+000	10	1.0522415E-002	2.0716270E-003	0	4.856373272965559E-005	1.9687408E-001	-1.1653425E-003	1.9687752E-001	-3.3914280E-001	-8.1322861E+000	1.3738801E+003	1.3739042E+003	-9.0339142E+001	0.0000000E+000	0.0000000E+000	0.0000000E+000	9.0339142E+001	0.0000000E+000	0.0000000E+000	0.0000000E+000	-9.0339142E+001	0.0000000E+000	0.0000000E+000	0.0000000E+000	3.3914280E-001	0.0000000E+000	0.0000000E+000	0.0000000E+000	-3.3914280E-001	1.6894095E+002	8.9660858E+001	5.507387827642058E-007
1.5504379E+004	5.0781279E+000	-1.2430790E-002	5.0781431E+000	1.4025451E-001	2.056050764947577E+002	4.4955036E-001	1.8341718E-002	-8.2578510E+002	-4.9482840E-003	1.000000000000000E+000	10	1.0458559E-002	2.0595242E-003	0	4.633584009911606E-005	1.9692178E-001	-4.8204639E-004	1.9692238E-001	-1.4025451E-001	-4.9481659E+000	2.0214338E+003	2.0214399E+003	-9.0140251E+001	0.0000000E+000	0.0000000E+000	0.0000000E+000	9.0140251E+001	0.0000000E+000	0.0000000E+000	0.0000000E+000	-9.0140251E+001	0.0000000E+000	0.0000000E+000	0.0000000E+000	1.4025451E-001	0.0000000E+000	0.0000000E+000	0.0000000E+000	-1.4025451E-001	4.0851208E+002	8.9859749E+001	-2.227892630539523E-006
1.0540381E+004	5.0821800E+000	2.0853120E-003	5.0821805E+000	-2.3509512E-002	2.060270892081462E+002	4.4955137E-001	2.1520723E-002	7.2409043E+003	1.2190870E-003	1.000000000000000E+000	10	1.0345193E-002	2.0355815E-003	0	4.771717009174689E-005	1.9676591E-001	8.0736674E-005	1.9676593E-001	2.3509512E-002	1.2189134E+000	2.9710757E+003	2.9710759E+003	-8.9976494E+001	0.0000000E+000	0.0000000E+000	0.0000000E+000	8.9976494E+001	0.0000000E+000	0.0000000E+000	0.0000000E+000	-8.9976494E+001	0.0000000E+000	0.0000000E+000	0.0000000E+000	-2.3509512E-002	0.0000000E+000	0.0000000E+000	0.0000000E+000	2.3509512E-002	2.4371316E+003	8.9976494E+001	1.381329992630829E-006
7.1637817E+003	5.0825343E+000	1.2324791E-002	5.0825491E+000	-1.3893799E-001	2.065506863530172E+002	4.4952953E-001	1.5173896E-002	1.8025951E+003	1.0599716E-002	1.000000000000000E+000	10	1.0308961E-002	2.0283053E-003	0	4.800687287606545E-005	1.9675109E-001	4.7710768E-004	1.9675167E-001	1.3893799E-001	1.0599785E+001	4.3711426E+003	4.3711553E+003	-8.9861061E+001	0.0000000E+000	0.0000000E+000	0.0000000E+000	8.9861061E+001	0.0000000E+000	0.0000000E+000	0.0000000E+000	-8.9861061E+001	0.0000000E+000	0.0000000E+000	0.0000000E+000	-1.3893799E-001	0.0000000E+000	0.0000000E+000	0.0000000E+000	1.3893799E-001	4.1238300E+002	8.9861061E+001	2.897027843185571E-007
4.8715591E+003	5.0862021E+000	2.6756505E-002	5.0862727E+000	-3.0140772E-001	2.072402715858043E+002	4.4953987E-001	1.8367814E-002	1.2210200E+003	3.3789538E-002	1.000000000000000E+000	10	1.0145120E-002	1.9946080E-003	0	4.778360565914773E-005	1.9660489E-001	1.0342608E-003	1.9660762E-001	3.0140772E-001	3.3789444E+001	6.4231274E+003	6.4232163E+003	-8.9698593E+001	0.0000000E+000	0.0000000E+000	0.0000000E+000	8.9698593E+001	0.0000000E+000	0.0000000E+000	0.0000000E+000	-8.9698593E+001	0.0000000E+000	0.0000000E+000	0.0000000E+000	-3.0140772E-001	0.0000000E+000	0.0000000E+000	0.0000000E+000	3.0140772E-001	1.9009218E+002	8.9698593E+001	-2.232672169177226E-007
3.3110596E+003	5.0852742E+000	3.8464803E-002	5.0854197E+000	-4.3337464E-001	2.077052694478843E+002	4.4954470E-001	1.6346684E-002	1.2496536E+003	7.1492925E-002	1.000000000000000E+000	10	1.0908524E-002	2.1450587E-003	0	5.128417098504077E-005	1.9663499E-001	1.4873389E-003	1.9664061E-001	4.3337464E-001	7.1492569E+001	9.4517861E+003	9.4520566E+003	-8.9566628E+001	0.0000000E+000	0.0000000E+000	0.0000000E+000	8.9566628E+001	0.0000000E+000	0.0000000E+000	0.0000000E+000	-8.9566628E+001	0.0000000E+000	0.0000000E+000	0.0000000E+000	-4.3337464E-001	0.0000000E+000	0.0000000E+000	0.0000000E+000	4.3337464E-001	1.3220590E+002	8.9566628E+001	3.500565325893049E-006
2.2507205E+003	5.0933056E+000	5.3604409E-002	5.0935879E+000	-6.0298616E-001	2.083922649205197E+002	4.4954628E-001	1.7614549E-002	1.3191619E+003	1.4610043E-001	1.000000000000000E+000	10	1.0160387E-002	1.9947407E-003	0	5.213430018371502E-005	1.9631439E-001	2.0661075E-003	1.9632527E-001	6.0298616E-001	1.4610115E+002	1.3881958E+004	1.3882727E+004	-8.9397011E+001	0.0000000E+000	0.0000000E+000	0.0000000E+000	8.9397011E+001	0.0000000E+000	0.0000000E+000	0.0000000E+000	-8.9397011E+001	0.0000000E+000	0.0000000E+000	0.0000000E+000	-6.0298616E-001	0.0000000E+000	0.0000000E+000	0.0000000E+000	6.0298616E-001	9.5016541E+001	8.9397011E+001	8.501291986742407E-007
1.5304901E+003	5.0973792E+000	7.4548170E-002	5.0979242E+000	-8.3787978E-001	2.088573037959359E+002	4.4954765E-001	1.7625742E-002	1.3949308E+003	2.9829079E-001	1.000000000000000E+000	10	1.0351333E-002	2.0304995E-003	0	5.334639767159630E-005	1.9613729E-001	2.8684696E-003	1.9615828E-001	8.3787978E-001	2.9829193E+002	2.0396225E+004	2.0398406E+004	-8.9162117E+001	0.0000000E+000	0.0000000E+000	0.0000000E+000	8.9162117E+001	0.0000000E+000	0.0000000E+000	0.0000000E+000	-8.9162117E+001	0.0000000E+000	0.0000000E+000	0.0000000E+000	-8.3787978E-001	0.0000000E+000	0.0000000E+000	0.0000000E+000	8.3787978E-001	6.8376984E+001	8.9162117E+001	1.212097487881287E-006
1.0403328E+003	5.1036277E+000	1.0430527E-001	5.1046934E+000	-1.1708182E+000	2.093222881913607E+002	4.4955087E-001	1.6904170E-002	1.4667010E+003	6.1237127E-001	1.000000000000000E+000	10	1.0448574E-002	2.0468563E-003	0	5.737819607157467E-005	1.9585724E-001	4.0028282E-003	1.9589815E-001	1.1708182E+000	6.1236932E+002	2.9963152E+004	2.9969410E+004	-8.8829185E+001	0.0000000E+000	0.0000000E+000	0.0000000E+000	8.8829185E+001	0.0000000E+000	0.0000000E+000	0.0000000E+000	-8.8829185E+001	0.0000000E+000	0.0000000E+000	0.0000000E+000	-1.1708182E+000	0.0000000E+000	0.0000000E+000	0.0000000E+000	1.1708182E+000	4.8929718E+001	8.8829185E+001	4.031798399978369E-006
7.0703625E+002	5.1097307E+000	1.4892201E-001	5.1119003E+000	-1.6694007E+000	2.097867926134059E+002	4.4954497E-001	1.7825246E-002	1.5115397E+003	1.2828403E+000	1.000000000000000E+000	10	1.0493595E-002	2.0527777E-003	0	5.834688969074179E-005	1.9553894E-001	5.6989407E-003	1.9562197E-001	1.6694007E+000	1.2828420E+003	4.4016113E+004	4.4034805E+004	-8.8330597E+001	0.0000000E+000	0.0000000E+000	0.0000000E+000	8.8330597E+001	0.0000000E+000	0.0000000E+000	0.0000000E+000	-8.8330597E+001	0.0000000E+000	0.0000000E+000	0.0000000E+000	-1.6694007E+000	0.0000000E+000	0.0000000E+000	0.0000000E+000	1.6694007E+000	3.4311455E+001	8.8330597E+001	9.686936191671225E-007
4.8076920E+002	5.1191182E+000	2.0697361E-001	5.1233006E+000	-2.3152931E+000	2.102520463421388E+002	4.4953963E-001	1.5515108E-002	1.5994420E+003	2.6103504E+000	1.000000000000000E+000	10	1.0517987E-002	2.0529709E-003	0	5.938611590483277E-005	1.9502734E-001	7.8852475E-003	1.9518667E-001	2.3152931E+000	2.6103494E+003	6.4562293E+004	6.4615043E+004	-8.7684708E+001	0.0000000E+000	0.0000000E+000	0.0000000E+000	8.7684708E+001	0.0000000E+000	0.0000000E+000	0.0000000E+000	-8.7684708E+001	0.0000000E+000	0.0000000E+000	0.0000000E+000	-2.3152931E+000	0.0000000E+000	0.0000000E+000	0.0000000E+000	2.3152931E+000	2.4733192E+001	8.7684708E+001	1.039226214090979E-006
3.2677771E+002	5.1314149E+000	2.9412723E-001	5.1398377E+000	-3.2805433E+000	2.107152551908548E+002	4.4954082E-001	1.7655574E-002	1.6558939E+003	5.4225569E+000	1.000000000000000E+000	10	1.0531193E-002	2.0489348E-003	0	6.086834646577740E-005	1.9423984E-001	1.1133621E-002	1.9455867E-001	3.2805433E+000	5.4225527E+003	9.4603250E+004	9.4758531E+004	-8.6719460E+001	0.0000000E+000	0.0000000E+000	0.0000000E+000	8.6719460E+001	0.0000000E+000	0.0000000E+000	0.0000000E+000	-8.6719460E+001	0.0000000E+000	0.0000000E+000	0.0000000E+000	-3.2805433E+000	0.0000000E+000	0.0000000E+000	0.0000000E+000	3.2805433E+000	1.7446243E+001	8.6719460E+001	1.482230560944628E-006
2.2206076E+002	5.1445894E+000	4.2062968E-001	5.1617565E+000	-4.6741958E+000	2.111765118527546E+002	4.4953880E-001	1.5276445E-002	1.7039169E+003	1.1314964E+001	1.000000000000000E+000	10	1.0533081E-002	2.0406002E-003	0	6.346726695703628E-005	1.9308819E-001	1.5787194E-002	1.9373250E-001	4.6741958E+000	1.1314961E+004	1.3838977E+005	1.3885156E+005	-8.5325806E+001	0.0000000E+000	0.0000000E+000	0.0000000E+000	8.5325806E+001	0.0000000E+000	0.0000000E+000	0.0000000E+000	-8.5325806E+001	0.0000000E+000	0.0000000E+000	0.0000000E+000	-4.6741958E+000	0.0000000E+000	0.0000000E+000	0.0000000E+000	4.6741958E+000	1.2230686E+001	8.5325806E+001	2.598920491258877E-006
1.5101485E+002	5.1671805E+000	5.9245950E-001	5.2010350E+000	-6.5408659E+000	2.116379977413017E+002	4.4954106E-001	1.7014176E-002	1.7788602E+003	2.3082327E+001	1.000000000000000E+000	10	1.0540609E-002	2.0266369E-003	0	6.558490420383815E-005	1.9101793E-001	2.1901766E-002	1.9226943E-001	6.5408659E+000	2.3082316E+004	2.0131427E+005	2.0263323E+005	-8.3459137E+001	0.0000000E+000	0.0000000E+000	0.0000000E+000	8.3459137E+001	0.0000000E+000	0.0000000E+000	0.0000000E+000	-8.3459137E+001	0.0000000E+000	0.0000000E+000	0.0000000E+000	-6.5408659E+000	0.0000000E+000	0.0000000E+000	0.0000000E+000	6.5408659E+000	8.7215757E+000	8.3459137E+001	2.117637246801870E-006
1.0266736E+002	5.1948838E+000	8.4165138E-001	5.2626224E+000	-9.2028351E+000	2.121129145905288E+002	4.4954816E-001	1.7970672E-002	1.8418552E+003	4.7110264E+001	1.000000000000000E+000	10	1.0544087E-002	2.0035803E-003	0	6.939044630516501E-005	1.8757348E-001	3.0389799E-002	1.9001934E-001	9.2028351E+000	4.7110270E+004	2.9077644E+005	2.9456800E+005	-8.0797165E+001	0.0000000E+000	0.0000000E+000	0.0000000E+000	8.0797165E+001	0.0000000E+000	0.0000000E+000	0.0000000E+000	-8.0797165E+001	0.0000000E+000	0.0000000E+000	0.0000000E+000	-9.2028351E+000	0.0000000E+000	0.0000000E+000	0.0000000E+000	9.2028351E+000	6.1722512E+000	8.0797165E+001	3.805542101326863E-006
6.9754463E+001	5.2260790E+000	1.1982503E+000	5.3616886E+000	-1.2913733E+001	2.125800520260382E+002	4.4954321E-001	1.5455438E-002	1.9041476E+003	9.5102623E+001	1.000000000000000E+000	10	1.0543820E-002	1.9665109E-003	0	7.294897137848764E-005	1.8179117E-001	4.1681599E-002	1.8650840E-001	1.2913733E+001	9.5102633E+004	4.1478297E+005	4.2554603E+005	-7.7086266E+001	0.0000000E+000	0.0000000E+000	0.0000000E+000	7.7086266E+001	0.0000000E+000	0.0000000E+000	0.0000000E+000	-7.7086266E+001	0.0000000E+000	0.0000000E+000	0.0000000E+000	-1.2913733E+001	0.0000000E+000	0.0000000E+000	0.0000000E+000	1.2913733E+001	4.3614254E+000	7.7086266E+001	3.558525073322626E-006
4.7444328E+001	5.2762609E+000	1.7153795E+000	5.5481038E+000	-1.8010002E+001	2.130240385271172E+002	4.4953555E-001	1.6920954E-002	1.9555801E+003	1.8694200E+002	1.000000000000000E+000	10	1.0556047E-002	1.9026404E-003	0	7.639916327589244E-005	1.7141038E-001	5.5727690E-002	1.8024176E-001	1.8010002E+001	1.8694200E+005	5.7500675E+005	6.0463219E+005	-7.1989998E+001	0.0000000E+000	0.0000000E+000	0.0000000E+000	7.1989998E+001	0.0000000E+000	0.0000000E+000	0.0000000E+000	-7.1989998E+001	0.0000000E+000	0.0000000E+000	0.0000000E+000	-1.8010002E+001	0.0000000E+000	0.0000000E+000	0.0000000E+000	1.8010002E+001	3.0758564E+000	7.1989998E+001	3.450191897404802E-006
3.2238655E+001	5.3286004E+000	2.4677765E+000	5.8722997E+000	-2.4849754E+001	2.134614576679451E+002	4.4953734E-001	1.5638160E-002	2.0004945E+003	3.5329105E+002	1.000000000000000E+000	10	1.0561574E-002	1.7985414E-003	0	7.670315080947735E-005	1.5452428E-001	7.1563140E-002	1.7029104E-001	2.4849754E+001	3.5329106E+005	7.6285150E+005	8.4068838E+005	-6.5150246E+001	0.0000000E+000	0.0000000E+000	0.0000000E+000	6.5150246E+001	0.0000000E+000	0.0000000E+000	0.0000000E+000	-6.5150246E+001	0.0000000E+000	0.0000000E+000	0.0000000E+000	-2.4849754E+001	0.0000000E+000	0.0000000E+000	0.0000000E+000	2.4849754E+001	2.1592720E+000	6.5150246E+001	3.039875335849088E-007
