EC-Lab ASCII FILE
Nb header lines : 63                          

Potentio Electrochemical Impedance Spectroscopy

Run on channel : 1 (SN 69187)
User : 
CE vs. WE compliance from -10 V to 10 V
Electrode connection : standard
Potential control : Ewe
Ewe ctrl range : min = -1.00 V, max = 1.00 V
Safety Limits :
	Do not start on E overload
Acquisition started on : 11/12/2025 17:41:45.774
Loaded Setting File :  C:\Users\User\Documents\EC-Lab\Data\Yatsuzuka\20251030_2-147_gamma_reproducibility\20251030_2-147_001_gamma1_K_1.mps
Saved on :
	File : 20251112_2-148_003_alpha_Na_first_1_K2_02_PEIS_C01.mpr
	Directory : C:\Users\User\Documents\EC-Lab\Data\Yatsuzuka\20251112_2-148_alpha_reproducibility\
	Host : 192.109.209.127
Device : SP-150e (SN .003883)
Address : 192.109.209.128
EC-Lab for windows v11.52 (software)
Internet server v11.52 (firmware)
Command interpretor v11.50 (firmware)
Electrode material : 
Initial state : 
Electrolyte : 
Comments : 
Electrode surface area : 0.001 cm2
Characteristic mass : 0.001 g
Equivalent Weight : 0.000 g/eq.
Density : 0.000 g/cm3
Volume (V) : 0.001 cm3
Cycle Definition : Charge/Discharge alternance
Mode                Single sine         
E (V)               0.4500              
vs.                 Ref                 
tE (h:m:s)          0:00:0.0000         
record              0                   
dI                  0.000               
unit dI             mA                  
dt (s)              0.000               
fi                  500.000             
unit fi             kHz                 
ff                  1.000               
unit ff             Hz                  
Nd                  6                   
Points              per decade          
spacing             Logarithmic         
Va (mV)             10.0                
pw                  0.10                
Na                  2                   
corr                0                   
E range min (V)     -1.000              
E range max (V)     1.000               
I Range             Auto                
Bandwidth           5                   
nc cycles           0                   
goto Ns'            0                   
nr cycles           0                   
inc. cycle          0                   

freq/Hz	Re(Z)/Ohm	-Im(Z)/Ohm	|Z|/Ohm	Phase(Z)/deg	time/s	<Ewe>/V	<I>/mA	Cs/uF	Cp/uF	cycle number	I Range	|Ewe|/V	|I|/A	Ns	(Q-Qo)/mA.h	Re(Y)/Ohm-1	Im(Y)/Ohm-1	|Y|/Ohm-1	Phase(Y)/deg	Re(C)/nF	Im(C)/nF	|C|/nF	Phase(C)/deg	Re(M)	Im(M)	|M|	Phase(M)/deg	Re(Permittivity)	Im(Permittivity)	|Permittivity|	Phase(Permittivity)/deg	Re(Resistivity)/Ohm.cm	Im(Resistivity)/Ohm.cm	|Resistivity|/Ohm.cm	Phase(Resistivity)/deg	Re(Conductivity)/mS/cm	Im(Conductivity)/mS/cm	|Conductivity|/mS/cm	Phase(Conductivity)/deg	Tan(Delta)	Loss Angle(Delta)/deg	dq/mA.h	
5.0001856E+005	1.5399340E+001	-2.1020901E+000	1.5542150E+001	7.7731295E+000	2.015998803589755E+002	4.5013624E-001	1.3934314E-002	-1.5141980E-001	-2.7698937E-003	1.000000000000000E+000	10	5.2157505E-003	3.3558745E-004	0	2.120387669097302E-005	6.3749954E-002	-8.7022008E-003	6.4341158E-002	-7.7731295E+000	-2.7698946E+000	2.0291485E+001	2.0479666E+001	-9.7773132E+001	0.0000000E+000	0.0000000E+000	0.0000000E+000	9.7773132E+001	0.0000000E+000	0.0000000E+000	0.0000000E+000	-9.7773132E+001	0.0000000E+000	0.0000000E+000	0.0000000E+000	7.7731295E+000	0.0000000E+000	0.0000000E+000	0.0000000E+000	-7.7731295E+000	7.3257275E+000	8.2226868E+001	2.120387669097302E-005
3.3989941E+005	1.0467310E+001	-1.4385432E+000	1.0565699E+001	7.8252521E+000	2.020218869390228E+002	4.4999886E-001	8.4259780E-003	-3.2549685E-001	-6.0338732E-003	1.000000000000000E+000	10	8.1885420E-003	7.7501190E-004	0	2.276016192648159E-005	9.3764544E-002	-1.2886249E-002	9.4645895E-002	-7.8252521E+000	-6.0338712E+000	4.3904434E+001	4.4317120E+001	-9.7825249E+001	0.0000000E+000	0.0000000E+000	0.0000000E+000	9.7825249E+001	0.0000000E+000	0.0000000E+000	0.0000000E+000	-9.7825249E+001	0.0000000E+000	0.0000000E+000	0.0000000E+000	7.8252521E+000	0.0000000E+000	0.0000000E+000	0.0000000E+000	-7.8252521E+000	7.2763267E+000	8.2174751E+001	1.556285235508566E-006
2.3106258E+005	8.6482286E+000	-8.4955859E-001	8.6898565E+000	5.6104488E+000	2.024438727456873E+002	4.4981602E-001	1.2685829E-002	-8.1076908E-001	-7.7492315E-003	1.000000000000000E+000	10	1.0322844E-002	1.1879187E-003	0	2.309190656479526E-005	1.1452543E-001	-1.1250404E-002	1.1507670E-001	-5.6104488E+000	-7.7492337E+000	7.8884644E+001	7.9264351E+001	-9.5610451E+001	0.0000000E+000	0.0000000E+000	0.0000000E+000	9.5610451E+001	0.0000000E+000	0.0000000E+000	0.0000000E+000	-9.5610451E+001	0.0000000E+000	0.0000000E+000	0.0000000E+000	5.6104488E+000	0.0000000E+000	0.0000000E+000	0.0000000E+000	-5.6104488E+000	1.0179673E+001	8.4389549E+001	3.317446383136708E-007
1.5707578E+005	7.9404058E+000	-4.3628645E-001	7.9523826E+000	3.1449606E+000	2.028658684457332E+002	4.4977969E-001	1.3889618E-002	-2.3224115E+000	-6.9901757E-003	1.000000000000000E+000	10	1.0972629E-002	1.3797914E-003	0	2.181152437608560E-005	1.2555908E-001	-6.8988577E-003	1.2574847E-001	-3.1449606E+000	-6.9901714E+000	1.2722108E+002	1.2741297E+002	-9.3144958E+001	0.0000000E+000	0.0000000E+000	0.0000000E+000	9.3144958E+001	0.0000000E+000	0.0000000E+000	0.0000000E+000	-9.3144958E+001	0.0000000E+000	0.0000000E+000	0.0000000E+000	3.1449606E+000	0.0000000E+000	0.0000000E+000	0.0000000E+000	-3.1449606E+000	1.8199984E+001	8.6855042E+001	-1.280382188709660E-006
1.0678630E+005	7.7182465E+000	-2.0437196E-001	7.7209516E+000	1.5167844E+000	2.034238846855733E+002	4.4975618E-001	1.2879627E-002	-7.2926154E+000	-5.1095691E-003	1.000000000000000E+000	10	1.0096668E-002	1.3076974E-003	0	2.606736468164147E-005	1.2947235E-001	-3.4283069E-003	1.2951772E-001	-1.5167844E+000	-5.1095700E+000	1.9296634E+002	1.9303398E+002	-9.1516785E+001	0.0000000E+000	0.0000000E+000	0.0000000E+000	9.1516785E+001	0.0000000E+000	0.0000000E+000	0.0000000E+000	-9.1516785E+001	0.0000000E+000	0.0000000E+000	0.0000000E+000	1.5167844E+000	0.0000000E+000	0.0000000E+000	0.0000000E+000	-1.5167844E+000	3.7765682E+001	8.8483215E+001	4.255840305555870E-006
7.2595008E+004	7.6498976E+000	-9.0942547E-002	7.6504383E+000	6.8110430E-001	2.038458724389930E+002	4.4976443E-001	1.0015513E-002	-2.4107172E+001	-3.4064958E-003	1.000000000000000E+000	10	1.0635566E-002	1.3901904E-003	0	2.933938010684991E-005	1.3070223E-001	-1.5537976E-003	1.3071147E-001	-6.8110430E-001	-3.4065065E+000	2.8654733E+002	2.8656757E+002	-9.0681107E+001	0.0000000E+000	0.0000000E+000	0.0000000E+000	9.0681107E+001	0.0000000E+000	0.0000000E+000	0.0000000E+000	-9.0681107E+001	0.0000000E+000	0.0000000E+000	0.0000000E+000	6.8110430E-001	0.0000000E+000	0.0000000E+000	0.0000000E+000	-6.8110430E-001	8.4117920E+001	8.9318893E+001	3.272015425208438E-006
4.9352359E+004	7.6230626E+000	-5.1727630E-002	7.6232381E+000	3.8878462E-001	2.042678670456662E+002	4.4975445E-001	1.4007014E-002	-6.2343273E+001	-2.8704884E-003	1.000000000000000E+000	10	1.0604812E-002	1.3911164E-003	0	2.946475242395213E-005	1.3117483E-001	-8.9010992E-004	1.3117786E-001	-3.8878462E-001	-2.8705013E+000	4.2302179E+002	4.2303152E+002	-9.0388786E+001	0.0000000E+000	0.0000000E+000	0.0000000E+000	9.0388786E+001	0.0000000E+000	0.0000000E+000	0.0000000E+000	-9.0388786E+001	0.0000000E+000	0.0000000E+000	0.0000000E+000	3.8878462E-001	0.0000000E+000	0.0000000E+000	0.0000000E+000	-3.8878462E-001	1.4736926E+002	8.9611214E+001	1.253723171022207E-007
3.3551066E+004	7.6056876E+000	-2.3204215E-002	7.6057229E+000	1.7480332E-001	2.046898827724071E+002	4.4975609E-001	1.1578945E-002	-2.0443108E+002	-1.9028287E-003	1.000000000000000E+000	10	1.0528116E-002	1.3842362E-003	0	2.844683117195705E-005	1.3147932E-001	-4.0113064E-004	1.3147993E-001	-1.7480332E-001	-1.9028435E+000	6.2369354E+002	6.2369647E+002	-9.0174805E+001	0.0000000E+000	0.0000000E+000	0.0000000E+000	9.0174805E+001	0.0000000E+000	0.0000000E+000	0.0000000E+000	-9.0174805E+001	0.0000000E+000	0.0000000E+000	0.0000000E+000	1.7480332E-001	0.0000000E+000	0.0000000E+000	0.0000000E+000	-1.7480332E-001	3.2777182E+002	8.9825195E+001	-1.017921251995077E-006
2.2806563E+004	7.6074238E+000	-4.3430277E-003	7.6074252E+000	3.2709777E-002	2.051118817257375E+002	4.4975129E-001	9.7080451E-003	-1.6068217E+003	-5.2369392E-004	1.000000000000000E+000	10	1.0445498E-002	1.3730661E-003	0	3.081673303492587E-005	1.3145050E-001	-7.5044220E-005	1.3145052E-001	-3.2709777E-002	-5.2365291E-001	9.1732355E+002	9.1732367E+002	-9.0032707E+001	0.0000000E+000	0.0000000E+000	0.0000000E+000	9.0032707E+001	0.0000000E+000	0.0000000E+000	0.0000000E+000	-9.0032707E+001	0.0000000E+000	0.0000000E+000	0.0000000E+000	3.2709777E-002	0.0000000E+000	0.0000000E+000	0.0000000E+000	-3.2709777E-002	1.7516406E+003	8.9967293E+001	2.369901862968817E-006
1.5504379E+004	7.6089540E+000	8.5680736E-003	7.6089587E+000	-6.4517967E-002	2.055338775591372E+002	4.4975793E-001	1.4426291E-002	1.1980710E+003	1.5191424E-003	1.000000000000000E+000	10	1.0396725E-002	1.3663794E-003	0	3.053870010862981E-005	1.3142394E-001	1.4799011E-004	1.3142402E-001	6.4517967E-002	1.5190527E+000	1.3490879E+003	1.3490887E+003	-8.9935486E+001	0.0000000E+000	0.0000000E+000	0.0000000E+000	8.9935486E+001	0.0000000E+000	0.0000000E+000	0.0000000E+000	-8.9935486E+001	0.0000000E+000	0.0000000E+000	0.0000000E+000	-6.4517967E-002	0.0000000E+000	0.0000000E+000	0.0000000E+000	6.4517967E-002	8.8805890E+002	8.9935486E+001	-2.780329262960617E-007
1.0540381E+004	7.6082001E+000	2.1341017E-002	7.6082301E+000	-1.6071436E-001	2.059558857125376E+002	4.4976205E-001	1.0872699E-002	7.0753632E+002	5.5668773E-003	1.000000000000000E+000	10	1.0221826E-002	1.3435222E-003	0	3.167004477768205E-005	1.3143609E-001	3.6867853E-004	1.3143662E-001	1.6071436E-001	5.5668373E+000	1.9846251E+003	1.9846329E+003	-8.9839287E+001	0.0000000E+000	0.0000000E+000	0.0000000E+000	8.9839287E+001	0.0000000E+000	0.0000000E+000	0.0000000E+000	-8.9839287E+001	0.0000000E+000	0.0000000E+000	0.0000000E+000	-1.6071436E-001	0.0000000E+000	0.0000000E+000	0.0000000E+000	1.6071436E-001	3.5650598E+002	8.9839287E+001	1.131344669052244E-006
7.1637817E+003	7.6210794E+000	2.9789526E-002	7.6211376E+000	-2.2395849E-001	2.064794642707420E+002	4.4973415E-001	8.9868912E-003	7.4578601E+002	1.1394671E-002	1.000000000000000E+000	10	1.0190971E-002	1.3371982E-003	0	3.218794425007137E-005	1.3121301E-001	5.1288970E-004	1.3121401E-001	2.2395849E-001	1.1394791E+001	2.9151079E+003	2.9151301E+003	-8.9776039E+001	0.0000000E+000	0.0000000E+000	0.0000000E+000	8.9776039E+001	0.0000000E+000	0.0000000E+000	0.0000000E+000	-8.9776039E+001	0.0000000E+000	0.0000000E+000	0.0000000E+000	-2.2395849E-001	0.0000000E+000	0.0000000E+000	0.0000000E+000	2.2395849E-001	2.5583084E+002	8.9776039E+001	5.178994723893204E-007
4.8715591E+003	7.6138983E+000	3.2565679E-002	7.6139679E+000	-2.4506035E-001	2.069480608796948E+002	4.4975805E-001	1.2093255E-002	1.0032104E+003	1.8352289E-002	1.000000000000000E+000	10	1.0972982E-002	1.4411648E-003	0	3.303705707460176E-005	1.3133636E-001	5.6174351E-004	1.3133757E-001	2.4506035E-001	1.8352545E+001	4.2907891E+003	4.2908281E+003	-8.9754936E+001	0.0000000E+000	0.0000000E+000	0.0000000E+000	8.9754936E+001	0.0000000E+000	0.0000000E+000	0.0000000E+000	-8.9754936E+001	0.0000000E+000	0.0000000E+000	0.0000000E+000	-2.4506035E-001	0.0000000E+000	0.0000000E+000	0.0000000E+000	2.4506035E-001	2.3380130E+002	8.9754936E+001	8.491128245303900E-007
3.3110596E+003	7.6250772E+000	4.8651487E-002	7.6252322E+000	-3.6556837E-001	2.076350949123225E+002	4.4975847E-001	1.1366513E-002	9.8800018E+002	4.0220097E-002	1.000000000000000E+000	10	1.0118861E-002	1.3270233E-003	0	3.395272323511523E-005	1.3114087E-001	8.3673885E-004	1.3114354E-001	3.6556837E-001	4.0220284E+001	6.3036372E+003	6.3037656E+003	-8.9634430E+001	0.0000000E+000	0.0000000E+000	0.0000000E+000	8.9634430E+001	0.0000000E+000	0.0000000E+000	0.0000000E+000	-8.9634430E+001	0.0000000E+000	0.0000000E+000	0.0000000E+000	-3.6556837E-001	0.0000000E+000	0.0000000E+000	0.0000000E+000	3.6556837E-001	1.5672856E+002	8.9634430E+001	9.156661605134642E-007
2.2507205E+003	7.6291752E+000	6.4952403E-002	7.6294518E+000	-4.8778650E-001	2.081000909077484E+002	4.4976261E-001	1.2147296E-002	1.0886879E+003	7.8905478E-002	1.000000000000000E+000	10	1.0318717E-002	1.3524847E-003	0	3.457506097546623E-005	1.3106626E-001	1.1158570E-003	1.3107102E-001	4.8778650E-001	7.8905289E+001	9.2680742E+003	9.2684102E+003	-8.9512215E+001	0.0000000E+000	0.0000000E+000	0.0000000E+000	8.9512215E+001	0.0000000E+000	0.0000000E+000	0.0000000E+000	-8.9512215E+001	0.0000000E+000	0.0000000E+000	0.0000000E+000	-4.8778650E-001	0.0000000E+000	0.0000000E+000	0.0000000E+000	4.8778650E-001	1.1745793E+002	8.9512215E+001	6.223377403510080E-007
1.5304901E+003	7.6365409E+000	8.4666640E-002	7.6370101E+000	-6.3521463E-001	2.085650957031685E+002	4.4976255E-001	1.2775277E-002	1.2282233E+003	1.5095769E-001	1.000000000000000E+000	10	1.0416257E-002	1.3639182E-003	0	3.620626391344315E-005	1.3093325E-001	1.4516624E-003	1.3094130E-001	6.3521463E-001	1.5095793E+002	1.3615686E+004	1.3616522E+004	-8.9364784E+001	0.0000000E+000	0.0000000E+000	0.0000000E+000	8.9364784E+001	0.0000000E+000	0.0000000E+000	0.0000000E+000	-8.9364784E+001	0.0000000E+000	0.0000000E+000	0.0000000E+000	-6.3521463E-001	0.0000000E+000	0.0000000E+000	0.0000000E+000	6.3521463E-001	9.0195396E+001	8.9364784E+001	1.631202937976921E-006
1.0403328E+003	7.6459374E+000	1.1826814E-001	7.6468520E+000	-8.8618630E-001	2.090300875919202E+002	4.4976926E-001	1.3319404E-002	1.2935406E+003	3.0942133E-001	1.000000000000000E+000	10	1.0470458E-002	1.3692508E-003	0	3.884461332756716E-005	1.3075712E-001	2.0225646E-003	1.3077277E-001	8.8618630E-001	3.0942078E+002	2.0003834E+004	2.0006227E+004	-8.9113815E+001	0.0000000E+000	0.0000000E+000	0.0000000E+000	8.9113815E+001	0.0000000E+000	0.0000000E+000	0.0000000E+000	-8.9113815E+001	0.0000000E+000	0.0000000E+000	0.0000000E+000	-8.8618630E-001	0.0000000E+000	0.0000000E+000	0.0000000E+000	8.8618630E-001	6.4649170E+001	8.9113815E+001	2.638349414124002E-006
7.0703625E+002	7.6436677E+000	1.7125016E-001	7.6455860E+000	-1.2834506E+000	2.094945764672739E+002	4.4975945E-001	1.2924354E-002	1.3144601E+003	6.5945911E-001	1.000000000000000E+000	10	1.0481657E-002	1.3709422E-003	0	4.010173610102437E-005	1.3076161E-001	2.9296074E-003	1.3079442E-001	1.2834506E+000	6.5945740E+002	2.9434639E+004	2.9442025E+004	-8.8716553E+001	0.0000000E+000	0.0000000E+000	0.0000000E+000	8.8716553E+001	0.0000000E+000	0.0000000E+000	0.0000000E+000	-8.8716553E+001	0.0000000E+000	0.0000000E+000	0.0000000E+000	-1.2834506E+000	0.0000000E+000	0.0000000E+000	0.0000000E+000	1.2834506E+000	4.4634514E+001	8.8716553E+001	1.257122773457211E-006
4.8076920E+002	7.6547065E+000	2.3461619E-001	7.6583014E+000	-1.7555618E+000	2.099598487293842E+002	4.4976166E-001	1.1595716E-002	1.4109951E+003	1.3242701E+000	1.000000000000000E+000	10	1.0495300E-002	1.3704476E-003	0	4.108277993785871E-005	1.3051598E-001	4.0003052E-003	1.3057727E-001	1.7555618E+000	1.3242700E+003	4.3206305E+004	4.3226594E+004	-8.8244438E+001	0.0000000E+000	0.0000000E+000	0.0000000E+000	8.8244438E+001	0.0000000E+000	0.0000000E+000	0.0000000E+000	-8.8244438E+001	0.0000000E+000	0.0000000E+000	0.0000000E+000	-1.7555618E+000	0.0000000E+000	0.0000000E+000	0.0000000E+000	1.7555618E+000	3.2626507E+001	8.8244438E+001	9.810438368343391E-007
3.2677771E+002	7.6692781E+000	3.3011529E-001	7.6763797E+000	-2.4647095E+000	2.104230564847458E+002	4.4975355E-001	1.0574547E-002	1.4753738E+003	2.7284780E+000	1.000000000000000E+000	10	1.0500425E-002	1.3678877E-003	0	4.271123967353035E-005	1.3014923E-001	5.6021237E-003	1.3026974E-001	2.4647095E+000	2.7284744E+003	6.3388332E+004	6.3447027E+004	-8.7535294E+001	0.0000000E+000	0.0000000E+000	0.0000000E+000	8.7535294E+001	0.0000000E+000	0.0000000E+000	0.0000000E+000	-8.7535294E+001	0.0000000E+000	0.0000000E+000	0.0000000E+000	-2.4647095E+000	0.0000000E+000	0.0000000E+000	0.0000000E+000	2.4647095E+000	2.3232121E+001	8.7535294E+001	1.628459735671643E-006
2.2206076E+002	7.6843009E+000	4.6568039E-001	7.6983986E+000	-3.4679706E+000	2.108843134666240E+002	4.4975424E-001	9.9335229E-003	1.5390770E+003	5.6316476E+000	1.000000000000000E+000	10	1.0503032E-002	1.3643139E-003	0	4.340340386499965E-005	1.2965928E-001	7.8575509E-003	1.2989715E-001	3.4679706E+000	5.6316494E+003	9.2929133E+004	9.3099617E+004	-8.6532028E+001	0.0000000E+000	0.0000000E+000	0.0000000E+000	8.6532028E+001	0.0000000E+000	0.0000000E+000	0.0000000E+000	-8.6532028E+001	0.0000000E+000	0.0000000E+000	0.0000000E+000	-3.4679706E+000	0.0000000E+000	0.0000000E+000	0.0000000E+000	3.4679706E+000	1.6501234E+001	8.6532028E+001	6.921641914692987E-007
1.5101485E+002	7.7140918E+000	6.6363484E-001	7.7425852E+000	-4.9169865E+000	2.113478108752897E+002	4.4975233E-001	1.0224219E-002	1.5880760E+003	1.1666960E+001	1.000000000000000E+000	10	1.0511910E-002	1.3576744E-003	0	4.484054850632997E-005	1.2868053E-001	1.1070244E-002	1.2915583E-001	4.9169865E+000	1.1666955E+004	1.3561675E+005	1.3611767E+005	-8.5083015E+001	0.0000000E+000	0.0000000E+000	0.0000000E+000	8.5083015E+001	0.0000000E+000	0.0000000E+000	0.0000000E+000	-8.5083015E+001	0.0000000E+000	0.0000000E+000	0.0000000E+000	-4.9169865E+000	0.0000000E+000	0.0000000E+000	0.0000000E+000	4.9169865E+000	1.1624001E+001	8.5083015E+001	1.437144641330326E-006
1.0266736E+002	7.7409196E+000	9.4203407E-001	7.7980294E+000	-6.9385123E+000	2.118226828178304E+002	4.4976264E-001	1.0723623E-002	1.6455880E+003	2.4015110E+001	1.000000000000000E+000	10	1.0509539E-002	1.3477174E-003	0	4.719152045094395E-005	1.2729837E-001	1.5491621E-002	1.2823753E-001	6.9385123E+000	2.4015117E+004	1.9733792E+005	1.9879381E+005	-8.3061485E+001	0.0000000E+000	0.0000000E+000	0.0000000E+000	8.3061485E+001	0.0000000E+000	0.0000000E+000	0.0000000E+000	-8.3061485E+001	0.0000000E+000	0.0000000E+000	0.0000000E+000	-6.9385123E+000	0.0000000E+000	0.0000000E+000	0.0000000E+000	6.9385123E+000	8.2172394E+000	8.3061485E+001	2.350971944613981E-006
6.9754463E+001	7.7840381E+000	1.3493972E+000	7.9001341E+000	-9.8347359E+000	2.122908309200575E+002	4.4975916E-001	1.1420551E-002	1.6908625E+003	4.9330898E+001	1.000000000000000E+000	10	1.0510649E-002	1.3304392E-003	0	4.943647470045835E-005	1.2471998E-001	2.1620758E-002	1.2658013E-001	9.8347359E+000	4.9330879E+004	2.8456675E+005	2.8881097E+005	-8.0165268E+001	0.0000000E+000	0.0000000E+000	0.0000000E+000	8.0165268E+001	0.0000000E+000	0.0000000E+000	0.0000000E+000	-8.0165268E+001	0.0000000E+000	0.0000000E+000	0.0000000E+000	-9.8347359E+000	0.0000000E+000	0.0000000E+000	0.0000000E+000	9.8347359E+000	5.7685299E+000	8.0165268E+001	2.244954249514396E-006
4.7444328E+001	7.8503895E+000	1.9288615E+000	8.0838804E+000	-1.3804274E+001	2.127348557944788E+002	4.4975516E-001	1.1528628E-002	1.7391410E+003	9.9014114E+001	1.000000000000000E+000	10	1.0515987E-002	1.3008588E-003	0	5.169978642149363E-005	1.2012999E-001	2.9516257E-002	1.2370297E-001	1.3804274E+001	9.9014133E+004	4.0298350E+005	4.1496928E+005	-7.6195724E+001	0.0000000E+000	0.0000000E+000	0.0000000E+000	7.6195724E+001	0.0000000E+000	0.0000000E+000	0.0000000E+000	-7.6195724E+001	0.0000000E+000	0.0000000E+000	0.0000000E+000	-1.3804274E+001	0.0000000E+000	0.0000000E+000	0.0000000E+000	1.3804274E+001	4.0699601E+000	7.6195724E+001	2.263311721035278E-006
3.2238655E+001	7.9303389E+000	2.7435739E+000	8.3915119E+000	-1.9083532E+001	2.131722353353252E+002	4.4974950E-001	8.4502138E-003	1.7993951E+003	1.9234436E+002	1.000000000000000E+000	10	1.0516727E-002	1.2532577E-003	0	5.171571008381175E-005	1.1261891E-001	3.8961548E-002	1.1916804E-001	1.9083532E+001	1.9234436E+005	5.5597406E+005	5.8830563E+005	-7.0916466E+001	0.0000000E+000	0.0000000E+000	0.0000000E+000	7.0916466E+001	0.0000000E+000	0.0000000E+000	0.0000000E+000	-7.0916466E+001	0.0000000E+000	0.0000000E+000	0.0000000E+000	-1.9083532E+001	0.0000000E+000	0.0000000E+000	0.0000000E+000	1.9083532E+001	2.8905141E+000	7.0916466E+001	1.592366231812503E-008
