EC-Lab ASCII FILE
Nb header lines : 63                          

Potentio Electrochemical Impedance Spectroscopy

Run on channel : 2 (SN 69290)
User : 
CE vs. WE compliance from -10 V to 10 V
Electrode connection : standard
Potential control : Ewe
Ewe ctrl range : min = -1.00 V, max = 1.00 V
Safety Limits :
	Do not start on E overload
Acquisition started on : 11/12/2025 20:23:02.181
Loaded Setting File :  C:\Users\User\Documents\EC-Lab\Data\Yatsuzuka\20251112_2-148_alpha_reproducibility\20251112_2-148_002_alpha_reproducibility_2_K1.mps
Saved on :
	File : 20251112_2-148_006_gamma_reproducibility_2_K2_r_02_PEIS_C02.mpr
	Directory : C:\Users\User\Documents\EC-Lab\Data\Yatsuzuka\20251112_2-148_alpha_reproducibility\
	Host : 192.109.209.127
Device : SP-150e (SN .003883)
Address : 192.109.209.128
EC-Lab for windows v11.52 (software)
Internet server v11.52 (firmware)
Command interpretor v11.50 (firmware)
Electrode material : 
Initial state : 
Electrolyte : 
Comments : 
Electrode surface area : 0.001 cm2
Characteristic mass : 0.001 g
Equivalent Weight : 0.000 g/eq.
Density : 0.000 g/cm3
Volume (V) : 0.001 cm3
Cycle Definition : Charge/Discharge alternance
Mode                Single sine         
E (V)               0.4500              
vs.                 Ref                 
tE (h:m:s)          0:00:0.0000         
record              0                   
dI                  0.000               
unit dI             mA                  
dt (s)              0.000               
fi                  500.000             
unit fi             kHz                 
ff                  1.000               
unit ff             Hz                  
Nd                  6                   
Points              per decade          
spacing             Logarithmic         
Va (mV)             10.0                
pw                  0.10                
Na                  2                   
corr                0                   
E range min (V)     -1.000              
E range max (V)     1.000               
I Range             Auto                
Bandwidth           5                   
nc cycles           0                   
goto Ns'            0                   
nr cycles           0                   
inc. cycle          0                   

freq/Hz	Re(Z)/Ohm	-Im(Z)/Ohm	|Z|/Ohm	Phase(Z)/deg	time/s	<Ewe>/V	<I>/mA	Cs/uF	Cp/uF	cycle number	I Range	|Ewe|/V	|I|/A	Ns	(Q-Qo)/mA.h	Re(Y)/Ohm-1	Im(Y)/Ohm-1	|Y|/Ohm-1	Phase(Y)/deg	Re(C)/nF	Im(C)/nF	|C|/nF	Phase(C)/deg	Re(M)	Im(M)	|M|	Phase(M)/deg	Re(Permittivity)	Im(Permittivity)	|Permittivity|	Phase(Permittivity)/deg	Re(Resistivity)/Ohm.cm	Im(Resistivity)/Ohm.cm	|Resistivity|/Ohm.cm	Phase(Resistivity)/deg	Re(Conductivity)/mS/cm	Im(Conductivity)/mS/cm	|Conductivity|/mS/cm	Phase(Conductivity)/deg	Tan(Delta)	Loss Angle(Delta)/deg	dq/mA.h	
5.0001856E+005	1.6430773E+001	-2.2055488E+000	1.6578140E+001	7.6452732E+000	2.021300828630483E+002	4.4978756E-001	1.7370254E-002	-1.4431696E-001	-2.5543422E-003	1.000000000000000E+000	10	5.4034912E-003	3.2594072E-004	0	2.982865972834083E-005	5.9784193E-002	-8.0249999E-003	6.0320396E-002	-7.6452732E+000	-2.5543416E+000	1.9029194E+001	1.9199867E+001	-9.7645271E+001	0.0000000E+000	0.0000000E+000	0.0000000E+000	9.7645271E+001	0.0000000E+000	0.0000000E+000	0.0000000E+000	-9.7645271E+001	0.0000000E+000	0.0000000E+000	0.0000000E+000	7.6452732E+000	0.0000000E+000	0.0000000E+000	0.0000000E+000	-7.6452732E+000	7.4497437E+000	8.2354729E+001	2.982865972834083E-005
3.3989941E+005	1.1532592E+001	-1.4440008E+000	1.1622643E+001	7.1368876E+000	2.025520685097581E+002	4.4968897E-001	1.7623836E-002	-3.2426664E-001	-5.0052688E-003	1.000000000000000E+000	10	8.6166905E-003	7.4137101E-004	0	3.291643983828059E-005	8.5372336E-002	-1.0689507E-002	8.6038955E-002	-7.1368876E+000	-5.0052681E+000	3.9974854E+001	4.0286991E+001	-9.7136887E+001	0.0000000E+000	0.0000000E+000	0.0000000E+000	9.7136887E+001	0.0000000E+000	0.0000000E+000	0.0000000E+000	-9.7136887E+001	0.0000000E+000	0.0000000E+000	0.0000000E+000	7.1368876E+000	0.0000000E+000	0.0000000E+000	0.0000000E+000	-7.1368876E+000	7.9865546E+000	8.2863113E+001	3.087780109939760E-006
2.3106258E+005	9.7125511E+000	-8.1416070E-001	9.7466154E+000	4.7916522E+000	2.029740829297953E+002	4.4955242E-001	1.7877424E-002	-8.4601951E-001	-5.9032748E-003	1.000000000000000E+000	10	1.0427557E-002	1.0698644E-003	0	3.634865065369134E-005	1.0224114E-001	-8.5704271E-003	1.0259972E-001	-4.7916522E+000	-5.9032702E+000	7.0423271E+001	7.0670258E+001	-9.4791649E+001	0.0000000E+000	0.0000000E+000	0.0000000E+000	9.4791649E+001	0.0000000E+000	0.0000000E+000	0.0000000E+000	-9.4791649E+001	0.0000000E+000	0.0000000E+000	0.0000000E+000	4.7916522E+000	0.0000000E+000	0.0000000E+000	0.0000000E+000	-4.7916522E+000	1.1929525E+001	8.5208351E+001	3.432210815410752E-006
1.5707578E+005	9.0523663E+000	-3.6657837E-001	9.0597858E+000	2.3189430E+000	2.035320907163114E+002	4.4953725E-001	1.8703405E-002	-2.7640383E+000	-4.5252428E-003	1.000000000000000E+000	10	1.0039637E-002	1.1081538E-003	0	3.883470043914834E-005	1.1028749E-001	-4.4661257E-003	1.1037789E-001	-2.3189430E+000	-4.5252347E+000	1.1174733E+002	1.1183892E+002	-9.2318939E+001	0.0000000E+000	0.0000000E+000	0.0000000E+000	9.2318939E+001	0.0000000E+000	0.0000000E+000	0.0000000E+000	-9.2318939E+001	0.0000000E+000	0.0000000E+000	0.0000000E+000	2.3189430E+000	0.0000000E+000	0.0000000E+000	0.0000000E+000	-2.3189430E+000	2.4694218E+001	8.7681061E+001	2.486049785456996E-006
1.0678630E+005	8.8637180E+000	-1.1623032E-001	8.8644800E+000	7.5127900E-001	2.039540916429978E+002	4.4955114E-001	1.9053940E-002	-1.2822869E+001	-2.2045376E-003	1.000000000000000E+000	10	1.0850510E-002	1.2240435E-003	0	4.173619041939481E-005	1.1280008E-001	-1.4791524E-003	1.1280978E-001	-7.5127900E-001	-2.2045455E+000	1.6811792E+002	1.6813237E+002	-9.0751282E+001	0.0000000E+000	0.0000000E+000	0.0000000E+000	9.0751282E+001	0.0000000E+000	0.0000000E+000	0.0000000E+000	-9.0751282E+001	0.0000000E+000	0.0000000E+000	0.0000000E+000	7.5127900E-001	0.0000000E+000	0.0000000E+000	0.0000000E+000	-7.5127900E-001	7.6259949E+001	8.9248718E+001	2.901489980246472E-006
7.2595008E+004	8.8162737E+000	-8.5129868E-003	8.8162775E+000	5.5324744E-002	2.043760813963745E+002	4.4955182E-001	1.8544925E-002	-2.5753214E+002	-2.4011807E-004	1.000000000000000E+000	10	1.0763079E-002	1.2208190E-003	0	4.276168985075664E-005	1.1342651E-001	-1.0952455E-004	1.1342656E-001	-5.5324744E-002	-2.4013379E-001	2.4867258E+002	2.4867270E+002	-9.0055328E+001	0.0000000E+000	0.0000000E+000	0.0000000E+000	9.0055328E+001	0.0000000E+000	0.0000000E+000	0.0000000E+000	-9.0055328E+001	0.0000000E+000	0.0000000E+000	0.0000000E+000	5.5324744E-002	0.0000000E+000	0.0000000E+000	0.0000000E+000	-5.5324744E-002	1.0356263E+003	8.9944672E+001	1.025499431361824E-006
4.9352359E+004	8.8115654E+000	4.5021940E-002	8.8116808E+000	-2.9274532E-001	2.047980844297708E+002	4.4954222E-001	1.8410683E-002	7.1628853E+001	1.8699021E-003	1.000000000000000E+000	10	1.0616702E-002	1.2048441E-003	0	4.341898968723328E-005	1.1348424E-001	5.7983800E-004	1.1348572E-001	2.9274532E-001	1.8699161E+000	3.6597192E+002	3.6597672E+002	-8.9707253E+001	0.0000000E+000	0.0000000E+000	0.0000000E+000	8.9707253E+001	0.0000000E+000	0.0000000E+000	0.0000000E+000	-8.9707253E+001	0.0000000E+000	0.0000000E+000	0.0000000E+000	-2.9274532E-001	0.0000000E+000	0.0000000E+000	0.0000000E+000	2.9274532E-001	1.9571715E+002	8.9707253E+001	6.572998364766418E-007
3.3551066E+004	8.8166552E+000	7.5341456E-002	8.8169775E+000	-4.8960087E-001	2.052210697565024E+002	4.4955024E-001	1.8600859E-002	6.2962189E+001	4.5973584E-003	1.000000000000000E+000	10	1.0472085E-002	1.1877182E-003	0	4.551488673813755E-005	1.1341341E-001	9.6915785E-004	1.1341755E-001	4.8960087E-001	4.5973606E+000	5.3799493E+002	5.3801459E+002	-8.9510399E+001	0.0000000E+000	0.0000000E+000	0.0000000E+000	8.9510399E+001	0.0000000E+000	0.0000000E+000	0.0000000E+000	-8.9510399E+001	0.0000000E+000	0.0000000E+000	0.0000000E+000	-4.8960087E-001	0.0000000E+000	0.0000000E+000	0.0000000E+000	4.8960087E-001	1.1702263E+002	8.9510399E+001	2.095897050904268E-006
2.2806563E+004	8.8346977E+000	1.0521957E-001	8.8353243E+000	-6.8234956E-001	2.056430899098777E+002	4.4956324E-001	1.8043367E-002	6.6322945E+001	9.4061485E-003	1.000000000000000E+000	10	1.0498836E-002	1.1882796E-003	0	4.661494660659496E-005	1.1317401E-001	1.3478809E-003	1.1318204E-001	6.8234956E-001	9.4061575E+000	7.8978162E+002	7.8983765E+002	-8.9317650E+001	0.0000000E+000	0.0000000E+000	0.0000000E+000	8.9317650E+001	0.0000000E+000	0.0000000E+000	0.0000000E+000	-8.9317650E+001	0.0000000E+000	0.0000000E+000	0.0000000E+000	-6.8234956E-001	0.0000000E+000	0.0000000E+000	0.0000000E+000	6.8234956E-001	8.3964401E+001	8.9317650E+001	1.100059868457413E-006
1.5504379E+004	8.8577938E+000	1.2795889E-001	8.8587179E+000	-8.2763219E-001	2.060650801432930E+002	4.4955161E-001	1.8246597E-002	8.0222336E+001	1.6737651E-002	1.000000000000000E+000	10	1.0325407E-002	1.1655644E-003	0	4.657055102074011E-005	1.1287137E-001	1.6305299E-003	1.1288315E-001	8.2763219E-001	1.6737591E+001	1.1586429E+003	1.1587638E+003	-8.9172371E+001	0.0000000E+000	0.0000000E+000	0.0000000E+000	8.9172371E+001	0.0000000E+000	0.0000000E+000	0.0000000E+000	-8.9172371E+001	0.0000000E+000	0.0000000E+000	0.0000000E+000	-8.2763219E-001	0.0000000E+000	0.0000000E+000	0.0000000E+000	8.2763219E-001	6.9223747E+001	8.9172371E+001	-4.439558585484632E-008
1.0540381E+004	8.8629150E+000	1.6552986E-001	8.8644609E+000	-1.0699707E+000	2.064880834967043E+002	4.4955927E-001	1.9042749E-002	9.1219460E+001	3.1807940E-002	1.000000000000000E+000	10	1.0319944E-002	1.1641930E-003	0	4.804936021805052E-005	1.1279035E-001	2.1065495E-003	1.1281002E-001	1.0699707E+000	3.1807892E+001	1.7030828E+003	1.7033798E+003	-8.8930031E+001	0.0000000E+000	0.0000000E+000	0.0000000E+000	8.8930031E+001	0.0000000E+000	0.0000000E+000	0.0000000E+000	-8.8930031E+001	0.0000000E+000	0.0000000E+000	0.0000000E+000	-1.0699707E+000	0.0000000E+000	0.0000000E+000	0.0000000E+000	1.0699707E+000	5.3542694E+001	8.8930031E+001	1.478809197310411E-006
7.1637817E+003	8.8853607E+000	2.0441259E-001	8.8877115E+000	-1.3178884E+000	2.070126738416293E+002	4.4953078E-001	1.6339194E-002	1.0868513E+002	5.7491753E-002	1.000000000000000E+000	10	1.0139976E-002	1.1408984E-003	0	4.877098171120623E-005	1.1248514E-001	2.5877825E-003	1.1251491E-001	1.3178884E+000	5.7491657E+001	2.4990383E+003	2.4996995E+003	-8.8682114E+001	0.0000000E+000	0.0000000E+000	0.0000000E+000	8.8682114E+001	0.0000000E+000	0.0000000E+000	0.0000000E+000	-8.8682114E+001	0.0000000E+000	0.0000000E+000	0.0000000E+000	-1.3178884E+000	0.0000000E+000	0.0000000E+000	0.0000000E+000	1.3178884E+000	4.3467773E+001	8.8682114E+001	7.216214931557083E-007
4.8715591E+003	8.9063168E+000	2.6497021E-001	8.9102573E+000	-1.7040938E+000	2.074802714638645E+002	4.4955251E-001	1.8999869E-002	1.2329774E+002	1.0903570E-001	1.000000000000000E+000	10	1.0847382E-002	1.2174039E-003	0	5.111883516303765E-005	1.1218057E-001	3.3374641E-003	1.1223020E-001	1.7040938E+000	1.0903571E+002	3.6649646E+003	3.6665862E+003	-8.8295906E+001	0.0000000E+000	0.0000000E+000	0.0000000E+000	8.8295906E+001	0.0000000E+000	0.0000000E+000	0.0000000E+000	-8.8295906E+001	0.0000000E+000	0.0000000E+000	0.0000000E+000	-1.7040938E+000	0.0000000E+000	0.0000000E+000	0.0000000E+000	1.7040938E+000	3.3612522E+001	8.8295906E+001	2.347853451831419E-006
3.3110596E+003	8.9351540E+000	3.4336472E-001	8.9417486E+000	-2.2007091E+000	2.081672682698336E+002	4.4955602E-001	1.8641874E-002	1.3999016E+002	2.0642577E-001	1.000000000000000E+000	10	1.0162629E-002	1.1365371E-003	0	5.453040045110477E-005	1.1175247E-001	4.2944816E-003	1.1183495E-001	2.2007091E+000	2.0642551E+002	5.3716812E+003	5.3756460E+003	-8.7799294E+001	0.0000000E+000	0.0000000E+000	0.0000000E+000	8.7799294E+001	0.0000000E+000	0.0000000E+000	0.0000000E+000	-8.7799294E+001	0.0000000E+000	0.0000000E+000	0.0000000E+000	-2.2007091E+000	0.0000000E+000	0.0000000E+000	0.0000000E+000	2.2007091E+000	2.6022341E+001	8.7799294E+001	3.411565288067121E-006
2.2507205E+003	8.9627466E+000	4.7315618E-001	8.9752274E+000	-3.0219207E+000	2.086323018119147E+002	4.4955543E-001	1.8580347E-002	1.4944937E+002	4.1534805E-001	1.000000000000000E+000	10	1.0329872E-002	1.1509316E-003	0	5.618555135401503E-005	1.1126286E-001	5.8737248E-003	1.1141779E-001	3.0219207E+000	4.1534784E+002	7.8677178E+003	7.8786733E+003	-8.6978081E+001	0.0000000E+000	0.0000000E+000	0.0000000E+000	8.6978081E+001	0.0000000E+000	0.0000000E+000	0.0000000E+000	-8.6978081E+001	0.0000000E+000	0.0000000E+000	0.0000000E+000	-3.0219207E+000	0.0000000E+000	0.0000000E+000	0.0000000E+000	3.0219207E+000	1.8942469E+001	8.6978081E+001	1.655150902910261E-006
1.5304901E+003	9.0036678E+000	6.5112716E-001	9.0271816E+000	-4.1363149E+000	2.090972946073380E+002	4.4955334E-001	1.8707134E-002	1.5970694E+002	8.3090442E-001	1.000000000000000E+000	10	1.0411917E-002	1.1533962E-003	0	5.759704781815223E-005	1.1048800E-001	7.9902699E-003	1.1077654E-001	4.1363149E+000	8.3090436E+002	1.1489595E+004	1.1519601E+004	-8.5863686E+001	0.0000000E+000	0.0000000E+000	0.0000000E+000	8.5863686E+001	0.0000000E+000	0.0000000E+000	0.0000000E+000	-8.5863686E+001	0.0000000E+000	0.0000000E+000	0.0000000E+000	-4.1363149E+000	0.0000000E+000	0.0000000E+000	0.0000000E+000	4.1363149E+000	1.3827818E+001	8.5863686E+001	1.411496464137193E-006
1.0403328E+003	9.0582829E+000	9.0562350E-001	9.1034412E+000	-5.7093105E+000	2.095622768960893E+002	4.4955483E-001	1.8479662E-002	1.6892743E+002	1.6718001E+000	1.000000000000000E+000	10	1.0454579E-002	1.1484206E-003	0	6.006706499102862E-005	1.0930365E-001	1.0927894E-002	1.0984857E-001	5.7093105E+000	1.6718007E+003	1.6721781E+004	1.6805145E+004	-8.4290688E+001	0.0000000E+000	0.0000000E+000	0.0000000E+000	8.4290688E+001	0.0000000E+000	0.0000000E+000	0.0000000E+000	-8.4290688E+001	0.0000000E+000	0.0000000E+000	0.0000000E+000	-5.7093105E+000	0.0000000E+000	0.0000000E+000	0.0000000E+000	5.7093105E+000	1.0002261E+001	8.4290688E+001	2.470017172876397E-006
7.0703625E+002	9.1103888E+000	1.2591183E+000	9.1969862E+000	-7.8688221E+000	2.100277963848348E+002	4.4955495E-001	1.8406944E-002	1.7877710E+002	3.3508418E+000	1.000000000000000E+000	10	1.0469678E-002	1.1383814E-003	0	6.193124906787307E-005	1.0770747E-001	1.4885913E-002	1.0873127E-001	7.8688221E+000	3.3508411E+003	2.4245117E+004	2.4475576E+004	-8.2131180E+001	0.0000000E+000	0.0000000E+000	0.0000000E+000	8.2131180E+001	0.0000000E+000	0.0000000E+000	0.0000000E+000	-8.2131180E+001	0.0000000E+000	0.0000000E+000	0.0000000E+000	-7.8688221E+000	0.0000000E+000	0.0000000E+000	0.0000000E+000	7.8688221E+000	7.2355304E+000	8.2131180E+001	1.864184076844446E-006
4.8076920E+002	9.1654263E+000	1.7737713E+000	9.3354864E+000	-1.0952965E+001	2.104930299802363E+002	4.4955689E-001	1.7802842E-002	1.8663190E+002	6.7376308E+000	1.000000000000000E+000	10	1.0469590E-002	1.1214832E-003	0	6.392213296062437E-005	1.0516682E-001	2.0352779E-002	1.0711814E-001	1.0952965E+001	6.7376309E+003	3.4814668E+004	3.5460637E+004	-7.9047035E+001	0.0000000E+000	0.0000000E+000	0.0000000E+000	7.9047035E+001	0.0000000E+000	0.0000000E+000	0.0000000E+000	-7.9047035E+001	0.0000000E+000	0.0000000E+000	0.0000000E+000	-1.0952965E+001	0.0000000E+000	0.0000000E+000	0.0000000E+000	1.0952965E+001	5.1671972E+000	7.9047035E+001	1.990883892751295E-006
3.2677771E+002	9.2502871E+000	2.5147858E+000	9.5860291E+000	-1.5208875E+001	2.109562837089688E+002	4.4955188E-001	1.7465366E-002	1.9367195E+002	1.3328806E+001	1.000000000000000E+000	10	1.0476762E-002	1.0929200E-003	0	6.554712971703480E-005	1.0066482E-001	2.7366770E-002	1.0431848E-001	1.5208875E+001	1.3328809E+004	4.9028141E+004	5.0807633E+004	-7.4791122E+001	0.0000000E+000	0.0000000E+000	0.0000000E+000	7.4791122E+001	0.0000000E+000	0.0000000E+000	0.0000000E+000	-7.4791122E+001	0.0000000E+000	0.0000000E+000	0.0000000E+000	-1.5208875E+001	0.0000000E+000	0.0000000E+000	0.0000000E+000	1.5208875E+001	3.6783600E+000	7.4791122E+001	1.624996756410438E-006
2.2206076E+002	9.3614998E+000	3.5842805E+000	1.0024208E+001	-2.0950573E+001	2.114174852241849E+002	4.4954765E-001	1.7603338E-002	1.9996147E+002	2.5565256E+001	1.000000000000000E+000	10	1.0481295E-002	1.0455983E-003	0	6.875955674544457E-005	9.3163393E-002	3.5669897E-002	9.9758506E-002	2.0950573E+001	2.5565258E+004	6.6771875E+004	7.1498711E+004	-6.9049423E+001	0.0000000E+000	0.0000000E+000	0.0000000E+000	6.9049423E+001	0.0000000E+000	0.0000000E+000	0.0000000E+000	-6.9049423E+001	0.0000000E+000	0.0000000E+000	0.0000000E+000	-2.0950573E+001	0.0000000E+000	0.0000000E+000	0.0000000E+000	2.0950573E+001	2.6118212E+000	6.9049423E+001	3.212427028409767E-006
1.5101485E+002	9.4876232E+000	5.1391888E+000	1.0790100E+001	-2.8443207E+001	2.118789898327232E+002	4.4955355E-001	1.7821485E-002	2.0507179E+002	4.6520473E+001	1.000000000000000E+000	10	1.0479661E-002	9.7122928E-004	0	7.054782939320406E-005	8.1490412E-002	4.4141151E-002	9.2677549E-002	2.8443207E+001	4.6520473E+004	8.5882953E+004	9.7673109E+004	-6.1556793E+001	0.0000000E+000	0.0000000E+000	0.0000000E+000	6.1556793E+001	0.0000000E+000	0.0000000E+000	0.0000000E+000	-6.1556793E+001	0.0000000E+000	0.0000000E+000	0.0000000E+000	-2.8443207E+001	0.0000000E+000	0.0000000E+000	0.0000000E+000	2.8443207E+001	1.8461325E+000	6.1556793E+001	1.788272647759489E-006
1.0266736E+002	9.6754580E+000	7.3787951E+000	1.2168036E+001	-3.7330231E+001	2.123539089219557E+002	4.4955194E-001	1.8352872E-002	2.1008850E+002	7.7255989E+001	1.000000000000000E+000	10	1.0475874E-002	8.6093380E-004	0	7.231876751060068E-005	6.5347731E-002	4.9836144E-002	8.2182527E-002	3.7330231E+001	7.7255992E+004	1.0130205E+005	1.2739935E+005	-5.2669769E+001	0.0000000E+000	0.0000000E+000	0.0000000E+000	5.2669769E+001	0.0000000E+000	0.0000000E+000	0.0000000E+000	-5.2669769E+001	0.0000000E+000	0.0000000E+000	0.0000000E+000	-3.7330231E+001	0.0000000E+000	0.0000000E+000	0.0000000E+000	3.7330231E+001	1.3112518E+000	5.2669769E+001	1.770938117396623E-006
6.9754463E+001	9.9085178E+000	1.0634195E+001	1.4534952E+001	-4.7023151E+001	2.128210462774878E+002	4.4955525E-001	1.7935213E-002	2.1455740E+002	1.1484856E+002	1.000000000000000E+000	10	1.0469195E-002	7.2027720E-004	0	7.443306458832336E-005	4.6900932E-002	5.0335851E-002	6.8799675E-002	4.7023151E+001	1.1484856E+005	1.0701129E+005	1.5697645E+005	-4.2976849E+001	0.0000000E+000	0.0000000E+000	0.0000000E+000	4.2976849E+001	0.0000000E+000	0.0000000E+000	0.0000000E+000	-4.2976849E+001	0.0000000E+000	0.0000000E+000	0.0000000E+000	-4.7023151E+001	0.0000000E+000	0.0000000E+000	0.0000000E+000	4.7023151E+001	9.3176001E-001	4.2976852E+001	2.114297077722679E-006
4.7444328E+001	1.0257895E+001	1.5362898E+001	1.8472765E+001	-5.6268738E+001	2.132650386985770E+002	4.4953963E-001	1.7109232E-002	2.1835478E+002	1.5102373E+002	1.000000000000000E+000	10	1.0469099E-002	5.6673156E-004	0	7.608308430789313E-005	3.0060377E-002	4.5020398E-002	5.4133747E-002	5.6268738E+001	1.5102372E+005	1.0083940E+005	1.8159502E+005	-3.3731262E+001	0.0000000E+000	0.0000000E+000	0.0000000E+000	3.3731262E+001	0.0000000E+000	0.0000000E+000	0.0000000E+000	-3.3731262E+001	0.0000000E+000	0.0000000E+000	0.0000000E+000	-5.6268738E+001	0.0000000E+000	0.0000000E+000	0.0000000E+000	5.6268738E+001	6.6770571E-001	3.3731262E+001	1.650019719569767E-006
3.2238655E+001	1.0735547E+001	2.2195997E+001	2.4655918E+001	-6.4188324E+001	2.139414425440627E+002	4.4954664E-001	5.2455341E-004	2.2241730E+002	1.8025011E+002	1.000000000000000E+000	11	1.0484341E-002	4.2522611E-004	0	7.646758458766756E-005	1.7659638E-002	3.6511723E-002	4.0558215E-002	6.4188324E+001	1.8025013E+005	8.7181633E+004	2.0022673E+005	-2.5811676E+001	0.0000000E+000	0.0000000E+000	0.0000000E+000	2.5811676E+001	0.0000000E+000	0.0000000E+000	0.0000000E+000	-2.5811676E+001	0.0000000E+000	0.0000000E+000	0.0000000E+000	-6.4188324E+001	0.0000000E+000	0.0000000E+000	0.0000000E+000	6.4188324E+001	4.8367041E-001	2.5811676E+001	3.845002797744364E-007
