EC-Lab ASCII FILE
Nb header lines : 63                          

Potentio Electrochemical Impedance Spectroscopy

Run on channel : 1 (SN 69187)
User : 
CE vs. WE compliance from -10 V to 10 V
Electrode connection : standard
Potential control : Ewe
Ewe ctrl range : min = -1.00 V, max = 1.00 V
Safety Limits :
	Do not start on E overload
Acquisition started on : 11/12/2025 16:18:27.289
Loaded Setting File :  C:\Users\User\Documents\EC-Lab\Data\Yatsuzuka\20251030_2-147_gamma_reproducibility\20251030_2-147_001_gamma1_K_1.mps
Saved on :
	File : 20251112_2-148_003_alpha_Na_first_1_K1_02_PEIS_C01.mpr
	Directory : C:\Users\User\Documents\EC-Lab\Data\Yatsuzuka\20251112_2-148_alpha_reproducibility\
	Host : 192.109.209.127
Device : SP-150e (SN .003883)
Address : 192.109.209.128
EC-Lab for windows v11.52 (software)
Internet server v11.52 (firmware)
Command interpretor v11.50 (firmware)
Electrode material : 
Initial state : 
Electrolyte : 
Comments : 
Electrode surface area : 0.001 cm2
Characteristic mass : 0.001 g
Equivalent Weight : 0.000 g/eq.
Density : 0.000 g/cm3
Volume (V) : 0.001 cm3
Cycle Definition : Charge/Discharge alternance
Mode                Single sine         
E (V)               0.4500              
vs.                 Ref                 
tE (h:m:s)          0:00:0.0000         
record              0                   
dI                  0.000               
unit dI             mA                  
dt (s)              0.000               
fi                  500.000             
unit fi             kHz                 
ff                  1.000               
unit ff             Hz                  
Nd                  6                   
Points              per decade          
spacing             Logarithmic         
Va (mV)             10.0                
pw                  0.10                
Na                  2                   
corr                0                   
E range min (V)     -1.000              
E range max (V)     1.000               
I Range             Auto                
Bandwidth           5                   
nc cycles           0                   
goto Ns'            0                   
nr cycles           0                   
inc. cycle          0                   

freq/Hz	Re(Z)/Ohm	-Im(Z)/Ohm	|Z|/Ohm	Phase(Z)/deg	time/s	<Ewe>/V	<I>/mA	Cs/uF	Cp/uF	cycle number	I Range	|Ewe|/V	|I|/A	Ns	(Q-Qo)/mA.h	Re(Y)/Ohm-1	Im(Y)/Ohm-1	|Y|/Ohm-1	Phase(Y)/deg	Re(C)/nF	Im(C)/nF	|C|/nF	Phase(C)/deg	Re(M)	Im(M)	|M|	Phase(M)/deg	Re(Permittivity)	Im(Permittivity)	|Permittivity|	Phase(Permittivity)/deg	Re(Resistivity)/Ohm.cm	Im(Resistivity)/Ohm.cm	|Resistivity|/Ohm.cm	Phase(Resistivity)/deg	Re(Conductivity)/mS/cm	Im(Conductivity)/mS/cm	|Conductivity|/mS/cm	Phase(Conductivity)/deg	Tan(Delta)	Loss Angle(Delta)/deg	dq/mA.h	
5.0001856E+005	1.5498395E+001	-2.1703064E+000	1.5649616E+001	7.9715362E+000	2.015988785189256E+002	4.5014134E-001	1.0281959E-002	-1.4666043E-001	-2.8206401E-003	1.000000000000000E+000	10	5.0217281E-003	3.2088507E-004	0	2.103040597339795E-005	6.3281879E-002	-8.8616312E-003	6.3899331E-002	-7.9715362E+000	-2.8206396E+000	2.0142498E+001	2.0339033E+001	-9.7971535E+001	0.0000000E+000	0.0000000E+000	0.0000000E+000	9.7971535E+001	0.0000000E+000	0.0000000E+000	0.0000000E+000	-9.7971535E+001	0.0000000E+000	0.0000000E+000	0.0000000E+000	7.9715362E+000	0.0000000E+000	0.0000000E+000	0.0000000E+000	-7.9715362E+000	7.1411090E+000	8.2028465E+001	2.103040597339795E-005
3.3989941E+005	1.0302005E+001	-1.5913036E+000	1.0424181E+001	8.7808199E+000	2.020218854189879E+002	4.5000651E-001	9.2496211E-003	-2.9425013E-001	-6.8570748E-003	1.000000000000000E+000	10	7.6261666E-003	7.3158427E-004	0	2.327664803029297E-005	9.4806448E-002	-1.4644317E-002	9.5930800E-002	-8.7808199E+000	-6.8570766E+000	4.4392292E+001	4.4918762E+001	-9.8780823E+001	0.0000000E+000	0.0000000E+000	0.0000000E+000	9.8780823E+001	0.0000000E+000	0.0000000E+000	0.0000000E+000	-9.8780823E+001	0.0000000E+000	0.0000000E+000	0.0000000E+000	8.7808199E+000	0.0000000E+000	0.0000000E+000	0.0000000E+000	-8.7808199E+000	6.4739404E+000	8.1219177E+001	2.246242056895021E-006
2.3106258E+005	8.3461037E+000	-9.7549921E-001	8.4029188E+000	6.6665282E+000	2.024438725590153E+002	4.4982919E-001	9.8887961E-003	-7.0609576E-001	-9.5160585E-003	1.000000000000000E+000	10	1.0168724E-002	1.2101418E-003	0	2.550756045669712E-005	1.1820162E-001	-1.3815499E-002	1.1900627E-001	-6.6665282E+000	-9.5160561E+000	8.1416786E+001	8.1971024E+001	-9.6666527E+001	0.0000000E+000	0.0000000E+000	0.0000000E+000	9.6666527E+001	0.0000000E+000	0.0000000E+000	0.0000000E+000	-9.6666527E+001	0.0000000E+000	0.0000000E+000	0.0000000E+000	6.6665282E+000	0.0000000E+000	0.0000000E+000	0.0000000E+000	-6.6665282E+000	8.5557261E+000	8.3333473E+001	2.230912426404153E-006
1.5707578E+005	7.5829306E+000	-5.2416861E-001	7.6010256E+000	3.9542696E+000	2.028658775657677E+002	4.4978052E-001	1.1593850E-002	-1.9330359E+000	-9.1925822E-003	1.000000000000000E+000	10	1.0910103E-002	1.4353462E-003	0	2.992050165239359E-005	1.3124800E-001	-9.0724928E-003	1.3156119E-001	-3.9542696E+000	-9.1925821E+000	1.3298529E+002	1.3330263E+002	-9.3954269E+001	0.0000000E+000	0.0000000E+000	0.0000000E+000	9.3954269E+001	0.0000000E+000	0.0000000E+000	0.0000000E+000	-9.3954269E+001	0.0000000E+000	0.0000000E+000	0.0000000E+000	3.9542696E+000	0.0000000E+000	0.0000000E+000	0.0000000E+000	-3.9542696E+000	1.4466586E+001	8.6045731E+001	4.412941195696475E-006
1.0678630E+005	7.3444400E+000	-2.5948977E-001	7.3490229E+000	2.0235016E+000	2.032878801724437E+002	4.4976735E-001	1.3310084E-002	-5.7436023E+000	-7.1608680E-003	1.000000000000000E+000	10	1.0980282E-002	1.4941145E-003	0	3.559893648631017E-005	1.3598767E-001	-4.8046424E-003	1.3607252E-001	-2.0235016E+000	-7.1608567E+000	2.0267683E+002	2.0280330E+002	-9.2023499E+001	0.0000000E+000	0.0000000E+000	0.0000000E+000	9.2023499E+001	0.0000000E+000	0.0000000E+000	0.0000000E+000	-9.2023499E+001	0.0000000E+000	0.0000000E+000	0.0000000E+000	2.0235016E+000	0.0000000E+000	0.0000000E+000	0.0000000E+000	-2.0235016E+000	2.8303389E+001	8.7976501E+001	5.678434833916577E-006
7.2595008E+004	7.2675314E+000	-1.3404667E-001	7.2687674E+000	1.0566777E+000	2.037098683791846E+002	4.4977009E-001	1.4189632E-002	-1.6355255E+001	-5.5622165E-003	1.000000000000000E+000	10	1.0771317E-002	1.4818630E-003	0	3.648226666847606E-005	1.3755152E-001	-2.5370822E-003	1.3757491E-001	-1.0566777E+000	-5.5622225E+000	3.0156348E+002	3.0161478E+002	-9.1056679E+001	0.0000000E+000	0.0000000E+000	0.0000000E+000	9.1056679E+001	0.0000000E+000	0.0000000E+000	0.0000000E+000	-9.1056679E+001	0.0000000E+000	0.0000000E+000	0.0000000E+000	1.0566777E+000	0.0000000E+000	0.0000000E+000	0.0000000E+000	-1.0566777E+000	5.4216423E+001	8.8943321E+001	8.833301821658881E-007
4.9352359E+004	7.2435007E+000	-7.4928246E-002	7.2438884E+000	5.9265810E-001	2.041328921325767E+002	4.4976112E-001	1.4368523E-002	-4.3039444E+001	-4.6048369E-003	1.000000000000000E+000	10	1.0643146E-002	1.4692587E-003	0	3.814720097722926E-005	1.3804002E-001	-1.4279142E-003	1.3804741E-001	-5.9265810E-001	-4.6048446E+000	4.4516113E+002	4.4518494E+002	-9.0592659E+001	0.0000000E+000	0.0000000E+000	0.0000000E+000	9.0592659E+001	0.0000000E+000	0.0000000E+000	0.0000000E+000	-9.0592659E+001	0.0000000E+000	0.0000000E+000	0.0000000E+000	5.9265810E-001	0.0000000E+000	0.0000000E+000	0.0000000E+000	-5.9265810E-001	9.6672501E+001	8.9407341E+001	1.664934308753197E-006
3.3551066E+004	7.2272768E+000	-4.1294411E-002	7.2273946E+000	3.2736671E-001	2.045548787393054E+002	4.4976026E-001	1.4208267E-002	-1.1487421E+002	-3.7500889E-003	1.000000000000000E+000	10	1.0539684E-002	1.4582966E-003	0	4.002307968979908E-005	1.3836019E-001	-7.9054711E-004	1.3836245E-001	-3.2736671E-001	-3.7501225E+000	6.5633398E+002	6.5634473E+002	-9.0327370E+001	0.0000000E+000	0.0000000E+000	0.0000000E+000	9.0327370E+001	0.0000000E+000	0.0000000E+000	0.0000000E+000	-9.0327370E+001	0.0000000E+000	0.0000000E+000	0.0000000E+000	3.2736671E-001	0.0000000E+000	0.0000000E+000	0.0000000E+000	-3.2736671E-001	1.7501828E+002	8.9672630E+001	1.875878712569828E-006
2.2806563E+004	7.2268758E+000	-9.9535240E-003	7.2268825E+000	7.8913018E-002	2.049768683060101E+002	4.4977465E-001	1.3455434E-002	-7.0110559E+002	-1.3299496E-003	1.000000000000000E+000	10	1.0517728E-002	1.4553616E-003	0	4.167065889706201E-005	1.3837212E-001	-1.9057894E-004	1.3837226E-001	-7.8913018E-002	-1.3299127E+000	9.6562585E+002	9.6562677E+002	-9.0078911E+001	0.0000000E+000	0.0000000E+000	0.0000000E+000	9.0078911E+001	0.0000000E+000	0.0000000E+000	0.0000000E+000	-9.0078911E+001	0.0000000E+000	0.0000000E+000	0.0000000E+000	7.8913018E-002	0.0000000E+000	0.0000000E+000	0.0000000E+000	-7.8913018E-002	7.2606201E+002	8.9921089E+001	1.647579207262928E-006
1.5504379E+004	7.2176418E+000	4.0310205E-004	7.2176418E+000	-3.1999436E-003	2.053988814194017E+002	4.4977129E-001	1.1588260E-002	2.5465416E+004	7.9431018E-005	1.000000000000000E+000	10	1.0358713E-002	1.4351935E-003	0	4.186385610050962E-005	1.3854940E-001	7.7379218E-006	1.3854940E-001	3.1999436E-003	7.9350911E-002	1.4222321E+003	1.4222321E+003	-8.9996803E+001	0.0000000E+000	0.0000000E+000	0.0000000E+000	8.9996803E+001	0.0000000E+000	0.0000000E+000	0.0000000E+000	-8.9996803E+001	0.0000000E+000	0.0000000E+000	0.0000000E+000	-3.1999436E-003	0.0000000E+000	0.0000000E+000	0.0000000E+000	3.1999436E-003	1.7905248E+004	8.9996803E+001	1.931972034476055E-007
1.0540381E+004	7.2244358E+000	6.7528272E-003	7.2244391E+000	-5.3555515E-002	2.058208918394666E+002	4.4976851E-001	1.0125455E-002	2.2360330E+003	1.9536249E-003	1.000000000000000E+000	10	1.0364562E-002	1.4346528E-003	0	4.309161677463109E-005	1.3841899E-001	1.2938304E-004	1.3841905E-001	5.3555515E-002	1.9537283E+000	2.0900635E+003	2.0900645E+003	-8.9946442E+001	0.0000000E+000	0.0000000E+000	0.0000000E+000	8.9946442E+001	0.0000000E+000	0.0000000E+000	0.0000000E+000	-8.9946442E+001	0.0000000E+000	0.0000000E+000	0.0000000E+000	-5.3555515E-002	0.0000000E+000	0.0000000E+000	0.0000000E+000	5.3555515E-002	1.0698387E+003	8.9946442E+001	1.227760674121477E-006
7.1637817E+003	7.2271614E+000	2.2179179E-002	7.2271953E+000	-1.7583244E-001	2.063454861843638E+002	4.4974950E-001	8.0775293E-003	1.0016877E+003	9.4337352E-003	1.000000000000000E+000	10	1.0142080E-002	1.4033217E-003	0	4.428096662129327E-005	1.3836561E-001	4.2462532E-004	1.3836627E-001	1.7583244E-001	9.4338541E+000	3.0740149E+003	3.0740293E+003	-8.9824165E+001	0.0000000E+000	0.0000000E+000	0.0000000E+000	8.9824165E+001	0.0000000E+000	0.0000000E+000	0.0000000E+000	-8.9824165E+001	0.0000000E+000	0.0000000E+000	0.0000000E+000	-1.7583244E-001	0.0000000E+000	0.0000000E+000	0.0000000E+000	1.7583244E-001	3.2585342E+002	8.9824165E+001	1.189349846662177E-006
4.8715591E+003	7.2324333E+000	2.6467033E-002	7.2324820E+000	-2.0967251E-001	2.070340951771141E+002	4.4975978E-001	1.3723772E-002	1.2343744E+003	1.6530374E-002	1.000000000000000E+000	10	1.0102481E-002	1.3968208E-003	0	4.427094780900775E-005	1.3826419E-001	5.0597673E-004	1.3826512E-001	2.0967251E-001	1.6530258E+001	4.5171230E+003	4.5171533E+003	-8.9790329E+001	0.0000000E+000	0.0000000E+000	0.0000000E+000	8.9790329E+001	0.0000000E+000	0.0000000E+000	0.0000000E+000	-8.9790329E+001	0.0000000E+000	0.0000000E+000	0.0000000E+000	-2.0967251E-001	0.0000000E+000	0.0000000E+000	0.0000000E+000	2.0967251E-001	2.7326196E+002	8.9790329E+001	-1.001881228552545E-008
3.3110596E+003	7.2403564E+000	4.3955568E-002	7.2404900E+000	-3.4783337E-001	2.075000649325812E+002	4.4976935E-001	1.1060907E-002	1.0935515E+003	4.0302422E-002	1.000000000000000E+000	10	1.0609209E-002	1.4652611E-003	0	4.473290600947803E-005	1.3810965E-001	8.3845161E-004	1.3811220E-001	3.4783337E-001	4.0302231E+001	6.6386104E+003	6.6387329E+003	-8.9652168E+001	0.0000000E+000	0.0000000E+000	0.0000000E+000	8.9652168E+001	0.0000000E+000	0.0000000E+000	0.0000000E+000	-8.9652168E+001	0.0000000E+000	0.0000000E+000	0.0000000E+000	-3.4783337E-001	0.0000000E+000	0.0000000E+000	0.0000000E+000	3.4783337E-001	1.6471989E+002	8.9652168E+001	4.619582004702845E-007
2.2507205E+003	7.2418456E+000	6.4921327E-002	7.2421365E+000	-5.1362854E-001	2.079651033546688E+002	4.4976985E-001	1.2603839E-002	1.0892090E+003	8.7529123E-002	1.000000000000000E+000	10	1.0866405E-002	1.5004419E-003	0	4.748603126575472E-005	1.3807526E-001	1.2378101E-003	1.3808081E-001	5.1362854E-001	8.7528702E+001	9.7636992E+003	9.7640918E+003	-8.9486374E+001	0.0000000E+000	0.0000000E+000	0.0000000E+000	8.9486374E+001	0.0000000E+000	0.0000000E+000	0.0000000E+000	-8.9486374E+001	0.0000000E+000	0.0000000E+000	0.0000000E+000	-5.1362854E-001	0.0000000E+000	0.0000000E+000	0.0000000E+000	5.1362854E-001	1.1154802E+002	8.9486374E+001	2.753125256276690E-006
1.5304901E+003	7.2441440E+000	8.5193090E-002	7.2446451E+000	-6.7378277E-001	2.084300981500855E+002	4.4976801E-001	1.3196414E-002	1.2206334E+003	1.6879508E-001	1.000000000000000E+000	10	1.0993825E-002	1.5175105E-003	0	5.041933879219384E-005	1.3802344E-001	1.6231929E-003	1.3803299E-001	6.7378277E-001	1.6879497E+002	1.4352993E+004	1.4353985E+004	-8.9326218E+001	0.0000000E+000	0.0000000E+000	0.0000000E+000	8.9326218E+001	0.0000000E+000	0.0000000E+000	0.0000000E+000	-8.9326218E+001	0.0000000E+000	0.0000000E+000	0.0000000E+000	-6.7378277E-001	0.0000000E+000	0.0000000E+000	0.0000000E+000	6.7378277E-001	8.5032059E+001	8.9326218E+001	2.933307526439115E-006
1.0403328E+003	7.2483187E+000	1.1063897E-001	7.2491632E+000	-8.7449986E-001	2.091170805027141E+002	4.4976437E-001	1.3080884E-002	1.3827375E+003	3.2209221E-001	1.000000000000000E+000	10	1.0073569E-002	1.3896181E-003	0	5.097429123096016E-005	1.3793090E-001	2.1053893E-003	1.3794696E-001	8.7449986E-001	3.2209094E+002	2.1101307E+004	2.1103766E+004	-8.9125504E+001	0.0000000E+000	0.0000000E+000	0.0000000E+000	8.9125504E+001	0.0000000E+000	0.0000000E+000	0.0000000E+000	-8.9125504E+001	0.0000000E+000	0.0000000E+000	0.0000000E+000	-8.7449986E-001	0.0000000E+000	0.0000000E+000	0.0000000E+000	8.7449986E-001	6.5513252E+001	8.9125504E+001	5.549524387663254E-007
7.0703625E+002	7.2605209E+000	1.6076054E-001	7.2623005E+000	-1.2684208E+000	2.095805549780052E+002	4.4976652E-001	1.1826783E-002	1.4002286E+003	6.8613482E-001	1.000000000000000E+000	10	1.0108661E-002	1.3919364E-003	0	5.342759336961252E-005	1.3766368E-001	3.0481128E-003	1.3769741E-001	1.2684208E+000	6.8613306E+002	3.0988305E+004	3.0995900E+004	-8.8731583E+001	0.0000000E+000	0.0000000E+000	0.0000000E+000	8.8731583E+001	0.0000000E+000	0.0000000E+000	0.0000000E+000	-8.8731583E+001	0.0000000E+000	0.0000000E+000	0.0000000E+000	-1.2684208E+000	0.0000000E+000	0.0000000E+000	0.0000000E+000	1.2684208E+000	4.5163578E+001	8.8731583E+001	2.453302138652359E-006
4.8076920E+002	7.2671375E+000	2.2046451E-001	7.2704811E+000	-1.7376598E+000	2.100458286534558E+002	4.4976562E-001	1.0050920E-002	1.5015674E+003	1.3806890E+000	1.000000000000000E+000	10	1.0113955E-002	1.3910984E-003	0	5.548084765158516E-005	1.3747923E-001	4.1707335E-003	1.3754249E-001	1.7376598E+000	1.3806918E+003	4.5511441E+004	4.5532379E+004	-8.8262337E+001	0.0000000E+000	0.0000000E+000	0.0000000E+000	8.8262337E+001	0.0000000E+000	0.0000000E+000	0.0000000E+000	-8.8262337E+001	0.0000000E+000	0.0000000E+000	0.0000000E+000	-1.7376598E+000	0.0000000E+000	0.0000000E+000	0.0000000E+000	1.7376598E+000	3.2962845E+001	8.8262337E+001	2.053254281972637E-006
3.2677771E+002	7.2834878E+000	3.2061368E-001	7.2905412E+000	-2.5204902E+000	2.105090488088354E+002	4.4977230E-001	1.2989574E-002	1.5190975E+003	2.9378543E+000	1.000000000000000E+000	10	1.0122624E-002	1.3884599E-003	0	5.774989350647795E-005	1.3703133E-001	6.0320166E-003	1.3716403E-001	2.5204902E+000	2.9378569E+003	6.6740211E+004	6.6804844E+004	-8.7479507E+001	0.0000000E+000	0.0000000E+000	0.0000000E+000	8.7479507E+001	0.0000000E+000	0.0000000E+000	0.0000000E+000	-8.7479507E+001	0.0000000E+000	0.0000000E+000	0.0000000E+000	-2.5204902E+000	0.0000000E+000	0.0000000E+000	0.0000000E+000	2.5204902E+000	2.2717333E+001	8.7479507E+001	2.269045854892794E-006
2.2206076E+002	7.3021264E+000	4.4370535E-001	7.3155947E+000	-3.4772370E+000	2.109703051240504E+002	4.4976911E-001	1.0520509E-002	1.6153018E+003	5.9421511E+000	1.000000000000000E+000	10	1.0131745E-002	1.3849516E-003	0	5.812517206693560E-005	1.3644263E-001	8.2907798E-003	1.3669428E-001	3.4772370E+000	5.9421460E+003	9.7790891E+004	9.7971258E+004	-8.6522766E+001	0.0000000E+000	0.0000000E+000	0.0000000E+000	8.6522766E+001	0.0000000E+000	0.0000000E+000	0.0000000E+000	-8.6522766E+001	0.0000000E+000	0.0000000E+000	0.0000000E+000	-3.4772370E+000	0.0000000E+000	0.0000000E+000	0.0000000E+000	3.4772370E+000	1.6457151E+001	8.6522766E+001	3.752785604576483E-007
1.5101485E+002	7.3302460E+000	6.4292008E-001	7.3583865E+000	-5.0124626E+000	2.114318076259369E+002	4.4976225E-001	1.1955361E-002	1.6392435E+003	1.2513888E+001	1.000000000000000E+000	10	1.0132083E-002	1.3769435E-003	0	5.972096376151441E-005	1.3537964E-001	1.1873857E-002	1.3589936E-001	5.0124626E+000	1.2513896E+004	1.4267694E+005	1.4322467E+005	-8.4987534E+001	0.0000000E+000	0.0000000E+000	0.0000000E+000	8.4987534E+001	0.0000000E+000	0.0000000E+000	0.0000000E+000	-8.4987534E+001	0.0000000E+000	0.0000000E+000	0.0000000E+000	-5.0124626E+000	0.0000000E+000	0.0000000E+000	0.0000000E+000	5.0124626E+000	1.1401488E+001	8.4987534E+001	1.595791694578812E-006
1.0266736E+002	7.3688803E+000	9.0447414E-001	7.4241815E+000	-6.9976211E+000	2.119067111151671E+002	4.4977340E-001	1.3028705E-002	1.7139241E+003	2.5438221E+001	1.000000000000000E+000	10	1.0138874E-002	1.3656555E-003	0	6.076486233639379E-005	1.3369167E-001	1.6409637E-002	1.3469498E-001	6.9976211E+000	2.5438219E+004	2.0724884E+005	2.0880419E+005	-8.3002380E+001	0.0000000E+000	0.0000000E+000	0.0000000E+000	8.3002380E+001	0.0000000E+000	0.0000000E+000	0.0000000E+000	-8.3002380E+001	0.0000000E+000	0.0000000E+000	0.0000000E+000	-6.9976211E+000	0.0000000E+000	0.0000000E+000	0.0000000E+000	6.9976211E+000	8.1471434E+000	8.3002380E+001	1.043898574879377E-006
6.9754463E+001	7.4186440E+000	1.2779040E+000	7.5279026E+000	-9.7736120E+000	2.123738663107069E+002	4.4976601E-001	1.0078871E-002	1.7854591E+003	5.1451542E+001	1.000000000000000E+000	10	1.0142969E-002	1.3473831E-003	0	6.138722807347787E-005	1.3091113E-001	2.2550192E-002	1.3283913E-001	9.7736120E+000	5.1451547E+004	2.9869275E+005	3.0309178E+005	-8.0226387E+001	0.0000000E+000	0.0000000E+000	0.0000000E+000	8.0226387E+001	0.0000000E+000	0.0000000E+000	0.0000000E+000	-8.0226387E+001	0.0000000E+000	0.0000000E+000	0.0000000E+000	-9.7736120E+000	0.0000000E+000	0.0000000E+000	0.0000000E+000	9.7736120E+000	5.8053217E+000	8.0226387E+001	6.223657370840797E-007
4.7444328E+001	7.4861088E+000	1.8154383E+000	7.7030931E+000	-1.3631505E+001	2.128178611317562E+002	4.4975394E-001	1.2052258E-002	1.8477975E+003	1.0263300E+002	1.000000000000000E+000	10	1.0145709E-002	1.3170955E-003	0	6.213290447893734E-005	1.2616120E-001	3.0595049E-002	1.2981798E-001	1.3631505E+001	1.0263302E+005	4.2321559E+005	4.3548247E+005	-7.6368492E+001	0.0000000E+000	0.0000000E+000	0.0000000E+000	7.6368492E+001	0.0000000E+000	0.0000000E+000	0.0000000E+000	-7.6368492E+001	0.0000000E+000	0.0000000E+000	0.0000000E+000	-1.3631505E+001	0.0000000E+000	0.0000000E+000	0.0000000E+000	1.3631505E+001	4.1235819E+000	7.6368492E+001	7.456764054594690E-007
3.2238655E+001	7.5641904E+000	2.5865824E+000	7.9942093E+000	-1.8878176E+001	2.132552360059199E+002	4.4975337E-001	9.3092630E-003	1.9086086E+003	1.9981059E+002	1.000000000000000E+000	10	1.0154451E-002	1.2702259E-003	0	6.429621233295701E-005	1.1836176E-001	4.0473923E-002	1.2509054E-001	1.8878176E+001	1.9981058E+005	5.8432519E+005	6.1754369E+005	-7.1121826E+001	0.0000000E+000	0.0000000E+000	0.0000000E+000	7.1121826E+001	0.0000000E+000	0.0000000E+000	0.0000000E+000	-7.1121826E+001	0.0000000E+000	0.0000000E+000	0.0000000E+000	-1.8878176E+001	0.0000000E+000	0.0000000E+000	0.0000000E+000	1.8878176E+001	2.9243956E+000	7.1121826E+001	2.163307854019674E-006
