EC-Lab ASCII FILE
Nb header lines : 63                          

Potentio Electrochemical Impedance Spectroscopy

Run on channel : 2 (SN 69290)
User : 
CE vs. WE compliance from -10 V to 10 V
Electrode connection : standard
Potential control : Ewe
Ewe ctrl range : min = -1.00 V, max = 1.00 V
Safety Limits :
	Do not start on E overload
Acquisition started on : 11/12/2025 19:12:40.101
Loaded Setting File :  C:\Users\User\Documents\EC-Lab\Data\Yatsuzuka\20251112_2-148_alpha_reproducibility\20251112_2-148_002_alpha_reproducibility_2_K1.mps
Saved on :
	File : 20251112_2-148_006_gamma_reproducibility_2_K1_02_PEIS_C02.mpr
	Directory : C:\Users\User\Documents\EC-Lab\Data\Yatsuzuka\20251112_2-148_alpha_reproducibility\
	Host : 192.109.209.127
Device : SP-150e (SN .003883)
Address : 192.109.209.128
EC-Lab for windows v11.52 (software)
Internet server v11.52 (firmware)
Command interpretor v11.50 (firmware)
Electrode material : 
Initial state : 
Electrolyte : 
Comments : 
Electrode surface area : 0.001 cm2
Characteristic mass : 0.001 g
Equivalent Weight : 0.000 g/eq.
Density : 0.000 g/cm3
Volume (V) : 0.001 cm3
Cycle Definition : Charge/Discharge alternance
Mode                Single sine         
E (V)               0.4500              
vs.                 Ref                 
tE (h:m:s)          0:00:0.0000         
record              0                   
dI                  0.000               
unit dI             mA                  
dt (s)              0.000               
fi                  500.000             
unit fi             kHz                 
ff                  1.000               
unit ff             Hz                  
Nd                  6                   
Points              per decade          
spacing             Logarithmic         
Va (mV)             10.0                
pw                  0.10                
Na                  2                   
corr                0                   
E range min (V)     -1.000              
E range max (V)     1.000               
I Range             Auto                
Bandwidth           5                   
nc cycles           0                   
goto Ns'            0                   
nr cycles           0                   
inc. cycle          0                   

freq/Hz	Re(Z)/Ohm	-Im(Z)/Ohm	|Z|/Ohm	Phase(Z)/deg	time/s	<Ewe>/V	<I>/mA	Cs/uF	Cp/uF	cycle number	I Range	|Ewe|/V	|I|/A	Ns	(Q-Qo)/mA.h	Re(Y)/Ohm-1	Im(Y)/Ohm-1	|Y|/Ohm-1	Phase(Y)/deg	Re(C)/nF	Im(C)/nF	|C|/nF	Phase(C)/deg	Re(M)	Im(M)	|M|	Phase(M)/deg	Re(Permittivity)	Im(Permittivity)	|Permittivity|	Phase(Permittivity)/deg	Re(Resistivity)/Ohm.cm	Im(Resistivity)/Ohm.cm	|Resistivity|/Ohm.cm	Phase(Resistivity)/deg	Re(Conductivity)/mS/cm	Im(Conductivity)/mS/cm	|Conductivity|/mS/cm	Phase(Conductivity)/deg	Tan(Delta)	Loss Angle(Delta)/deg	dq/mA.h	
5.0001856E+005	1.4489836E+001	-2.0280693E+000	1.4631077E+001	7.9676409E+000	2.022750666032225E+002	4.4977835E-001	1.6717672E-002	-1.5694635E-001	-3.0155338E-003	1.000000000000000E+000	10	5.0664563E-003	3.4628049E-004	0	2.930216556846669E-005	6.7687877E-002	-9.4739301E-003	6.8347670E-002	-7.9676409E+000	-3.0155349E+000	2.1544922E+001	2.1754932E+001	-9.7967644E+001	0.0000000E+000	0.0000000E+000	0.0000000E+000	9.7967644E+001	0.0000000E+000	0.0000000E+000	0.0000000E+000	-9.7967644E+001	0.0000000E+000	0.0000000E+000	0.0000000E+000	7.9676409E+000	0.0000000E+000	0.0000000E+000	0.0000000E+000	-7.9676409E+000	7.1446452E+000	8.2032356E+001	2.930216556846669E-005
3.3989941E+005	9.9571075E+000	-1.2527298E+000	1.0035603E+001	7.1708550E+000	2.026970817699475E+002	4.4969234E-001	1.6712094E-002	-3.7377679E-001	-5.8242525E-003	1.000000000000000E+000	10	8.0034677E-003	7.9750741E-004	0	3.142583491734695E-005	9.8865844E-002	-1.2438570E-002	9.9645235E-002	-7.1708550E+000	-5.8242507E+000	4.6293072E+001	4.6658016E+001	-9.7170853E+001	0.0000000E+000	0.0000000E+000	0.0000000E+000	9.7170853E+001	0.0000000E+000	0.0000000E+000	0.0000000E+000	-9.7170853E+001	0.0000000E+000	0.0000000E+000	0.0000000E+000	7.1708550E+000	0.0000000E+000	0.0000000E+000	0.0000000E+000	-7.1708550E+000	7.9483285E+000	8.2829147E+001	2.123669348880260E-006
2.3106258E+005	8.3154497E+000	-6.4123368E-001	8.3401365E+000	4.4095535E+000	2.031190817899915E+002	4.4954872E-001	1.7698435E-002	-1.0741729E+000	-6.3498071E-003	1.000000000000000E+000	10	1.0336584E-002	1.2393784E-003	0	3.366442433436815E-005	1.1954720E-001	-9.2187067E-003	1.1990211E-001	-4.4095535E+000	-6.3498073E+000	8.2343613E+001	8.2588081E+001	-9.4409554E+001	0.0000000E+000	0.0000000E+000	0.0000000E+000	9.4409554E+001	0.0000000E+000	0.0000000E+000	0.0000000E+000	-9.4409554E+001	0.0000000E+000	0.0000000E+000	0.0000000E+000	4.4095535E+000	0.0000000E+000	0.0000000E+000	0.0000000E+000	-4.4095535E+000	1.2967893E+001	8.5590446E+001	2.238589417021200E-006
1.5707578E+005	7.7532830E+000	-2.1908623E-001	7.7563777E+000	1.6185888E+000	2.036770791231684E+002	4.4953585E-001	1.8015403E-002	-4.6248302E+000	-3.6898446E-003	1.000000000000000E+000	10	1.0098118E-002	1.3019117E-003	0	3.161238936499770E-005	1.2887472E-001	-3.6416415E-003	1.2892616E-001	-1.6185888E+000	-3.6898506E+000	1.3058060E+002	1.3063272E+002	-9.1618591E+001	0.0000000E+000	0.0000000E+000	0.0000000E+000	9.1618591E+001	0.0000000E+000	0.0000000E+000	0.0000000E+000	-9.1618591E+001	0.0000000E+000	0.0000000E+000	0.0000000E+000	1.6185888E+000	0.0000000E+000	0.0000000E+000	0.0000000E+000	-1.6185888E+000	3.5389183E+001	8.8381409E+001	-2.052034969370444E-006
1.0678630E+005	7.6163855E+000	-1.2762298E-002	7.6163960E+000	9.6006848E-002	2.040990764232265E+002	4.4954029E-001	1.7991170E-002	-1.1678196E+002	-3.2789476E-004	1.000000000000000E+000	10	1.0890928E-002	1.4299320E-003	0	3.107576015288942E-005	1.3129552E-001	-2.2000364E-004	1.3129570E-001	-9.6006848E-002	-3.2789972E-001	1.9568362E+002	1.9568390E+002	-9.0096008E+001	0.0000000E+000	0.0000000E+000	0.0000000E+000	9.0096008E+001	0.0000000E+000	0.0000000E+000	0.0000000E+000	-9.0096008E+001	0.0000000E+000	0.0000000E+000	0.0000000E+000	9.6006848E-002	0.0000000E+000	0.0000000E+000	0.0000000E+000	-9.6006848E-002	5.9678796E+002	8.9903992E+001	-5.366292121082887E-007
7.2595008E+004	7.6045408E+000	6.7492776E-002	7.6048403E+000	-5.0850534E-001	2.045210708165687E+002	4.4954297E-001	1.8190673E-002	3.2482998E+001	2.5585298E-003	1.000000000000000E+000	10	1.0791220E-002	1.4189936E-003	0	3.293290697210533E-005	1.3149002E-001	1.1670168E-003	1.3149521E-001	5.0850534E-001	2.5585368E+000	2.8827444E+002	2.8828580E+002	-8.9491493E+001	0.0000000E+000	0.0000000E+000	0.0000000E+000	8.9491493E+001	0.0000000E+000	0.0000000E+000	0.0000000E+000	-8.9491493E+001	0.0000000E+000	0.0000000E+000	0.0000000E+000	-5.0850534E-001	0.0000000E+000	0.0000000E+000	0.0000000E+000	5.0850534E-001	1.1267192E+002	8.9491493E+001	1.857146819215916E-006
4.9352359E+004	7.6159596E+000	9.7923659E-002	7.6165891E+000	-7.3665082E-001	2.049430830766360E+002	4.4954708E-001	1.7858787E-002	3.2932491E+001	5.4435069E-003	1.000000000000000E+000	10	1.0633849E-002	1.3961431E-003	0	3.601122035555373E-005	1.3128152E-001	1.6879772E-003	1.3129237E-001	7.3665082E-001	5.4434900E+000	4.2336581E+002	4.2340082E+002	-8.9263351E+001	0.0000000E+000	0.0000000E+000	0.0000000E+000	8.9263351E+001	0.0000000E+000	0.0000000E+000	0.0000000E+000	-8.9263351E+001	0.0000000E+000	0.0000000E+000	0.0000000E+000	-7.3665082E-001	0.0000000E+000	0.0000000E+000	0.0000000E+000	7.3665082E-001	7.7774460E+001	8.9263351E+001	3.078313383448403E-006
3.3551066E+004	7.6292381E+000	1.1154643E-001	7.6300535E+000	-8.3765697E-001	2.053650705366890E+002	4.4955203E-001	1.7767422E-002	4.2526352E+001	9.0889633E-003	1.000000000000000E+000	10	1.0559798E-002	1.3839743E-003	0	3.909269907587441E-005	1.3104667E-001	1.9160220E-003	1.3106067E-001	8.3765697E-001	9.0889311E+000	6.2164117E+002	6.2170764E+002	-8.9162346E+001	0.0000000E+000	0.0000000E+000	0.0000000E+000	8.9162346E+001	0.0000000E+000	0.0000000E+000	0.0000000E+000	-8.9162346E+001	0.0000000E+000	0.0000000E+000	0.0000000E+000	-8.3765697E-001	0.0000000E+000	0.0000000E+000	0.0000000E+000	8.3765697E-001	6.8395180E+001	8.9162346E+001	3.081478720320675E-006
2.2806563E+004	7.6449313E+000	1.2068009E-001	7.6458836E+000	-9.0437508E-001	2.057870923967130E+002	4.4955167E-001	1.8062014E-002	5.7826202E+001	1.4405905E-002	1.000000000000000E+000	10	1.0418127E-002	1.3625799E-003	0	4.089101139530734E-005	1.3077304E-001	2.0643352E-003	1.3078932E-001	9.0437508E-001	1.4405874E+001	9.1259589E+002	9.1270959E+002	-8.9095627E+001	0.0000000E+000	0.0000000E+000	0.0000000E+000	8.9095627E+001	0.0000000E+000	0.0000000E+000	0.0000000E+000	-8.9095627E+001	0.0000000E+000	0.0000000E+000	0.0000000E+000	-9.0437508E-001	0.0000000E+000	0.0000000E+000	0.0000000E+000	9.0437508E-001	6.3348740E+001	8.9095627E+001	1.798312319432928E-006
1.5504379E+004	7.6533175E+000	1.4431383E-001	7.6546779E+000	-1.0802627E+000	2.062090750567877E+002	4.4955602E-001	1.7946417E-002	7.1130821E+001	2.5282493E-002	1.000000000000000E+000	10	1.0366074E-002	1.3542143E-003	0	4.104281930157190E-005	1.3061586E-001	2.4629415E-003	1.3063908E-001	1.0802627E+000	2.5282455E+001	1.3407926E+003	1.3410310E+003	-8.8919739E+001	0.0000000E+000	0.0000000E+000	0.0000000E+000	8.8919739E+001	0.0000000E+000	0.0000000E+000	0.0000000E+000	-8.8919739E+001	0.0000000E+000	0.0000000E+000	0.0000000E+000	-1.0802627E+000	0.0000000E+000	0.0000000E+000	0.0000000E+000	1.0802627E+000	5.3032463E+001	8.8919739E+001	1.518079062645653E-007
1.0540381E+004	7.6683154E+000	1.6973905E-001	7.6701937E+000	-1.2680417E+000	2.066310882234975E+002	4.4956294E-001	1.8541198E-002	8.8957397E+001	4.3564521E-002	1.000000000000000E+000	10	1.0217396E-002	1.3320909E-003	0	4.345256909863868E-005	1.3034287E-001	2.8851549E-003	1.3037480E-001	1.2680417E+000	4.3564583E+001	1.9681180E+003	1.9686001E+003	-8.8731956E+001	0.0000000E+000	0.0000000E+000	0.0000000E+000	8.8731956E+001	0.0000000E+000	0.0000000E+000	0.0000000E+000	-8.8731956E+001	0.0000000E+000	0.0000000E+000	0.0000000E+000	-1.2680417E+000	0.0000000E+000	0.0000000E+000	0.0000000E+000	1.2680417E+000	4.5177082E+001	8.8731956E+001	2.409749797066778E-006
7.1637817E+003	7.6926908E+000	2.2190087E-001	7.6958904E+000	-1.6522774E+000	2.071556886217586E+002	4.4953170E-001	1.5621360E-002	1.0011953E+002	8.3237499E-002	1.000000000000000E+000	10	1.0219505E-002	1.3279172E-003	0	4.656562387682950E-005	1.2988545E-001	3.7466339E-003	1.2993948E-001	1.6522774E+000	8.3237389E+001	2.8856145E+003	2.8868147E+003	-8.8347725E+001	0.0000000E+000	0.0000000E+000	0.0000000E+000	8.8347725E+001	0.0000000E+000	0.0000000E+000	0.0000000E+000	-8.8347725E+001	0.0000000E+000	0.0000000E+000	0.0000000E+000	-1.6522774E+000	0.0000000E+000	0.0000000E+000	0.0000000E+000	1.6522774E+000	3.4667240E+001	8.8347725E+001	3.113054778190822E-006
4.8715591E+003	7.7062879E+000	2.9450092E-001	7.7119131E+000	-2.1885314E+000	2.076232898439921E+002	4.4955283E-001	1.8669853E-002	1.1093422E+002	1.6177617E-001	1.000000000000000E+000	10	1.0911096E-002	1.4148365E-003	0	4.778433706003448E-005	1.2957494E-001	4.9517923E-003	1.2966952E-001	2.1885314E+000	1.6177606E+002	4.2332422E+003	4.2363320E+003	-8.7811470E+001	0.0000000E+000	0.0000000E+000	0.0000000E+000	8.7811470E+001	0.0000000E+000	0.0000000E+000	0.0000000E+000	-8.7811470E+001	0.0000000E+000	0.0000000E+000	0.0000000E+000	-2.1885314E+000	0.0000000E+000	0.0000000E+000	0.0000000E+000	2.1885314E+000	2.6167280E+001	8.7811470E+001	1.218713183204978E-006
3.3110596E+003	7.7402754E+000	3.9396131E-001	7.7502947E+000	-2.9137022E+000	2.083102697966242E+002	4.4955912E-001	1.8332371E-002	1.2201117E+002	3.1526104E-001	1.000000000000000E+000	10	1.0085079E-002	1.3012510E-003	0	4.969156385063090E-005	1.2886055E-001	6.5586902E-003	1.2902735E-001	2.9137022E+000	3.1526117E+002	6.1940269E+003	6.2020449E+003	-8.7086296E+001	0.0000000E+000	0.0000000E+000	0.0000000E+000	8.7086296E+001	0.0000000E+000	0.0000000E+000	0.0000000E+000	-8.7086296E+001	0.0000000E+000	0.0000000E+000	0.0000000E+000	-2.9137022E+000	0.0000000E+000	0.0000000E+000	0.0000000E+000	2.9137022E+000	1.9647299E+001	8.7086296E+001	1.907226790596421E-006
2.2507205E+003	7.7912073E+000	5.4176581E-001	7.8100204E+000	-3.9776905E+000	2.087752645120418E+002	4.4955167E-001	1.8930882E-002	1.3052298E+002	6.2806678E-001	1.000000000000000E+000	10	1.0255634E-002	1.3131379E-003	0	5.109301530765757E-005	1.2773220E-001	8.8819284E-003	1.2804064E-001	3.9776905E+000	6.2806696E+002	9.0323125E+003	9.0541230E+003	-8.6022308E+001	0.0000000E+000	0.0000000E+000	0.0000000E+000	8.6022308E+001	0.0000000E+000	0.0000000E+000	0.0000000E+000	-8.6022308E+001	0.0000000E+000	0.0000000E+000	0.0000000E+000	-3.9776905E+000	0.0000000E+000	0.0000000E+000	0.0000000E+000	3.9776905E+000	1.4381135E+001	8.6022308E+001	1.401451457026672E-006
1.5304901E+003	7.8452735E+000	7.3196161E-001	7.8793454E+000	-5.3302479E+000	2.092403063207967E+002	4.4955415E-001	1.7819628E-002	1.4206966E+002	1.2260202E+000	1.000000000000000E+000	10	1.0319158E-002	1.3096465E-003	0	5.307200929676280E-005	1.2636529E-001	1.1789843E-002	1.2691410E-001	5.3302479E+000	1.2260195E+003	1.3140666E+004	1.3197735E+004	-8.4669754E+001	0.0000000E+000	0.0000000E+000	0.0000000E+000	8.4669754E+001	0.0000000E+000	0.0000000E+000	0.0000000E+000	-8.4669754E+001	0.0000000E+000	0.0000000E+000	0.0000000E+000	-5.3302479E+000	0.0000000E+000	0.0000000E+000	0.0000000E+000	5.3302479E+000	1.0718149E+001	8.4669754E+001	1.978993989105225E-006
1.0403328E+003	7.9348922E+000	1.0004134E+000	7.9977083E+000	-7.1858096E+000	2.097052890628838E+002	4.4955793E-001	1.8461023E-002	1.5292143E+002	2.3927441E+000	1.000000000000000E+000	10	1.0354485E-002	1.2946816E-003	0	5.638598820959062E-005	1.2405375E-001	1.5640421E-002	1.2503582E-001	7.1858096E+000	2.3927432E+003	1.8978322E+004	1.9128563E+004	-8.2814194E+001	0.0000000E+000	0.0000000E+000	0.0000000E+000	8.2814194E+001	0.0000000E+000	0.0000000E+000	0.0000000E+000	-8.2814194E+001	0.0000000E+000	0.0000000E+000	0.0000000E+000	-7.1858096E+000	0.0000000E+000	0.0000000E+000	0.0000000E+000	7.1858096E+000	7.9316130E+000	8.2814194E+001	3.313978912827826E-006
7.0703625E+002	8.0397940E+000	1.3471196E+000	8.1518717E+000	-9.5119200E+000	2.101697778582602E+002	4.4955936E-001	1.7860649E-002	1.6709840E+002	4.5632043E+000	1.000000000000000E+000	10	1.0362082E-002	1.2711292E-003	0	5.814714427557515E-005	1.2098464E-001	2.0271761E-002	1.2267122E-001	9.5119200E+000	4.5632031E+003	2.7233828E+004	2.7613479E+004	-8.0488083E+001	0.0000000E+000	0.0000000E+000	0.0000000E+000	8.0488083E+001	0.0000000E+000	0.0000000E+000	0.0000000E+000	-8.0488083E+001	0.0000000E+000	0.0000000E+000	0.0000000E+000	-9.5119200E+000	0.0000000E+000	0.0000000E+000	0.0000000E+000	9.5119200E+000	5.9681368E+000	8.0488083E+001	1.761156065984530E-006
4.8076920E+002	8.1673670E+000	1.8372179E+000	8.3714542E+000	-1.2677448E+001	2.106350111069769E+002	4.4955081E-001	1.8438648E-002	1.8018674E+002	8.6784534E+000	1.000000000000000E+000	10	1.0366593E-002	1.2383263E-003	0	5.984825282954585E-005	1.1654140E-001	2.6215542E-002	1.1945356E-001	1.2677448E+001	8.6784512E+003	3.8580137E+004	3.9544184E+004	-7.7322556E+001	0.0000000E+000	0.0000000E+000	0.0000000E+000	7.7322556E+001	0.0000000E+000	0.0000000E+000	0.0000000E+000	-7.7322556E+001	0.0000000E+000	0.0000000E+000	0.0000000E+000	-1.2677448E+001	0.0000000E+000	0.0000000E+000	0.0000000E+000	1.2677448E+001	4.4455080E+000	7.7322556E+001	1.701108553970699E-006
3.2677771E+002	8.3112783E+000	2.5092082E+000	8.6817894E+000	-1.6799276E+001	2.110982638757123E+002	4.4955048E-001	1.7668599E-002	1.9410245E+002	1.6213842E+001	1.000000000000000E+000	10	1.0361661E-002	1.1934937E-003	0	6.196410859453479E-005	1.1026795E-001	3.3290338E-002	1.1518363E-001	1.6799276E+001	1.6213844E+004	5.3705285E+004	5.6099434E+004	-7.3200722E+001	0.0000000E+000	0.0000000E+000	0.0000000E+000	7.3200722E+001	0.0000000E+000	0.0000000E+000	0.0000000E+000	-7.3200722E+001	0.0000000E+000	0.0000000E+000	0.0000000E+000	-1.6799276E+001	0.0000000E+000	0.0000000E+000	0.0000000E+000	1.6799276E+001	3.3123112E+000	7.3200722E+001	2.115855764988938E-006
2.2206076E+002	8.4700871E+000	3.4700029E+000	9.1533213E+000	-2.2277803E+001	2.115594727242569E+002	4.4955292E-001	1.8080654E-002	2.0654680E+002	2.9683886E+001	1.000000000000000E+000	10	1.0353340E-002	1.1311020E-003	0	6.420528892148610E-005	1.0109518E-001	4.1416410E-002	1.0924996E-001	2.2277803E+001	2.9683887E+004	7.2456742E+004	7.8301422E+004	-6.7722198E+001	0.0000000E+000	0.0000000E+000	0.0000000E+000	6.7722198E+001	0.0000000E+000	0.0000000E+000	0.0000000E+000	-6.7722198E+001	0.0000000E+000	0.0000000E+000	0.0000000E+000	-2.2277803E+001	0.0000000E+000	0.0000000E+000	0.0000000E+000	2.2277803E+001	2.4409451E+000	6.7722198E+001	2.241180326951309E-006
1.5101485E+002	8.6559896E+000	4.8571014E+000	9.9256029E+000	-2.9297918E+001	2.120209885328222E+002	4.4954908E-001	1.7549269E-002	2.1698180E+002	5.1959370E+001	1.000000000000000E+000	10	1.0349358E-002	1.0426930E-003	0	6.662553340894454E-005	8.7862372E-002	4.9301866E-002	1.0074954E-001	2.9297918E+001	5.1959375E+004	9.2598391E+004	1.0618022E+005	-6.0702080E+001	0.0000000E+000	0.0000000E+000	0.0000000E+000	6.0702080E+001	0.0000000E+000	0.0000000E+000	0.0000000E+000	-6.0702080E+001	0.0000000E+000	0.0000000E+000	0.0000000E+000	-2.9297918E+001	0.0000000E+000	0.0000000E+000	0.0000000E+000	2.9297918E+001	1.7821307E+000	6.0702080E+001	2.420244487458443E-006
1.0266736E+002	8.8559093E+000	6.8802662E+000	1.1214508E+001	-3.7844082E+001	2.124958735953696E+002	4.4955650E-001	1.9046476E-002	2.2531104E+002	8.4807159E+001	1.000000000000000E+000	10	1.0346779E-002	9.2262437E-004	0	6.980462219925377E-005	7.0416220E-002	5.4707244E-002	8.9170210E-002	3.7844082E+001	8.4807164E+004	1.0915922E+005	1.3823166E+005	-5.2155918E+001	0.0000000E+000	0.0000000E+000	0.0000000E+000	5.2155918E+001	0.0000000E+000	0.0000000E+000	0.0000000E+000	-5.2155918E+001	0.0000000E+000	0.0000000E+000	0.0000000E+000	-3.7844082E+001	0.0000000E+000	0.0000000E+000	0.0000000E+000	3.7844082E+001	1.2871463E+000	5.2155914E+001	3.179088790309230E-006
6.9754463E+001	9.1389837E+000	9.8463802E+000	1.3433995E+001	-4.7133858E+001	2.129630638308736E+002	4.4955003E-001	1.7877415E-002	2.3172427E+002	1.2448424E+002	1.000000000000000E+000	10	1.0348216E-002	7.7030068E-004	0	7.265125191427715E-005	5.0639283E-002	5.4558977E-002	7.4438021E-002	4.7133858E+001	1.2448423E+005	1.1554088E+005	1.6984116E+005	-4.2866142E+001	0.0000000E+000	0.0000000E+000	0.0000000E+000	4.2866142E+001	0.0000000E+000	0.0000000E+000	0.0000000E+000	-4.2866142E+001	0.0000000E+000	0.0000000E+000	0.0000000E+000	-4.7133858E+001	0.0000000E+000	0.0000000E+000	0.0000000E+000	4.7133858E+001	9.2815667E-001	4.2866150E+001	2.846629715023378E-006
4.7444328E+001	9.4901428E+000	1.4115676E+001	1.7009266E+001	-5.6086575E+001	2.134070607319736E+002	4.4954515E-001	1.6853789E-002	2.3764801E+002	1.6366898E+002	1.000000000000000E+000	10	1.0333536E-002	6.0752395E-004	0	7.513782666442178E-005	3.2802097E-002	4.8789971E-002	5.8791485E-002	5.6086575E+001	1.6366897E+005	1.1003666E+005	1.9721967E+005	-3.3913425E+001	0.0000000E+000	0.0000000E+000	0.0000000E+000	3.3913425E+001	0.0000000E+000	0.0000000E+000	0.0000000E+000	-3.3913425E+001	0.0000000E+000	0.0000000E+000	0.0000000E+000	-5.6086575E+001	0.0000000E+000	0.0000000E+000	0.0000000E+000	5.6086575E+001	6.7231232E-001	3.3913422E+001	2.486574750144629E-006
3.2238655E+001	9.9624863E+000	2.0307421E+001	2.2619514E+001	-6.3868191E+001	2.140834696441452E+002	4.4953731E-001	6.5847358E-004	2.4310196E+002	1.9594376E+002	1.000000000000000E+000	11	1.0354422E-002	4.5776501E-004	0	7.685556969030747E-005	1.9471580E-002	3.9690647E-002	4.4209614E-002	6.3868191E+001	1.9594377E+005	9.6126789E+004	2.1825288E+005	-2.6131809E+001	0.0000000E+000	0.0000000E+000	0.0000000E+000	2.6131809E+001	0.0000000E+000	0.0000000E+000	0.0000000E+000	-2.6131809E+001	0.0000000E+000	0.0000000E+000	0.0000000E+000	-6.3868191E+001	0.0000000E+000	0.0000000E+000	0.0000000E+000	6.3868191E+001	4.9058354E-001	2.6131805E+001	1.717743025885689E-006
