EC-Lab ASCII FILE
Nb header lines : 63                          

Potentio Electrochemical Impedance Spectroscopy

Run on channel : 2 (SN 69290)
User : 
CE vs. WE compliance from -10 V to 10 V
Electrode connection : standard
Potential control : Ewe
Ewe ctrl range : min = -1.00 V, max = 1.00 V
Safety Limits :
	Do not start on E overload
Acquisition started on : 11/12/2025 13:25:42.107
Loaded Setting File :  C:\Users\User\Documents\EC-Lab\Data\Yatsuzuka\20251112_2-148_alpha_reproducibility\20251112_2-148_002_alpha_reproducibility_2_K1.mps
Saved on :
	File : 20251112_2-148_002_alpha_reproducibility_2_K1_02_PEIS_C02.mpr
	Directory : C:\Users\User\Documents\EC-Lab\Data\Yatsuzuka\20251112_2-148_alpha_reproducibility\
	Host : 192.109.209.127
Device : SP-150e (SN .003883)
Address : 192.109.209.128
EC-LAB for windows v11.52 (software)
Internet server v11.52 (firmware)
Command interpretor v11.50 (firmware)
Electrode material : 
Initial state : 
Electrolyte : 
Comments : 
Electrode surface area : 0.001 cm2
Characteristic mass : 0.001 g
Equivalent Weight : 0.000 g/eq.
Density : 0.000 g/cm3
Volume (V) : 0.001 cm3
Cycle Definition : Charge/Discharge alternance
Mode                Single sine         
E (V)               0.4500              
vs.                 Ref                 
tE (h:m:s)          0:00:0.0000         
record              0                   
dI                  0.000               
unit dI             mA                  
dt (s)              0.000               
fi                  500.000             
unit fi             kHz                 
ff                  1.000               
unit ff             Hz                  
Nd                  6                   
Points              per decade          
spacing             Logarithmic         
Va (mV)             10.0                
pw                  0.10                
Na                  2                   
corr                0                   
E range min (V)     -1.000              
E range max (V)     1.000               
I Range             Auto                
Bandwidth           5                   
nc cycles           0                   
goto Ns'            0                   
nr cycles           0                   
inc. cycle          0                   

freq/Hz	Re(Z)/Ohm	-Im(Z)/Ohm	|Z|/Ohm	Phase(Z)/deg	time/s	<Ewe>/V	<I>/mA	Cs/uF	Cp/uF	cycle number	I Range	|Ewe|/V	|I|/A	Ns	(Q-Qo)/mA.h	Re(Y)/Ohm-1	Im(Y)/Ohm-1	|Y|/Ohm-1	Phase(Y)/deg	Re(C)/nF	Im(C)/nF	|C|/nF	Phase(C)/deg	Re(M)	Im(M)	|M|	Phase(M)/deg	Re(Permittivity)	Im(Permittivity)	|Permittivity|	Phase(Permittivity)/deg	Re(Resistivity)/Ohm.cm	Im(Resistivity)/Ohm.cm	|Resistivity|/Ohm.cm	Phase(Resistivity)/deg	Re(Conductivity)/mS/cm	Im(Conductivity)/mS/cm	|Conductivity|/mS/cm	Phase(Conductivity)/deg	Tan(Delta)	Loss Angle(Delta)/deg	dq/mA.h	Pwe/W	Rwe/Ohm	
5.0001856E+005	1.1369919E+001	-2.4414384E+000	1.1629087E+001	1.2118977E+001	2.016140896651923E+002	4.4978136E-001	2.3614531E-002	-1.3037318E-001	-5.7463027E-003	1.000000000000000E+000	10	3.8775224E-003	3.3343307E-004	0	3.460809253816518E-005	8.4074847E-002	-1.8053213E-002	8.5991271E-002	-1.2118977E+001	-5.7463012E+000	2.6760862E+001	2.7370855E+001	-1.0211897E+002	0.0000000E+000	0.0000000E+000	0.0000000E+000	1.0211897E+002	0.0000000E+000	0.0000000E+000	0.0000000E+000	-1.0211897E+002	0.0000000E+000	0.0000000E+000	0.0000000E+000	1.2118977E+001	0.0000000E+000	0.0000000E+000	0.0000000E+000	-1.2118977E+001	4.6570573E+000	7.7881027E+001	3.460809253816518E-005	1.0621376E-005	1.9046805E+004
3.3989941E+005	7.5964456E+000	-1.3454688E+000	7.7146788E+000	1.0043961E+001	2.020360786985402E+002	4.4967645E-001	2.2583462E-002	-3.4801349E-001	-1.0585409E-002	1.000000000000000E+000	10	5.8749989E-003	7.6153514E-004	0	3.682441878254111E-005	1.2763645E-001	-2.2606738E-002	1.2962303E-001	-1.0043961E+001	-1.0585408E+001	5.9764656E+001	6.0694851E+001	-1.0004396E+002	0.0000000E+000	0.0000000E+000	0.0000000E+000	1.0004396E+002	0.0000000E+000	0.0000000E+000	0.0000000E+000	-1.0004396E+002	0.0000000E+000	0.0000000E+000	0.0000000E+000	1.0043961E+001	0.0000000E+000	0.0000000E+000	0.0000000E+000	-1.0043961E+001	5.6459470E+000	7.9956039E+001	2.216326244375930E-006	1.0155251E-005	1.9911760E+004
2.3106258E+005	6.2882195E+000	-6.3294411E-001	6.3199940E+000	5.7477784E+000	2.023220723655104E+002	4.4953868E-001	2.3504559E-002	-1.0882412E+000	-1.0914970E-002	1.000000000000000E+000	10	1.0027223E-002	1.5865875E-003	0	3.961681519686762E-005	1.5743248E-001	-1.5846452E-002	1.5822800E-001	-5.7477784E+000	-1.0914973E+001	1.0843884E+002	1.0898679E+002	-9.5747780E+001	0.0000000E+000	0.0000000E+000	0.0000000E+000	9.5747780E+001	0.0000000E+000	0.0000000E+000	0.0000000E+000	-9.5747780E+001	0.0000000E+000	0.0000000E+000	0.0000000E+000	5.7477784E+000	0.0000000E+000	0.0000000E+000	0.0000000E+000	-5.7477784E+000	9.9348736E+000	8.4252220E+001	2.792396414326505E-006	1.0566208E-005	1.9125596E+004
1.5707578E+005	5.8714519E+000	-2.2624193E-001	5.8758092E+000	2.2066600E+000	2.027440879321803E+002	4.4952217E-001	2.4323096E-002	-4.4785538E+000	-6.6397027E-003	1.000000000000000E+000	10	1.0862441E-002	1.8486715E-003	0	3.673079016683106E-005	1.7006312E-001	-6.5529631E-003	1.7018932E-001	-2.2066600E+000	-6.6396956E+000	1.7231421E+002	1.7244208E+002	-9.2206657E+001	0.0000000E+000	0.0000000E+000	0.0000000E+000	9.2206657E+001	0.0000000E+000	0.0000000E+000	0.0000000E+000	-9.2206657E+001	0.0000000E+000	0.0000000E+000	0.0000000E+000	2.2066600E+000	0.0000000E+000	0.0000000E+000	0.0000000E+000	-2.2066600E+000	2.5952093E+001	8.7793343E+001	-2.886025030036562E-006	1.0933771E-005	1.8481289E+004
1.0678630E+005	5.7847524E+000	-3.9948598E-002	5.7848902E+000	3.9566943E-001	2.031660779255471E+002	4.4953769E-001	2.4039689E-002	-3.7308094E+001	-1.7791637E-003	1.000000000000000E+000	10	1.0986304E-002	1.8991379E-003	0	3.860743135861897E-005	1.7286000E-001	-1.1937442E-003	1.7286412E-001	-3.9566943E-001	-1.7791574E+000	2.5763162E+002	2.5763776E+002	-9.0395668E+001	0.0000000E+000	0.0000000E+000	0.0000000E+000	9.0395668E+001	0.0000000E+000	0.0000000E+000	0.0000000E+000	-9.0395668E+001	0.0000000E+000	0.0000000E+000	0.0000000E+000	3.9566943E-001	0.0000000E+000	0.0000000E+000	0.0000000E+000	-3.9566943E-001	1.4480489E+002	8.9604332E+001	1.876641191787918E-006	1.0806747E-005	1.8699813E+004
7.2595008E+004	5.7816772E+000	2.2450475E-002	5.7817206E+000	-2.2248061E-001	2.035880666122684E+002	4.4953516E-001	2.3849510E-002	9.7653511E+001	1.4723963E-003	1.000000000000000E+000	10	1.0785596E-002	1.8654648E-003	0	4.271471248841165E-005	1.7295758E-001	6.7160104E-004	1.7295890E-001	2.2248061E-001	1.4723974E+000	3.7918661E+002	3.7918948E+002	-8.9777519E+001	0.0000000E+000	0.0000000E+000	0.0000000E+000	8.9777519E+001	0.0000000E+000	0.0000000E+000	0.0000000E+000	-8.9777519E+001	0.0000000E+000	0.0000000E+000	0.0000000E+000	-2.2248061E-001	0.0000000E+000	0.0000000E+000	0.0000000E+000	2.2248061E-001	2.5753027E+002	8.9777519E+001	4.107281129792676E-006	1.0721194E-005	1.8848822E+004
4.9352359E+004	5.7926316E+000	3.7996225E-002	5.7927561E+000	-3.7582090E-001	2.040100740456401E+002	4.4954187E-001	2.3269638E-002	8.4873428E+001	3.6515913E-003	1.000000000000000E+000	10	1.0644775E-002	1.8376011E-003	0	4.516400829041636E-005	1.7262569E-001	1.1323220E-003	1.7262940E-001	3.7582090E-001	3.6516209E+000	5.5669537E+002	5.5670734E+002	-8.9624176E+001	0.0000000E+000	0.0000000E+000	0.0000000E+000	8.9624176E+001	0.0000000E+000	0.0000000E+000	0.0000000E+000	-8.9624176E+001	0.0000000E+000	0.0000000E+000	0.0000000E+000	-3.7582090E-001	0.0000000E+000	0.0000000E+000	0.0000000E+000	3.7582090E-001	1.5245282E+002	8.9624176E+001	2.449295802004706E-006	1.0460677E-005	1.9318816E+004
3.3551066E+004	5.7963524E+000	5.0026573E-002	5.7965684E+000	-4.9449033E-001	2.044320925723441E+002	4.4954270E-001	2.3355408E-002	9.4822861E+001	7.0627304E-003	1.000000000000000E+000	10	1.0558563E-002	1.8215197E-003	0	5.059045151339120E-005	1.7250945E-001	1.4888770E-003	1.7251587E-001	4.9449033E-001	7.0627480E+000	8.1832660E+002	8.1835706E+002	-8.9505508E+001	0.0000000E+000	0.0000000E+000	0.0000000E+000	8.9505508E+001	0.0000000E+000	0.0000000E+000	0.0000000E+000	-8.9505508E+001	0.0000000E+000	0.0000000E+000	0.0000000E+000	-4.9449033E-001	0.0000000E+000	0.0000000E+000	0.0000000E+000	4.9449033E-001	1.1586547E+002	8.9505508E+001	5.426443222974841E-006	1.0499253E-005	1.9247906E+004
2.2806563E+004	5.8144369E+000	5.0207436E-002	5.8146539E+000	-4.9473450E-001	2.048540786724334E+002	4.4954410E-001	2.2838937E-002	1.3899278E+002	1.0362883E-002	1.000000000000000E+000	10	1.0485592E-002	1.8033047E-003	0	5.226249343873416E-005	1.7197287E-001	1.4849789E-003	1.7197928E-001	4.9473450E-001	1.0362908E+001	1.2001077E+003	1.2001525E+003	-8.9505264E+001	0.0000000E+000	0.0000000E+000	0.0000000E+000	8.9505264E+001	0.0000000E+000	0.0000000E+000	0.0000000E+000	-8.9505264E+001	0.0000000E+000	0.0000000E+000	0.0000000E+000	-4.9473450E-001	0.0000000E+000	0.0000000E+000	0.0000000E+000	4.9473450E-001	1.1580828E+002	8.9505264E+001	1.672041925342958E-006	1.0267109E-005	1.9683232E+004
1.5504379E+004	5.8265929E+000	5.0061464E-002	5.8268080E+000	-4.9226710E-001	2.052760718657664E+002	4.4955108E-001	2.2993691E-002	2.0505115E+002	1.5135888E-002	1.000000000000000E+000	10	1.0496259E-002	1.8013737E-003	0	5.840279095778614E-005	1.7161421E-001	1.4744910E-003	1.7162055E-001	4.9226710E-001	1.5135785E+001	1.7616475E+003	1.7617125E+003	-8.9507736E+001	0.0000000E+000	0.0000000E+000	0.0000000E+000	8.9507736E+001	0.0000000E+000	0.0000000E+000	0.0000000E+000	-8.9507736E+001	0.0000000E+000	0.0000000E+000	0.0000000E+000	-4.9226710E-001	0.0000000E+000	0.0000000E+000	0.0000000E+000	4.9226710E-001	1.1638879E+002	8.9507736E+001	6.140297519051983E-006	1.0336838E-005	1.9551063E+004
1.0540381E+004	5.8292832E+000	4.6867989E-002	5.8294716E+000	-4.6065357E-001	2.056980689791526E+002	4.4954890E-001	2.1919727E-002	3.2217181E+002	2.0824846E-002	1.000000000000000E+000	10	1.0332159E-002	1.7724006E-003	0	5.998023847150762E-005	1.7153659E-001	1.3791705E-003	1.7154214E-001	4.6065357E-001	2.0824919E+001	2.5901243E+003	2.5902080E+003	-8.9539345E+001	0.0000000E+000	0.0000000E+000	0.0000000E+000	8.9539345E+001	0.0000000E+000	0.0000000E+000	0.0000000E+000	-8.9539345E+001	0.0000000E+000	0.0000000E+000	0.0000000E+000	-4.6065357E-001	0.0000000E+000	0.0000000E+000	0.0000000E+000	4.6065357E-001	1.2437665E+002	8.9539345E+001	1.577447513721483E-006	9.8539895E-006	2.0508873E+004
7.1637817E+003	5.8405418E+000	5.1294085E-002	5.8407669E+000	-5.0318259E-001	2.062216810574027E+002	4.4953570E-001	1.7334873E-002	4.3312225E+002	3.3404529E-002	1.000000000000000E+000	10	1.0221261E-002	1.7499861E-003	0	6.113452065543324E-005	1.7120379E-001	1.5035834E-003	1.7121039E-001	5.0318259E-001	3.3404449E+001	3.8035676E+003	3.8037144E+003	-8.9496819E+001	0.0000000E+000	0.0000000E+000	0.0000000E+000	8.9496819E+001	0.0000000E+000	0.0000000E+000	0.0000000E+000	-8.9496819E+001	0.0000000E+000	0.0000000E+000	0.0000000E+000	-5.0318259E-001	0.0000000E+000	0.0000000E+000	0.0000000E+000	5.0318259E-001	1.1386385E+002	8.9496819E+001	1.154282183925616E-006	7.7926443E-006	2.5932449E+004
4.8715591E+003	5.8514400E+000	5.3406782E-002	5.8516836E+000	-5.2293080E-001	2.069102898101264E+002	4.4953585E-001	1.7871855E-002	6.1172430E+002	5.0955012E-002	1.000000000000000E+000	10	1.0142191E-002	1.7332091E-003	0	6.321338955373762E-005	1.7088386E-001	1.5596772E-003	1.7089099E-001	5.2293080E-001	5.0955318E+001	5.5828154E+003	5.5830479E+003	-8.9477066E+001	0.0000000E+000	0.0000000E+000	0.0000000E+000	8.9477066E+001	0.0000000E+000	0.0000000E+000	0.0000000E+000	-8.9477066E+001	0.0000000E+000	0.0000000E+000	0.0000000E+000	-5.2293080E-001	0.0000000E+000	0.0000000E+000	0.0000000E+000	5.2293080E-001	1.0956361E+002	8.9477066E+001	2.078868898304384E-006	8.0340396E-006	2.5153285E+004
3.3110596E+003	5.8568468E+000	5.3090643E-002	5.8570876E+000	-5.1935565E-001	2.073752830855447E+002	4.4953999E-001	1.9255329E-002	9.0538892E+002	7.4388824E-002	1.000000000000000E+000	10	1.0847191E-002	1.8519770E-003	0	6.382018608329559E-005	1.7072630E-001	1.5475852E-003	1.7073332E-001	5.1935565E-001	7.4388840E+001	8.2064170E+003	8.2067539E+003	-8.9480644E+001	0.0000000E+000	0.0000000E+000	0.0000000E+000	8.9480644E+001	0.0000000E+000	0.0000000E+000	0.0000000E+000	-8.9480644E+001	0.0000000E+000	0.0000000E+000	0.0000000E+000	-5.1935565E-001	0.0000000E+000	0.0000000E+000	0.0000000E+000	5.1935565E-001	1.1031787E+002	8.9480644E+001	6.067965295579697E-007	8.6560403E-006	2.3346264E+004
2.2507205E+003	5.8624473E+000	6.4135112E-002	5.8627982E+000	-6.2679023E-001	2.080622659981746E+002	4.4954208E-001	1.7689131E-002	1.1025613E+003	1.3194245E-001	1.000000000000000E+000	10	1.0164239E-002	1.7336839E-003	0	7.040864216353900E-005	1.7055681E-001	1.8658898E-003	1.7056702E-001	6.2679023E-001	1.3194301E+002	1.2060564E+004	1.2061286E+004	-8.9373207E+001	0.0000000E+000	0.0000000E+000	0.0000000E+000	8.9373207E+001	0.0000000E+000	0.0000000E+000	0.0000000E+000	-8.9373207E+001	0.0000000E+000	0.0000000E+000	0.0000000E+000	-6.2679023E-001	0.0000000E+000	0.0000000E+000	0.0000000E+000	6.2679023E-001	9.1407768E+001	8.9373207E+001	6.588456080243408E-006	7.9520087E-006	2.5413463E+004
1.5304901E+003	5.8692093E+000	7.5069673E-002	5.8696895E+000	-7.3279732E-001	2.085272960735965E+002	4.4953954E-001	1.9053962E-002	1.3852402E+003	2.2658122E-001	1.000000000000000E+000	10	1.0340800E-002	1.7617285E-003	0	7.242651148518133E-005	1.7035283E-001	2.1788848E-003	1.7036676E-001	7.3279732E-001	2.2658070E+002	1.7714910E+004	1.7716359E+004	-8.9267204E+001	0.0000000E+000	0.0000000E+000	0.0000000E+000	8.9267204E+001	0.0000000E+000	0.0000000E+000	0.0000000E+000	-8.9267204E+001	0.0000000E+000	0.0000000E+000	0.0000000E+000	-7.3279732E-001	0.0000000E+000	0.0000000E+000	0.0000000E+000	7.3279732E-001	7.8183495E+001	8.9267204E+001	2.017869321642332E-006	8.5655092E-006	2.3592969E+004
1.0403328E+003	5.8792324E+000	1.0480110E-001	5.8801665E+000	-1.0212259E+000	2.089922668423533E+002	4.4954187E-001	1.7877450E-002	1.4597617E+003	4.6369720E-001	1.000000000000000E+000	10	1.0431862E-002	1.7740758E-003	0	7.372371350567685E-005	1.7003620E-001	3.0310045E-003	1.7006321E-001	1.0212259E+000	4.6369675E+002	2.6012930E+004	2.6017063E+004	-8.8978775E+001	0.0000000E+000	0.0000000E+000	0.0000000E+000	8.8978775E+001	0.0000000E+000	0.0000000E+000	0.0000000E+000	-8.8978775E+001	0.0000000E+000	0.0000000E+000	0.0000000E+000	-1.0212259E+000	0.0000000E+000	0.0000000E+000	0.0000000E+000	1.0212259E+000	5.6098957E+001	8.8978775E+001	1.297202020495518E-006	8.0366626E-006	2.5145748E+004
7.0703625E+002	5.8840733E+000	1.4329837E-001	5.8858180E+000	-1.3950828E+000	2.094567534243834E+002	4.4953611E-001	1.9080065E-002	1.5708589E+003	9.3112081E-001	1.000000000000000E+000	10	1.0470212E-002	1.7788883E-003	0	7.590962402119799E-005	1.6984956E-001	4.1364487E-003	1.6989993E-001	1.3950828E+000	9.3111945E+002	3.8233398E+004	3.8244734E+004	-8.8604919E+001	0.0000000E+000	0.0000000E+000	0.0000000E+000	8.8604919E+001	0.0000000E+000	0.0000000E+000	0.0000000E+000	-8.8604919E+001	0.0000000E+000	0.0000000E+000	0.0000000E+000	-1.3950828E+000	0.0000000E+000	0.0000000E+000	0.0000000E+000	1.3950828E+000	4.1061687E+001	8.8604919E+001	2.185910515521141E-006	8.5771781E-006	2.3560512E+004
4.8076920E+002	5.8930459E+000	1.9589947E-001	5.8963013E+000	-1.9039528E+000	2.099220360331383E+002	4.4953397E-001	1.6697209E-002	1.6898580E+003	1.8653375E+000	1.000000000000000E+000	10	1.0489978E-002	1.7790777E-003	0	7.857529171863765E-005	1.6950423E-001	5.6347409E-003	1.6959785E-001	1.9039528E+000	1.8653385E+003	5.6113070E+004	5.6144066E+004	-8.8096046E+001	0.0000000E+000	0.0000000E+000	0.0000000E+000	8.8096046E+001	0.0000000E+000	0.0000000E+000	0.0000000E+000	-8.8096046E+001	0.0000000E+000	0.0000000E+000	0.0000000E+000	-1.9039528E+000	0.0000000E+000	0.0000000E+000	0.0000000E+000	1.9039528E+000	3.0081989E+001	8.8096046E+001	2.665667697439658E-006	7.5059629E-006	2.6922701E+004
3.2677771E+002	5.9103894E+000	2.7182865E-001	5.9166369E+000	-2.6332726E+000	2.103852428818500E+002	4.4953361E-001	1.8352902E-002	1.7917296E+003	3.7819266E+000	1.000000000000000E+000	10	1.0507580E-002	1.7759380E-003	0	8.003236460028953E-005	1.6883646E-001	7.7650701E-003	1.6901493E-001	2.6332726E+000	3.7819231E+003	8.2230695E+004	8.2317617E+004	-8.7366730E+001	0.0000000E+000	0.0000000E+000	0.0000000E+000	8.7366730E+001	0.0000000E+000	0.0000000E+000	0.0000000E+000	-8.7366730E+001	0.0000000E+000	0.0000000E+000	0.0000000E+000	-2.6332726E+000	0.0000000E+000	0.0000000E+000	0.0000000E+000	2.6332726E+000	2.1743071E+001	8.7366730E+001	1.457072881651882E-006	8.2502465E-006	2.4493871E+004
2.2206076E+002	5.9286256E+000	3.8546211E-001	5.9411430E+000	-3.7199702E+000	2.108464715970767E+002	4.4953319E-001	1.5971912E-002	1.8593735E+003	7.8269033E+000	1.000000000000000E+000	10	1.0513384E-002	1.7695894E-003	0	8.352547521862693E-005	1.6796315E-001	1.0920478E-002	1.6831778E-001	3.7199702E+000	7.8269048E+003	1.2038222E+005	1.2063639E+005	-8.6280029E+001	0.0000000E+000	0.0000000E+000	0.0000000E+000	8.6280029E+001	0.0000000E+000	0.0000000E+000	0.0000000E+000	-8.6280029E+001	0.0000000E+000	0.0000000E+000	0.0000000E+000	-3.7199702E+000	0.0000000E+000	0.0000000E+000	0.0000000E+000	3.7199702E+000	1.5380567E+001	8.6280029E+001	3.493110618337395E-006	7.1799045E-006	2.8145234E+004
1.5101485E+002	5.9548645E+000	5.4072309E-001	5.9793639E+000	-5.1884336E+000	2.113080172456248E+002	4.4952869E-001	1.8994296E-002	1.9490616E+003	1.5939160E+001	1.000000000000000E+000	10	1.0520196E-002	1.7594171E-003	0	8.494066216921945E-005	1.6655663E-001	1.5123940E-002	1.6724187E-001	5.1884336E+000	1.5939150E+004	1.7553445E+005	1.7625664E+005	-8.4811569E+001	0.0000000E+000	0.0000000E+000	0.0000000E+000	8.4811569E+001	0.0000000E+000	0.0000000E+000	0.0000000E+000	-8.4811569E+001	0.0000000E+000	0.0000000E+000	0.0000000E+000	-5.1884336E+000	0.0000000E+000	0.0000000E+000	0.0000000E+000	5.1884336E+000	1.1012780E+001	8.4811569E+001	1.415186950592525E-006	8.5384809E-006	2.3666510E+004
1.0266736E+002	5.9850888E+000	7.6125443E-001	6.0333071E+000	-7.2486339E+000	2.117828854815016E+002	4.4953421E-001	1.7454203E-002	2.0363757E+003	3.2419529E+001	1.000000000000000E+000	10	1.0517854E-002	1.7432984E-003	0	8.604991547526637E-005	1.6442193E-001	2.0913128E-002	1.6574658E-001	7.2486339E+000	3.2419531E+004	2.5488686E+005	2.5694034E+005	-8.2751366E+001	0.0000000E+000	0.0000000E+000	0.0000000E+000	8.2751366E+001	0.0000000E+000	0.0000000E+000	0.0000000E+000	-8.2751366E+001	0.0000000E+000	0.0000000E+000	0.0000000E+000	-7.2486339E+000	0.0000000E+000	0.0000000E+000	0.0000000E+000	7.2486339E+000	7.8621397E+000	8.2751366E+001	1.109253306046920E-006	7.8462617E-006	2.5755068E+004
6.9754463E+001	6.0334702E+000	1.0783498E+000	6.1290784E+000	-1.0133363E+001	2.122500331570191E+002	4.4954249E-001	1.9285161E-002	2.1158674E+003	6.5496407E+001	1.000000000000000E+000	10	1.0531496E-002	1.7182839E-003	0	8.767936077126716E-005	1.6061157E-001	2.8705779E-002	1.6315667E-001	1.0133363E+001	6.5496395E+004	3.6645863E+005	3.7226563E+005	-7.9866638E+001	0.0000000E+000	0.0000000E+000	0.0000000E+000	7.9866638E+001	0.0000000E+000	0.0000000E+000	0.0000000E+000	-7.9866638E+001	0.0000000E+000	0.0000000E+000	0.0000000E+000	-1.0133363E+001	0.0000000E+000	0.0000000E+000	0.0000000E+000	1.0133363E+001	5.5950952E+000	7.9866638E+001	1.629445296000791E-006	8.6694990E-006	2.3310279E+004
