EC-Lab ASCII FILE
Nb header lines : 63                          

Potentio Electrochemical Impedance Spectroscopy

Run on channel : 1 (SN 69187)
User : 
CE vs. WE compliance from -10 V to 10 V
Electrode connection : standard
Potential control : Ewe
Ewe ctrl range : min = -1.00 V, max = 1.00 V
Safety Limits :
	Do not start on E overload
Acquisition started on : 11/12/2025 13:18:25.019
Loaded Setting File :  C:\Users\User\Documents\EC-Lab\Data\Yatsuzuka\20251030_2-147_gamma_reproducibility\20251030_2-147_001_gamma1_K_1.mps
Saved on :
	File : 20251112_2-148_001_alpha_reproducibility_1_K1_02_PEIS_C01.mpr
	Directory : C:\Users\User\Documents\EC-Lab\Data\Yatsuzuka\20251112_2-148_alpha_reproducibility\
	Host : 192.109.209.127
Device : SP-150e (SN .003883)
Address : 192.109.209.128
EC-LAB for windows v11.52 (software)
Internet server v11.52 (firmware)
Command interpretor v11.50 (firmware)
Electrode material : 
Initial state : 
Electrolyte : 
Comments : 
Electrode surface area : 0.001 cm2
Characteristic mass : 0.001 g
Equivalent Weight : 0.000 g/eq.
Density : 0.000 g/cm3
Volume (V) : 0.001 cm3
Cycle Definition : Charge/Discharge alternance
Mode                Single sine         
E (V)               0.4500              
vs.                 Ref                 
tE (h:m:s)          0:00:0.0000         
record              0                   
dI                  0.000               
unit dI             mA                  
dt (s)              0.000               
fi                  500.000             
unit fi             kHz                 
ff                  1.000               
unit ff             Hz                  
Nd                  6                   
Points              per decade          
spacing             Logarithmic         
Va (mV)             10.0                
pw                  0.10                
Na                  2                   
corr                0                   
E range min (V)     -1.000              
E range max (V)     1.000               
I Range             Auto                
Bandwidth           5                   
nc cycles           0                   
goto Ns'            0                   
nr cycles           0                   
inc. cycle          0                   

freq/Hz	Re(Z)/Ohm	-Im(Z)/Ohm	|Z|/Ohm	Phase(Z)/deg	time/s	<Ewe>/V	<I>/mA	Cs/uF	Cp/uF	cycle number	I Range	|Ewe|/V	|I|/A	Ns	(Q-Qo)/mA.h	Re(Y)/Ohm-1	Im(Y)/Ohm-1	|Y|/Ohm-1	Phase(Y)/deg	Re(C)/nF	Im(C)/nF	|C|/nF	Phase(C)/deg	Re(M)	Im(M)	|M|	Phase(M)/deg	Re(Permittivity)	Im(Permittivity)	|Permittivity|	Phase(Permittivity)/deg	Re(Resistivity)/Ohm.cm	Im(Resistivity)/Ohm.cm	|Resistivity|/Ohm.cm	Phase(Resistivity)/deg	Re(Conductivity)/mS/cm	Im(Conductivity)/mS/cm	|Conductivity|/mS/cm	Phase(Conductivity)/deg	Tan(Delta)	Loss Angle(Delta)/deg	dq/mA.h	Pwe/W	Rwe/Ohm	
5.0001856E+005	8.2239952E+000	-3.0034881E+000	8.7552862E+000	2.0062716E+001	2.015988781455817E+002	4.5019498E-001	7.5725089E-003	-1.0597613E-001	-1.2471516E-002	1.000000000000000E+000	10	2.7756894E-003	3.1703012E-004	0	2.140939318195443E-005	1.0728578E-001	-3.9181873E-002	1.1421672E-001	-2.0062716E+001	-1.2471513E+001	3.4148853E+001	3.6354958E+001	-1.1006271E+002	0.0000000E+000	0.0000000E+000	0.0000000E+000	1.1006271E+002	0.0000000E+000	0.0000000E+000	0.0000000E+000	-1.1006271E+002	0.0000000E+000	0.0000000E+000	0.0000000E+000	2.0062716E+001	0.0000000E+000	0.0000000E+000	0.0000000E+000	-2.0062716E+001	2.7381482E+000	6.9937286E+001	2.140939318195443E-005	3.4091056E-006	5.9451230E+004
3.3989941E+005	4.3012753E+000	-1.7892786E+000	4.6585927E+000	2.2586721E+001	2.020208862989239E+002	4.5006403E-001	1.2316854E-002	-2.6169276E-001	-3.8604524E-002	1.000000000000000E+000	10	3.3501615E-003	7.1913598E-004	0	2.273417094776717E-005	1.9819275E-001	-8.2445785E-002	2.1465710E-001	-2.2586721E+001	-3.8604527E+001	9.2802025E+001	1.0051132E+002	-1.1258672E+002	0.0000000E+000	0.0000000E+000	0.0000000E+000	1.1258672E+002	0.0000000E+000	0.0000000E+000	0.0000000E+000	-1.1258672E+002	0.0000000E+000	0.0000000E+000	0.0000000E+000	2.2586721E+001	0.0000000E+000	0.0000000E+000	0.0000000E+000	-2.2586721E+001	2.4039159E+000	6.7413277E+001	1.324777765812742E-006	5.5433729E-006	3.6540504E+004
2.3106258E+005	2.7484143E+000	-1.2275062E+000	3.0100751E+000	2.4066656E+001	2.027458836400328E+002	4.4990474E-001	1.4113443E-001	-5.6113434E-001	-9.3316734E-002	1.000000000000000E+000	9	5.0370595E-003	1.6733999E-003	0	3.626506107387185E-005	3.0333850E-001	-1.3547806E-001	3.3221763E-001	-2.4066656E+001	-9.3316742E+001	2.0893829E+002	2.2883012E+002	-1.1406666E+002	0.0000000E+000	0.0000000E+000	0.0000000E+000	1.1406666E+002	0.0000000E+000	0.0000000E+000	0.0000000E+000	-1.1406666E+002	0.0000000E+000	0.0000000E+000	0.0000000E+000	2.4066656E+001	0.0000000E+000	0.0000000E+000	0.0000000E+000	-2.4066656E+001	2.2390227E+000	6.5933342E+001	1.353089012610468E-005	6.3497049E-005	3.1877747E+003
1.5707578E+005	2.3314862E+000	-5.7064587E-001	2.4003050E+000	1.3753126E+001	2.031678765134566E+002	4.4985044E-001	1.4050080E-001	-1.7755961E+000	-1.0035632E-001	1.000000000000000E+000	9	8.4485086E-003	3.5197644E-003	0	5.260371850614643E-005	4.0466905E-001	-9.9045284E-002	4.1661373E-001	-1.3753126E+001	-1.0035632E+002	4.1002548E+002	4.2212830E+002	-1.0375313E+002	0.0000000E+000	0.0000000E+000	0.0000000E+000	1.0375313E+002	0.0000000E+000	0.0000000E+000	0.0000000E+000	-1.0375313E+002	0.0000000E+000	0.0000000E+000	0.0000000E+000	1.3753126E+001	0.0000000E+000	0.0000000E+000	0.0000000E+000	-1.3753126E+001	4.0856972E+000	7.6246872E+001	1.633865743227458E-005	6.3204345E-005	3.2017644E+003
1.0678630E+005	2.2242491E+000	-2.6527005E-001	2.2400117E+000	6.8011274E+000	2.035898675201606E+002	4.4982114E-001	1.3606520E-001	-5.6184483E+000	-7.8793846E-002	1.000000000000000E+000	9	1.0496138E-002	4.6857512E-003	0	6.358326997679089E-005	4.4328481E-001	-5.2867360E-002	4.4642624E-001	-6.8011274E+000	-7.8793800E+001	6.6067438E+002	6.6535638E+002	-9.6801125E+001	0.0000000E+000	0.0000000E+000	0.0000000E+000	9.6801125E+001	0.0000000E+000	0.0000000E+000	0.0000000E+000	-9.6801125E+001	0.0000000E+000	0.0000000E+000	0.0000000E+000	6.8011274E+000	0.0000000E+000	0.0000000E+000	0.0000000E+000	-6.8011274E+000	8.3848486E+000	8.3198875E+001	1.097955147064446E-005	6.1205006E-005	3.3059236E+003
7.2595008E+004	2.2058599E+000	-1.3310198E-001	2.2098720E+000	3.4530509E+000	2.040118766068626E+002	4.4980320E-001	1.3634476E-001	-1.6471336E+001	-5.9753545E-002	1.000000000000000E+000	9	1.0732338E-002	4.8565427E-003	0	8.888189002581769E-005	4.5169333E-001	-2.7255258E-002	4.5251489E-001	-3.4530509E+000	-5.9753506E+001	9.9027783E+002	9.9207898E+002	-9.3453049E+001	0.0000000E+000	0.0000000E+000	0.0000000E+000	9.3453049E+001	0.0000000E+000	0.0000000E+000	0.0000000E+000	-9.3453049E+001	0.0000000E+000	0.0000000E+000	0.0000000E+000	3.4530509E+000	0.0000000E+000	0.0000000E+000	0.0000000E+000	-3.4530509E+000	1.6572704E+001	8.6546951E+001	2.529862004902680E-005	6.1328312E-005	3.2990134E+003
4.9352359E+004	2.2081280E+000	-6.6852823E-002	2.2091398E+000	1.7341453E+000	2.044338890268846E+002	4.4980410E-001	1.4601749E-001	-4.8238346E+001	-4.4175912E-002	1.000000000000000E+000	9	1.0668525E-002	4.8292661E-003	0	1.056947007890946E-004	4.5245758E-001	-1.3698510E-002	4.5266488E-001	-1.7341453E+000	-4.4175938E+001	1.4591168E+003	1.4597854E+003	-9.1734146E+001	0.0000000E+000	0.0000000E+000	0.0000000E+000	9.1734146E+001	0.0000000E+000	0.0000000E+000	0.0000000E+000	-9.1734146E+001	0.0000000E+000	0.0000000E+000	0.0000000E+000	1.7341453E+000	0.0000000E+000	0.0000000E+000	0.0000000E+000	-1.7341453E+000	3.3029690E+001	8.8265854E+001	1.681281076327691E-005	6.5679269E-005	3.0804810E+003
3.3551066E+004	2.2147207E+000	-3.2305747E-002	2.2149563E+000	8.3570439E-001	2.048558733136306E+002	4.4980070E-001	1.4242050E-001	-1.4683650E+002	-3.1236567E-002	1.000000000000000E+000	9	1.0600374E-002	4.7858162E-003	0	1.250693756724811E-004	4.5142817E-001	-6.5849046E-003	4.5147619E-001	-8.3570439E-001	-3.1236443E+001	2.1414231E+003	2.1416509E+003	-9.0835701E+001	0.0000000E+000	0.0000000E+000	0.0000000E+000	9.0835701E+001	0.0000000E+000	0.0000000E+000	0.0000000E+000	-9.0835701E+001	0.0000000E+000	0.0000000E+000	0.0000000E+000	8.3570439E-001	0.0000000E+000	0.0000000E+000	0.0000000E+000	-8.3570439E-001	6.8555008E+001	8.9164299E+001	1.937467488338654E-005	6.4060841E-005	3.1582581E+003
2.2806563E+004	2.2234724E+000	-9.7620375E-003	2.2234938E+000	2.5155246E-001	2.052788881603774E+002	4.4979519E-001	1.3455559E-001	-7.1485803E+002	-1.3779356E-002	1.000000000000000E+000	9	1.0571941E-002	4.7546527E-003	0	1.356741945195633E-004	4.4973832E-001	-1.9745522E-003	4.4974265E-001	-2.5155246E-001	-1.3779153E+001	3.1384858E+003	3.1385161E+003	-9.0251549E+001	0.0000000E+000	0.0000000E+000	0.0000000E+000	9.0251549E+001	0.0000000E+000	0.0000000E+000	0.0000000E+000	-9.0251549E+001	0.0000000E+000	0.0000000E+000	0.0000000E+000	2.5155246E-001	0.0000000E+000	0.0000000E+000	0.0000000E+000	-2.5155246E-001	2.2776724E+002	8.9748451E+001	1.060481884708212E-005	6.0522460E-005	3.3428206E+003
1.5504379E+004	2.2259409E+000	2.3494679E-003	2.2259421E+000	-6.0475349E-002	2.057008914337639E+002	4.4979256E-001	1.2928124E-001	4.3691426E+003	4.8675179E-003	1.000000000000000E+000	9	1.0516734E-002	4.7246213E-003	0	1.457858275454750E-004	4.4924775E-001	4.7417844E-004	4.4924799E-001	6.0475349E-002	4.8677487E+000	4.6116006E+003	4.6116030E+003	-8.9939522E+001	0.0000000E+000	0.0000000E+000	0.0000000E+000	8.9939522E+001	0.0000000E+000	0.0000000E+000	0.0000000E+000	-8.9939522E+001	0.0000000E+000	0.0000000E+000	0.0000000E+000	-6.0475349E-002	0.0000000E+000	0.0000000E+000	0.0000000E+000	6.0475349E-002	9.4742340E+002	8.9939522E+001	1.011163302591176E-005	5.8149741E-005	3.4791790E+003
1.0540381E+004	2.2333291E+000	1.0541671E-002	2.2333539E+000	-2.7044326E-001	2.061238675871427E+002	4.4980380E-001	1.3953173E-001	1.4323673E+003	3.1912308E-002	1.000000000000000E+000	9	1.0501822E-002	4.7022649E-003	0	1.578491119869189E-004	4.4775209E-001	2.1134617E-003	4.4775707E-001	2.7044326E-001	3.1912724E+001	6.7608525E+003	6.7609277E+003	-8.9729553E+001	0.0000000E+000	0.0000000E+000	0.0000000E+000	8.9729553E+001	0.0000000E+000	0.0000000E+000	0.0000000E+000	-8.9729553E+001	0.0000000E+000	0.0000000E+000	0.0000000E+000	-2.7044326E-001	0.0000000E+000	0.0000000E+000	0.0000000E+000	2.7044326E-001	2.1185721E+002	8.9729553E+001	1.206328444144391E-005	6.2761901E-005	3.2236667E+003
7.1637817E+003	2.2409172E+000	2.0011049E-002	2.2410066E+000	-5.1162899E-001	2.066474561987125E+002	4.4978237E-001	1.2287004E-001	1.1102172E+003	8.8524066E-002	1.000000000000000E+000	9	1.0436566E-002	4.6570883E-003	0	1.728626686682821E-004	4.4621027E-001	3.9845896E-003	4.4622806E-001	5.1162899E-001	8.8523758E+001	9.9132783E+003	9.9136738E+003	-8.9488373E+001	0.0000000E+000	0.0000000E+000	0.0000000E+000	8.9488373E+001	0.0000000E+000	0.0000000E+000	0.0000000E+000	-8.9488373E+001	0.0000000E+000	0.0000000E+000	0.0000000E+000	-5.1162899E-001	0.0000000E+000	0.0000000E+000	0.0000000E+000	5.1162899E-001	1.1198399E+002	8.9488373E+001	1.501355668136320E-005	5.5264776E-005	3.6606353E+003
4.8715591E+003	2.2457404E+000	2.5192009E-002	2.2458818E+000	-6.4269900E-001	2.073370899381698E+002	4.4977826E-001	1.1422236E-001	1.2968489E+003	1.6317032E-001	1.000000000000000E+000	9	1.0351498E-002	4.6091019E-003	0	1.913110272900926E-004	4.4523141E-001	4.9944655E-003	4.4525942E-001	6.4269900E-001	1.6317061E+002	1.4545811E+004	1.4546726E+004	-8.9357300E+001	0.0000000E+000	0.0000000E+000	0.0000000E+000	8.9357300E+001	0.0000000E+000	0.0000000E+000	0.0000000E+000	-8.9357300E+001	0.0000000E+000	0.0000000E+000	0.0000000E+000	-6.4269900E-001	0.0000000E+000	0.0000000E+000	0.0000000E+000	6.4269900E-001	8.9144951E+001	8.9357300E+001	1.844835862181045E-005	5.1374736E-005	3.9377427E+003
3.3110596E+003	2.2511513E+000	3.1497777E-002	2.2513716E+000	-8.0162174E-001	2.080240861574712E+002	4.4978115E-001	1.2389509E-001	1.5260658E+003	2.9870239E-001	1.000000000000000E+000	9	1.0281795E-002	4.5669023E-003	0	2.053651607824076E-004	4.4413018E-001	6.2142038E-003	4.4417366E-001	8.0162174E-001	2.9870184E+002	2.1348305E+004	2.1350395E+004	-8.9198380E+001	0.0000000E+000	0.0000000E+000	0.0000000E+000	8.9198380E+001	0.0000000E+000	0.0000000E+000	0.0000000E+000	-8.9198380E+001	0.0000000E+000	0.0000000E+000	0.0000000E+000	-8.0162174E-001	0.0000000E+000	0.0000000E+000	0.0000000E+000	8.0162174E-001	7.1470169E+001	8.9198380E+001	1.405413349231499E-005	5.5725675E-005	3.6303389E+003
2.2507205E+003	2.2520928E+000	4.1429989E-002	2.2524738E+000	-1.0539067E+000	2.087120865634788E+002	4.4977075E-001	1.1748388E-001	1.7068044E+003	5.7742274E-001	1.000000000000000E+000	9	1.0170773E-002	4.5153787E-003	0	2.294884733857794E-004	4.4388121E-001	8.1657348E-003	4.4395632E-001	1.0539067E+000	5.7742407E+002	3.1388121E+004	3.1393432E+004	-8.8946091E+001	0.0000000E+000	0.0000000E+000	0.0000000E+000	8.8946091E+001	0.0000000E+000	0.0000000E+000	0.0000000E+000	-8.8946091E+001	0.0000000E+000	0.0000000E+000	0.0000000E+000	-1.0539067E+000	0.0000000E+000	0.0000000E+000	0.0000000E+000	1.0539067E+000	5.4359001E+001	8.8946091E+001	2.412331260337182E-005	5.2840813E-005	3.8283616E+003
1.5304901E+003	2.2543721E+000	5.2436080E-002	2.2549818E+000	-1.3324440E+000	2.091770598388975E+002	4.4978693E-001	1.1770753E-001	1.9831676E+003	1.0723431E+000	1.000000000000000E+000	9	1.0863882E-002	4.8177247E-003	0	2.467201913578966E-004	4.4334266E-001	1.0312029E-002	4.4346258E-001	1.3324440E+000	1.0723425E+003	4.6102996E+004	4.6115465E+004	-8.8667557E+001	0.0000000E+000	0.0000000E+000	0.0000000E+000	8.8667557E+001	0.0000000E+000	0.0000000E+000	0.0000000E+000	-8.8667557E+001	0.0000000E+000	0.0000000E+000	0.0000000E+000	-1.3324440E+000	0.0000000E+000	0.0000000E+000	0.0000000E+000	1.3324440E+000	4.2992767E+001	8.8667557E+001	1.723171797211724E-005	5.2943309E-005	3.8212249E+003
1.0403328E+003	2.2593691E+000	7.4305013E-002	2.2605906E+000	-1.8836364E+000	2.098641078981964E+002	4.4977072E-001	1.1947805E-001	2.0588738E+003	2.2244475E+000	1.000000000000000E+000	9	1.0067811E-002	4.4536199E-003	0	2.585869113865516E-004	4.4212323E-001	1.4540331E-002	4.4236228E-001	1.8836364E+000	2.2244475E+003	6.7638070E+004	6.7674641E+004	-8.8116364E+001	0.0000000E+000	0.0000000E+000	0.0000000E+000	8.8116364E+001	0.0000000E+000	0.0000000E+000	0.0000000E+000	-8.8116364E+001	0.0000000E+000	0.0000000E+000	0.0000000E+000	-1.8836364E+000	0.0000000E+000	0.0000000E+000	0.0000000E+000	1.8836364E+000	3.0406685E+001	8.8116364E+001	1.186672002865494E-005	5.3737731E-005	3.7644631E+003
7.0703625E+002	2.2635772E+000	1.0181510E-001	2.2658658E+000	-2.5754130E+000	2.103285540269135E+002	4.4977915E-001	1.2009309E-001	2.2108855E+003	4.4639802E+000	1.000000000000000E+000	9	1.0242332E-002	4.5202728E-003	0	2.745390904386424E-004	4.4088662E-001	1.9830963E-002	4.4133240E-001	2.5754130E+000	4.4639863E+003	9.9244250E+004	9.9344594E+004	-8.7424583E+001	0.0000000E+000	0.0000000E+000	0.0000000E+000	8.7424583E+001	0.0000000E+000	0.0000000E+000	0.0000000E+000	-8.7424583E+001	0.0000000E+000	0.0000000E+000	0.0000000E+000	-2.5754130E+000	0.0000000E+000	0.0000000E+000	0.0000000E+000	2.5754130E+000	2.2232235E+001	8.7424583E+001	1.595217905209087E-005	5.4015371E-005	3.7452542E+003
4.8076920E+002	2.2686596E+000	1.4039984E-001	2.2729998E+000	-3.5413301E+000	2.107938354889775E+002	4.4977954E-001	1.1297367E-001	2.3578538E+003	8.9960394E+000	1.000000000000000E+000	9	1.0327544E-002	4.5435745E-003	0	2.906442318511221E-004	4.3910718E-001	2.7174892E-002	4.3994725E-001	3.5413301E+000	8.9960342E+003	1.4536305E+005	1.4564114E+005	-8.6458672E+001	0.0000000E+000	0.0000000E+000	0.0000000E+000	8.6458672E+001	0.0000000E+000	0.0000000E+000	0.0000000E+000	-8.6458672E+001	0.0000000E+000	0.0000000E+000	0.0000000E+000	-3.5413301E+000	0.0000000E+000	0.0000000E+000	0.0000000E+000	3.5413301E+000	1.6158562E+001	8.6458672E+001	1.610514141247969E-005	5.0813243E-005	3.9812776E+003
3.2677771E+002	2.2745385E+000	2.0291619E-001	2.2835720E+000	-5.0979762E+000	2.112570682043588E+002	4.4977903E-001	1.1161314E-001	2.4002200E+003	1.8952000E+001	1.000000000000000E+000	9	1.0382607E-002	4.5466516E-003	0	3.041345227377509E-004	4.3617815E-001	3.8912334E-002	4.3791044E-001	5.0979762E+000	1.8951998E+004	2.1243770E+005	2.1328141E+005	-8.4902023E+001	0.0000000E+000	0.0000000E+000	0.0000000E+000	8.4902023E+001	0.0000000E+000	0.0000000E+000	0.0000000E+000	-8.4902023E+001	0.0000000E+000	0.0000000E+000	0.0000000E+000	-5.0979762E+000	0.0000000E+000	0.0000000E+000	0.0000000E+000	5.0979762E+000	1.1209251E+001	8.4902023E+001	1.349029088662876E-005	5.0201252E-005	4.0298037E+003
2.2206076E+002	2.2835066E+000	2.8630185E-001	2.3013847E+000	-7.1463485E+000	2.117182689462643E+002	4.4977763E-001	1.1409190E-001	2.5033647E+003	3.8743069E+001	1.000000000000000E+000	9	1.0415917E-002	4.5259348E-003	0	3.195260174624531E-004	4.3114549E-001	5.4056227E-002	4.3452102E-001	7.1463485E+000	3.8743063E+004	3.0900975E+005	3.1142903E+005	-8.2853653E+001	0.0000000E+000	0.0000000E+000	0.0000000E+000	8.2853653E+001	0.0000000E+000	0.0000000E+000	0.0000000E+000	-8.2853653E+001	0.0000000E+000	0.0000000E+000	0.0000000E+000	-7.1463485E+000	0.0000000E+000	0.0000000E+000	0.0000000E+000	7.1463485E+000	7.9758711E+000	8.2853653E+001	1.539149472470225E-005	5.1315983E-005	3.9422400E+003
1.5101485E+002	2.2895734E+000	4.1102722E-001	2.3261750E+000	-1.0177405E+001	2.121798071548255E+002	4.4977310E-001	1.0952577E-001	2.5640703E+003	8.0054604E+001	1.000000000000000E+000	9	1.0440798E-002	4.4883979E-003	0	3.324093023595245E-004	4.2312610E-001	7.5960152E-002	4.2989028E-001	1.0177405E+001	8.0054617E+004	4.4593372E+005	4.5306250E+005	-7.9822594E+001	0.0000000E+000	0.0000000E+000	0.0000000E+000	7.9822594E+001	0.0000000E+000	0.0000000E+000	0.0000000E+000	-7.9822594E+001	0.0000000E+000	0.0000000E+000	0.0000000E+000	-1.0177405E+001	0.0000000E+000	0.0000000E+000	0.0000000E+000	1.0177405E+001	5.5703692E+000	7.9822594E+001	1.288328489707137E-005	4.9261744E-005	4.1065503E+003
1.0266736E+002	2.3020952E+000	5.9303218E-001	2.3772526E+000	-1.4445628E+001	2.129126938296395E+002	4.4978124E-001	8.0943843E-003	2.6140234E+003	1.6267294E+002	1.000000000000000E+000	10	1.0482264E-002	4.4094026E-003	0	3.398240390319067E-004	4.0735462E-001	1.0493675E-001	4.2065367E-001	1.4445628E+001	1.6267292E+005	6.3148113E+005	6.5209731E+005	-7.5554375E+001	0.0000000E+000	0.0000000E+000	0.0000000E+000	7.5554375E+001	0.0000000E+000	0.0000000E+000	0.0000000E+000	-7.5554375E+001	0.0000000E+000	0.0000000E+000	0.0000000E+000	-1.4445628E+001	0.0000000E+000	0.0000000E+000	0.0000000E+000	1.4445628E+001	3.8819060E+000	7.5554375E+001	7.414736672382188E-006	3.6407023E-006	5.5567070E+004
6.9754463E+001	2.3058510E+000	8.5437030E-001	2.4590440E+000	-2.0330814E+001	2.133798322251096E+002	4.4977051E-001	1.1170928E-002	2.6705579E+003	3.2237524E+002	1.000000000000000E+000	10	1.0501144E-002	4.2704176E-003	0	3.435679783741685E-004	3.8132796E-001	1.4129068E-001	4.0666211E-001	2.0330814E+001	3.2237516E+005	8.7005513E+005	9.2785863E+005	-6.9669189E+001	0.0000000E+000	0.0000000E+000	0.0000000E+000	6.9669189E+001	0.0000000E+000	0.0000000E+000	0.0000000E+000	-6.9669189E+001	0.0000000E+000	0.0000000E+000	0.0000000E+000	-2.0330814E+001	0.0000000E+000	0.0000000E+000	0.0000000E+000	2.0330814E+001	2.6988895E+000	6.9669189E+001	3.743939342261806E-006	5.0243543E-006	4.0262590E+004
4.7444328E+001	2.3004851E+000	1.2368656E+000	2.6119089E+000	-2.8264889E+001	2.138238310995657E+002	4.4977251E-001	1.2918825E-002	2.7121475E+003	6.0819427E+002	1.000000000000000E+000	10	1.0526069E-002	4.0300293E-003	0	3.485351558388470E-004	3.3721226E-001	1.8130362E-001	3.8286173E-001	2.8264889E+001	6.0819425E+005	1.1311995E+006	1.2843335E+006	-6.1735111E+001	0.0000000E+000	0.0000000E+000	0.0000000E+000	6.1735111E+001	0.0000000E+000	0.0000000E+000	0.0000000E+000	-6.1735111E+001	0.0000000E+000	0.0000000E+000	0.0000000E+000	-2.8264889E+001	0.0000000E+000	0.0000000E+000	0.0000000E+000	2.8264889E+001	1.8599313E+000	6.1735107E+001	4.967177464678459E-006	5.8105325E-006	3.4815277E+004
