EC-Lab ASCII FILE
Nb header lines : 63                          

Potentio Electrochemical Impedance Spectroscopy

Run on channel : 2 (SN 69290)
User : 
CE vs. WE compliance from -10 V to 10 V
Electrode connection : standard
Potential control : Ewe
Ewe ctrl range : min = -1.00 V, max = 1.00 V
Safety Limits :
	Do not start on E overload
Acquisition started on : 11/12/2025 17:10:29.402
Loaded Setting File :  C:\Users\User\Documents\EC-Lab\Data\Yatsuzuka\20251112_2-148_alpha_reproducibility\20251112_2-148_002_alpha_reproducibility_2_K1.mps
Saved on :
	File : 20251112_2-148_004_Na_first_2_Na2_02_PEIS_C02.mpr
	Directory : C:\Users\User\Documents\EC-Lab\Data\Yatsuzuka\20251112_2-148_alpha_reproducibility\
	Host : 192.109.209.127
Device : SP-150e (SN .003883)
Address : 192.109.209.128
EC-Lab for windows v11.52 (software)
Internet server v11.52 (firmware)
Command interpretor v11.50 (firmware)
Electrode material : 
Initial state : 
Electrolyte : 
Comments : 
Electrode surface area : 0.001 cm2
Characteristic mass : 0.001 g
Equivalent Weight : 0.000 g/eq.
Density : 0.000 g/cm3
Volume (V) : 0.001 cm3
Cycle Definition : Charge/Discharge alternance
Mode                Single sine         
E (V)               0.4500              
vs.                 Ref                 
tE (h:m:s)          0:00:0.0000         
record              0                   
dI                  0.000               
unit dI             mA                  
dt (s)              0.000               
fi                  500.000             
unit fi             kHz                 
ff                  1.000               
unit ff             Hz                  
Nd                  6                   
Points              per decade          
spacing             Logarithmic         
Va (mV)             10.0                
pw                  0.10                
Na                  2                   
corr                0                   
E range min (V)     -1.000              
E range max (V)     1.000               
I Range             Auto                
Bandwidth           5                   
nc cycles           0                   
goto Ns'            0                   
nr cycles           0                   
inc. cycle          0                   

freq/Hz	Re(Z)/Ohm	-Im(Z)/Ohm	|Z|/Ohm	Phase(Z)/deg	time/s	<Ewe>/V	<I>/mA	Cs/uF	Cp/uF	cycle number	I Range	|Ewe|/V	|I|/A	Ns	(Q-Qo)/mA.h	Re(Y)/Ohm-1	Im(Y)/Ohm-1	|Y|/Ohm-1	Phase(Y)/deg	Re(C)/nF	Im(C)/nF	|C|/nF	Phase(C)/deg	Re(M)	Im(M)	|M|	Phase(M)/deg	Re(Permittivity)	Im(Permittivity)	|Permittivity|	Phase(Permittivity)/deg	Re(Resistivity)/Ohm.cm	Im(Resistivity)/Ohm.cm	|Resistivity|/Ohm.cm	Phase(Resistivity)/deg	Re(Conductivity)/mS/cm	Im(Conductivity)/mS/cm	|Conductivity|/mS/cm	Phase(Conductivity)/deg	Tan(Delta)	Loss Angle(Delta)/deg	dq/mA.h	
5.0001856E+005	1.3432746E+001	-4.0095892E+000	1.4018397E+001	1.6620029E+001	2.019440848541708E+002	4.4980505E-001	1.9411903E-002	-7.9384208E-002	-6.4943722E-003	1.000000000000000E+000	10	4.6709338E-003	3.3320027E-004	0	3.274224788032006E-005	6.8354651E-002	-2.0403428E-002	7.1334831E-002	-1.6620029E+001	-6.4943705E+000	2.1757154E+001	2.2705740E+001	-1.0662003E+002	0.0000000E+000	0.0000000E+000	0.0000000E+000	1.0662003E+002	0.0000000E+000	0.0000000E+000	0.0000000E+000	-1.0662003E+002	0.0000000E+000	0.0000000E+000	0.0000000E+000	1.6620029E+001	0.0000000E+000	0.0000000E+000	0.0000000E+000	-1.6620029E+001	3.3501551E+000	7.3379974E+001	3.274224788032006E-005
3.3989941E+005	9.0301847E+000	-2.3173220E+000	9.3227797E+000	1.4392647E+001	2.023660732475837E+002	4.4969571E-001	1.6859386E-002	-2.0206138E-001	-1.2484331E-002	1.000000000000000E+000	10	7.1437899E-003	7.6627254E-004	0	3.434341095016053E-005	1.0389767E-001	-2.6662175E-002	1.0726415E-001	-1.4392647E+001	-1.2484331E+001	4.8649178E+001	5.0225502E+001	-1.0439265E+002	0.0000000E+000	0.0000000E+000	0.0000000E+000	1.0439265E+002	0.0000000E+000	0.0000000E+000	0.0000000E+000	-1.0439265E+002	0.0000000E+000	0.0000000E+000	0.0000000E+000	1.4392647E+001	0.0000000E+000	0.0000000E+000	0.0000000E+000	-1.4392647E+001	3.8968191E+000	7.5607353E+001	1.601163069840468E-006
2.3106258E+005	7.5461946E+000	-1.2637713E+000	7.6512856E+000	9.5071745E+000	2.027880674542539E+002	4.4956815E-001	1.9287005E-002	-5.4503202E-001	-1.4869288E-002	1.000000000000000E+000	10	1.0124509E-002	1.3232429E-003	0	3.897792457935348E-005	1.2890185E-001	-2.1587364E-002	1.3069698E-001	-9.5071745E+000	-1.4869284E+001	8.8787064E+001	9.0023544E+001	-9.9507172E+001	0.0000000E+000	0.0000000E+000	0.0000000E+000	9.9507172E+001	0.0000000E+000	0.0000000E+000	0.0000000E+000	-9.9507172E+001	0.0000000E+000	0.0000000E+000	0.0000000E+000	9.5071745E+000	0.0000000E+000	0.0000000E+000	0.0000000E+000	-9.5071745E+000	5.9711709E+000	8.0492828E+001	4.634513629192953E-006
1.5707578E+005	7.0664473E+000	-6.5775937E-001	7.0969939E+000	5.3178854E+000	2.032110891010525E+002	4.4953942E-001	2.2406351E-002	-1.5404366E+000	-1.3232109E-002	1.000000000000000E+000	10	1.0909564E-002	1.5372091E-003	0	3.905704557296768E-005	1.4029825E-001	-1.3059248E-002	1.4090472E-001	-5.3178854E+000	-1.3232112E+001	1.4215533E+002	1.4276984E+002	-9.5317886E+001	0.0000000E+000	0.0000000E+000	0.0000000E+000	9.5317886E+001	0.0000000E+000	0.0000000E+000	0.0000000E+000	-9.5317886E+001	0.0000000E+000	0.0000000E+000	0.0000000E+000	5.3178854E+000	0.0000000E+000	0.0000000E+000	0.0000000E+000	-5.3178854E+000	1.0743211E+001	8.4682114E+001	7.912099361419972E-008
1.0678630E+005	6.9395032E+000	-3.5590392E-001	6.9486237E+000	2.9359367E+000	2.036330735744123E+002	4.4954181E-001	2.0718964E-002	-4.1876640E+000	-1.0986006E-002	1.000000000000000E+000	10	1.0888400E-002	1.5669867E-003	0	4.085324722736226E-005	1.4372449E-001	-7.3711490E-003	1.4391339E-001	-2.9359367E+000	-1.0986002E+001	2.1420784E+002	2.1448938E+002	-9.2935936E+001	0.0000000E+000	0.0000000E+000	0.0000000E+000	9.2935936E+001	0.0000000E+000	0.0000000E+000	0.0000000E+000	-9.2935936E+001	0.0000000E+000	0.0000000E+000	0.0000000E+000	2.9359367E+000	0.0000000E+000	0.0000000E+000	0.0000000E+000	-2.9359367E+000	1.9498249E+001	8.7064064E+001	1.796201654394579E-006
7.2595008E+004	6.9034910E+000	-2.0742302E-001	6.9066067E+000	1.7209972E+000	2.040550698611332E+002	4.4955444E-001	1.7640641E-002	-1.0569549E+001	-9.5332479E-003	1.000000000000000E+000	10	1.0697798E-002	1.5489224E-003	0	4.243456265744721E-005	1.4472359E-001	-4.3483800E-003	1.4478891E-001	-1.7209972E+000	-9.5332661E+000	3.1728729E+002	3.1743048E+002	-9.1721001E+001	0.0000000E+000	0.0000000E+000	0.0000000E+000	9.1721001E+001	0.0000000E+000	0.0000000E+000	0.0000000E+000	-9.1721001E+001	0.0000000E+000	0.0000000E+000	0.0000000E+000	1.7209972E+000	0.0000000E+000	0.0000000E+000	0.0000000E+000	-1.7209972E+000	3.3282185E+001	8.8278999E+001	1.581315430084942E-006
4.9352359E+004	6.8904414E+000	-1.2696409E-001	6.8916111E+000	1.0556194E+000	2.044770850811765E+002	4.4954431E-001	1.6499551E-002	-2.5399858E+001	-8.6208796E-003	1.000000000000000E+000	10	1.0597149E-002	1.5376882E-003	0	4.628191536746453E-005	1.4507931E-001	-2.6732488E-003	1.4510395E-001	-1.0556194E+000	-8.6208706E+000	4.6786197E+002	4.6794138E+002	-9.1055618E+001	0.0000000E+000	0.0000000E+000	0.0000000E+000	9.1055618E+001	0.0000000E+000	0.0000000E+000	0.0000000E+000	-9.1055618E+001	0.0000000E+000	0.0000000E+000	0.0000000E+000	1.0556194E+000	0.0000000E+000	0.0000000E+000	0.0000000E+000	-1.0556194E+000	5.4270790E+001	8.8944382E+001	3.847352710017326E-006
3.3551066E+004	6.8820553E+000	-7.9325594E-002	6.8825126E+000	6.6038710E-001	2.048990674478846E+002	4.4955423E-001	1.8712739E-002	-5.9799904E+001	-7.9438882E-003	1.000000000000000E+000	10	1.0547453E-002	1.5325003E-003	0	4.581544066735336E-005	1.4528611E-001	-1.6746317E-003	1.4529577E-001	-6.6038710E-001	-7.9438643E+000	6.8918835E+002	6.8923413E+002	-9.0660385E+001	0.0000000E+000	0.0000000E+000	0.0000000E+000	9.0660385E+001	0.0000000E+000	0.0000000E+000	0.0000000E+000	-9.0660385E+001	0.0000000E+000	0.0000000E+000	0.0000000E+000	6.6038710E-001	0.0000000E+000	0.0000000E+000	0.0000000E+000	-6.6038710E-001	8.6757057E+001	8.9339615E+001	-4.664747001111678E-007
2.2806563E+004	6.8754945E+000	-4.8561823E-002	6.8756661E+000	4.0467504E-001	2.053210857079393E+002	4.4956136E-001	2.2154640E-002	-1.4370284E+002	-7.1684574E-003	1.000000000000000E+000	10	1.0500121E-002	1.5271424E-003	0	4.683336844868286E-005	1.4543684E-001	-1.0272246E-003	1.4544046E-001	-4.0467504E-001	-7.1685152E+000	1.0149266E+003	1.0149520E+003	-9.0404678E+001	0.0000000E+000	0.0000000E+000	0.0000000E+000	9.0404678E+001	0.0000000E+000	0.0000000E+000	0.0000000E+000	-9.0404678E+001	0.0000000E+000	0.0000000E+000	0.0000000E+000	4.0467504E-001	0.0000000E+000	0.0000000E+000	0.0000000E+000	-4.0467504E-001	1.4158231E+002	8.9595322E+001	1.017927781329492E-006
1.5504379E+004	6.8713121E+000	-2.4242185E-002	6.8713551E+000	2.0214030E-001	2.057430717546522E+002	4.4955680E-001	2.1496465E-002	-4.2344205E+002	-5.2705114E-003	1.000000000000000E+000	10	1.0399241E-002	1.5134192E-003	0	4.609819133943206E-005	1.4553079E-001	-5.1343680E-004	1.4553170E-001	-2.0214030E-001	-5.2705245E+000	1.4938971E+003	1.4939064E+003	-9.0202141E+001	0.0000000E+000	0.0000000E+000	0.0000000E+000	9.0202141E+001	0.0000000E+000	0.0000000E+000	0.0000000E+000	-9.0202141E+001	0.0000000E+000	0.0000000E+000	0.0000000E+000	2.0214030E-001	0.0000000E+000	0.0000000E+000	0.0000000E+000	-2.0214030E-001	2.8344443E+002	8.9797859E+001	-7.351771092508006E-007
1.0540381E+004	6.8750515E+000	3.8888596E-004	6.8750515E+000	-3.2409248E-003	2.061650919880049E+002	4.4955674E-001	1.9234803E-002	3.8827691E+004	1.2423220E-004	1.000000000000000E+000	10	1.0361708E-002	1.5071462E-003	0	4.763827305684228E-005	1.4545345E-001	8.2275465E-006	1.4545345E-001	3.2409248E-003	1.2429230E-001	2.1962808E+003	2.1962808E+003	-8.9996758E+001	0.0000000E+000	0.0000000E+000	0.0000000E+000	8.9996758E+001	0.0000000E+000	0.0000000E+000	0.0000000E+000	-8.9996758E+001	0.0000000E+000	0.0000000E+000	0.0000000E+000	-3.2409248E-003	0.0000000E+000	0.0000000E+000	0.0000000E+000	3.2409248E-003	1.7678836E+004	8.9996758E+001	1.540081717410225E-006
7.1637817E+003	6.8782411E+000	6.1395839E-003	6.8782439E+000	-5.1142748E-002	2.066886788129195E+002	4.4953373E-001	1.5410674E-002	3.6185857E+003	2.8831125E-003	1.000000000000000E+000	10	1.0214082E-002	1.4849839E-003	0	4.892060855014198E-005	1.4538589E-001	1.2977284E-004	1.4538595E-001	5.1142748E-002	2.8829482E+000	3.2299817E+003	3.2299829E+003	-8.9948860E+001	0.0000000E+000	0.0000000E+000	0.0000000E+000	8.9948860E+001	0.0000000E+000	0.0000000E+000	0.0000000E+000	-8.9948860E+001	0.0000000E+000	0.0000000E+000	0.0000000E+000	-5.1142748E-002	0.0000000E+000	0.0000000E+000	0.0000000E+000	5.1142748E-002	1.1203107E+003	8.9948860E+001	1.282335493299698E-006
4.8715591E+003	6.8795261E+000	2.3660691E-002	6.8795667E+000	-1.9705608E-001	2.073772791656447E+002	4.4954589E-001	1.9708393E-002	1.3807808E+003	1.6332678E-002	1.000000000000000E+000	10	1.0152589E-002	1.4757599E-003	0	4.993169037995783E-005	1.4535713E-001	4.9992552E-004	1.4535800E-001	1.9705608E-001	1.6332972E+001	4.7488501E+003	4.7488784E+003	-8.9802940E+001	0.0000000E+000	0.0000000E+000	0.0000000E+000	8.9802940E+001	0.0000000E+000	0.0000000E+000	0.0000000E+000	-8.9802940E+001	0.0000000E+000	0.0000000E+000	0.0000000E+000	-1.9705608E-001	0.0000000E+000	0.0000000E+000	0.0000000E+000	1.9705608E-001	2.9075760E+002	8.9802940E+001	1.011081829815846E-006
3.3110596E+003	6.8850131E+000	3.7876289E-002	6.8851171E+000	-3.1519616E-001	2.078422662277299E+002	4.4955420E-001	1.7953880E-002	1.2690704E+003	3.8405899E-002	1.000000000000000E+000	10	1.0817009E-002	1.5710712E-003	0	5.184014802195210E-005	1.4523862E-001	7.9899631E-004	1.4524081E-001	3.1519616E-001	3.8405529E+001	6.9812827E+003	6.9813882E+003	-8.9684807E+001	0.0000000E+000	0.0000000E+000	0.0000000E+000	8.9684807E+001	0.0000000E+000	0.0000000E+000	0.0000000E+000	-8.9684807E+001	0.0000000E+000	0.0000000E+000	0.0000000E+000	-3.1519616E-001	0.0000000E+000	0.0000000E+000	0.0000000E+000	3.1519616E-001	1.8177634E+002	8.9684807E+001	1.908457641994270E-006
2.2507205E+003	6.8836360E+000	5.1465087E-002	6.8838282E+000	-4.2836043E-001	2.085272737535997E+002	4.4954795E-001	1.9415664E-002	1.3739973E+003	7.6798238E-002	1.000000000000000E+000	10	1.0104153E-002	1.4678102E-003	0	5.709913739417163E-005	1.4526395E-001	1.0860570E-003	1.4526801E-001	4.2836043E-001	7.6798141E+001	1.0272032E+004	1.0272319E+004	-8.9571640E+001	0.0000000E+000	0.0000000E+000	0.0000000E+000	8.9571640E+001	0.0000000E+000	0.0000000E+000	0.0000000E+000	-8.9571640E+001	0.0000000E+000	0.0000000E+000	0.0000000E+000	-4.2836043E-001	0.0000000E+000	0.0000000E+000	0.0000000E+000	4.2836043E-001	1.3375351E+002	8.9571640E+001	5.258989372219530E-006
1.5304901E+003	6.8894873E+000	7.4039139E-002	6.8898849E+000	-6.1571592E-001	2.089922754290164E+002	4.4955304E-001	1.9835180E-002	1.4045211E+003	1.6219111E-001	1.000000000000000E+000	10	1.0266496E-002	1.4900824E-003	0	5.869709171456674E-005	1.4513193E-001	1.5596868E-003	1.4514031E-001	6.1571592E-001	1.6219089E+002	1.5092202E+004	1.5093073E+004	-8.9384285E+001	0.0000000E+000	0.0000000E+000	0.0000000E+000	8.9384285E+001	0.0000000E+000	0.0000000E+000	0.0000000E+000	-8.9384285E+001	0.0000000E+000	0.0000000E+000	0.0000000E+000	-6.1571592E-001	0.0000000E+000	0.0000000E+000	0.0000000E+000	6.1571592E-001	9.3051964E+001	8.9384285E+001	1.597954320395120E-006
1.0403328E+003	6.8994060E+000	1.0518562E-001	6.9002075E+000	-8.7344116E-001	2.094572701177676E+002	4.4955197E-001	1.6663630E-002	1.4544255E+003	3.3797139E-001	1.000000000000000E+000	10	1.0349641E-002	1.4999028E-003	0	6.232673635047913E-005	1.4490634E-001	2.2091849E-003	1.4492318E-001	8.7344116E-001	3.3797232E+002	2.2168445E+004	2.2171021E+004	-8.9126556E+001	0.0000000E+000	0.0000000E+000	0.0000000E+000	8.9126556E+001	0.0000000E+000	0.0000000E+000	0.0000000E+000	-8.9126556E+001	0.0000000E+000	0.0000000E+000	0.0000000E+000	-8.7344116E-001	0.0000000E+000	0.0000000E+000	0.0000000E+000	8.7344116E-001	6.5592674E+001	8.9126556E+001	3.629644635912381E-006
7.0703625E+002	6.8999848E+000	1.4711788E-001	6.9015532E+000	-1.2214457E+000	2.099217677397683E+002	4.4955221E-001	1.6708380E-002	1.5300758E+003	6.9526476E-001	1.000000000000000E+000	10	1.0382315E-002	1.5043447E-003	0	6.389487864200621E-005	1.4486201E-001	3.0886722E-003	1.4489493E-001	1.2214457E+000	6.9526343E+002	3.2608658E+004	3.2616070E+004	-8.8778557E+001	0.0000000E+000	0.0000000E+000	0.0000000E+000	8.8778557E+001	0.0000000E+000	0.0000000E+000	0.0000000E+000	-8.8778557E+001	0.0000000E+000	0.0000000E+000	0.0000000E+000	-1.2214457E+000	0.0000000E+000	0.0000000E+000	0.0000000E+000	1.2214457E+000	4.6901062E+001	8.8778557E+001	1.568142291527081E-006
4.8076920E+002	6.9113317E+000	2.0478553E-001	6.9143648E+000	-1.6972004E+000	2.103870121351938E+002	4.4954649E-001	1.9298198E-002	1.6165317E+003	1.4180063E+000	1.000000000000000E+000	10	1.0407424E-002	1.5051886E-003	0	6.548143312395809E-005	1.4456299E-001	4.2834594E-003	1.4462644E-001	1.6972004E+000	1.4180035E+003	4.7856469E+004	4.7877473E+004	-8.8302803E+001	0.0000000E+000	0.0000000E+000	0.0000000E+000	8.8302803E+001	0.0000000E+000	0.0000000E+000	0.0000000E+000	-8.8302803E+001	0.0000000E+000	0.0000000E+000	0.0000000E+000	-1.6972004E+000	0.0000000E+000	0.0000000E+000	0.0000000E+000	1.6972004E+000	3.3749123E+001	8.8302803E+001	1.586554481951884E-006
3.2677771E+002	6.9213915E+000	2.9108396E-001	6.9275098E+000	-2.4081950E+000	2.108502419439355E+002	4.4954911E-001	1.8155247E-002	1.6732061E+003	2.9541442E+000	1.000000000000000E+000	10	1.0416771E-002	1.5036819E-003	0	6.769185528165771E-005	1.4422452E-001	6.0654636E-003	1.4435202E-001	2.4081950E+000	2.9541453E+003	7.0243617E+004	7.0305711E+004	-8.7591805E+001	0.0000000E+000	0.0000000E+000	0.0000000E+000	8.7591805E+001	0.0000000E+000	0.0000000E+000	0.0000000E+000	-8.7591805E+001	0.0000000E+000	0.0000000E+000	0.0000000E+000	-2.4081950E+000	0.0000000E+000	0.0000000E+000	0.0000000E+000	2.4081950E+000	2.3777990E+001	8.7591805E+001	2.210422157699620E-006
2.2206076E+002	6.9362316E+000	4.1581848E-001	6.9486842E+000	-3.4307051E+000	2.113115006058215E+002	4.4954911E-001	1.5043363E-002	1.7236318E+003	6.1722989E+000	1.000000000000000E+000	10	1.0425929E-002	1.5004177E-003	0	6.951051138059766E-005	1.4365423E-001	8.6118933E-003	1.4391214E-001	3.4307051E+000	6.1722935E+003	1.0295957E+005	1.0314441E+005	-8.6569298E+001	0.0000000E+000	0.0000000E+000	0.0000000E+000	8.6569298E+001	0.0000000E+000	0.0000000E+000	0.0000000E+000	-8.6569298E+001	0.0000000E+000	0.0000000E+000	0.0000000E+000	-3.4307051E+000	0.0000000E+000	0.0000000E+000	0.0000000E+000	3.4307051E+000	1.6680912E+001	8.6569298E+001	1.818656098939950E-006
1.5101485E+002	6.9536204E+000	5.9579885E-001	6.9790983E+000	-4.8972459E+000	2.117730198810605E+002	4.4954792E-001	1.7607078E-002	1.7688901E+003	1.2891442E+001	1.000000000000000E+000	10	1.0424899E-002	1.4937315E-003	0	7.200789467180019E-005	1.4276192E-001	1.2232101E-002	1.4328499E-001	4.8972459E+000	1.2891445E+004	1.5045714E+005	1.5100841E+005	-8.5102753E+001	0.0000000E+000	0.0000000E+000	0.0000000E+000	8.5102753E+001	0.0000000E+000	0.0000000E+000	0.0000000E+000	-8.5102753E+001	0.0000000E+000	0.0000000E+000	0.0000000E+000	-4.8972459E+000	0.0000000E+000	0.0000000E+000	0.0000000E+000	4.8972459E+000	1.1671087E+001	8.5102753E+001	2.497383291202529E-006
1.0266736E+002	6.9757018E+000	8.5350591E-001	7.0277228E+000	-6.9757028E+000	2.122478761169623E+002	4.4954497E-001	1.9870605E-002	1.8162733E+003	2.6789524E+001	1.000000000000000E+000	10	1.0428777E-002	1.4839482E-003	0	7.564714947307948E-005	1.4124031E-001	1.7281335E-002	1.4229360E-001	6.9757028E+000	2.6789516E+004	2.1895073E+005	2.2058355E+005	-8.3024300E+001	0.0000000E+000	0.0000000E+000	0.0000000E+000	8.3024300E+001	0.0000000E+000	0.0000000E+000	0.0000000E+000	-8.3024300E+001	0.0000000E+000	0.0000000E+000	0.0000000E+000	-6.9757028E+000	0.0000000E+000	0.0000000E+000	0.0000000E+000	6.9757028E+000	8.1729975E+000	8.3024300E+001	3.639254801279289E-006
6.9754463E+001	7.0117345E+000	1.2250351E+000	7.1179442E+000	-9.9102421E+000	2.127150390724564E+002	4.4954634E-001	1.7972523E-002	1.8625143E+003	5.5168034E+001	1.000000000000000E+000	10	1.0435210E-002	1.4660426E-003	0	7.878975293873292E-005	1.3839369E-001	2.4179058E-002	1.4049000E-001	9.9102421E+000	5.5168031E+004	3.1576534E+005	3.2054838E+005	-8.0089760E+001	0.0000000E+000	0.0000000E+000	0.0000000E+000	8.0089760E+001	0.0000000E+000	0.0000000E+000	0.0000000E+000	-8.0089760E+001	0.0000000E+000	0.0000000E+000	0.0000000E+000	-9.9102421E+000	0.0000000E+000	0.0000000E+000	0.0000000E+000	9.9102421E+000	5.7237010E+000	8.0089760E+001	3.142603465653443E-006
4.7444328E+001	7.0578775E+000	1.7577493E+000	7.2734666E+000	-1.3984887E+001	2.131590333602071E+002	4.4953972E-001	1.4756228E-002	1.9084418E+003	1.1145765E+002	1.000000000000000E+000	10	1.0436933E-002	1.4349323E-003	0	8.208655591163552E-005	1.3341087E-001	3.3225693E-002	1.3748603E-001	1.3984887E+001	1.1145763E+005	4.4753503E+005	4.6120538E+005	-7.6015114E+001	0.0000000E+000	0.0000000E+000	0.0000000E+000	7.6015114E+001	0.0000000E+000	0.0000000E+000	0.0000000E+000	-7.6015114E+001	0.0000000E+000	0.0000000E+000	0.0000000E+000	-1.3984887E+001	0.0000000E+000	0.0000000E+000	0.0000000E+000	1.3984887E+001	4.0152926E+000	7.6015114E+001	3.296802972902596E-006
3.2238655E+001	7.1079011E+000	2.5172901E+000	7.5404911E+000	-1.9501793E+001	2.135964555410173E+002	4.4953561E-001	1.6027827E-002	1.9611461E+003	2.1856329E+002	1.000000000000000E+000	10	1.0436398E-002	1.3840476E-003	0	8.320111016237772E-005	1.2500924E-001	4.4272494E-002	1.3261735E-001	1.9501793E+001	2.1856328E+005	6.1714231E+005	6.5470188E+005	-7.0498207E+001	0.0000000E+000	0.0000000E+000	0.0000000E+000	7.0498207E+001	0.0000000E+000	0.0000000E+000	0.0000000E+000	-7.0498207E+001	0.0000000E+000	0.0000000E+000	0.0000000E+000	-1.9501793E+001	0.0000000E+000	0.0000000E+000	0.0000000E+000	1.9501793E+001	2.8236320E+000	7.0498207E+001	1.114554250742202E-006
