EC-Lab ASCII FILE
Nb header lines : 63                          

Potentio Electrochemical Impedance Spectroscopy

Run on channel : 2 (SN 69290)
User : 
CE vs. WE compliance from -10 V to 10 V
Electrode connection : standard
Potential control : Ewe
Ewe ctrl range : min = -1.00 V, max = 1.00 V
Safety Limits :
	Do not start on E overload
Acquisition started on : 11/12/2025 15:15:43.590
Loaded Setting File :  C:\Users\User\Documents\EC-Lab\Data\Yatsuzuka\20251112_2-148_alpha_reproducibility\20251112_2-148_002_alpha_reproducibility_2_K1.mps
Saved on :
	File : 20251112_2-148_002_alpha_reproducibility_2_Na2_02_PEIS_C02.mpr
	Directory : C:\Users\User\Documents\EC-Lab\Data\Yatsuzuka\20251112_2-148_alpha_reproducibility\
	Host : 192.109.209.127
Device : SP-150e (SN .003883)
Address : 192.109.209.128
EC-LAB for windows v11.52 (software)
Internet server v11.52 (firmware)
Command interpretor v11.50 (firmware)
Electrode material : 
Initial state : 
Electrolyte : 
Comments : 
Electrode surface area : 0.001 cm2
Characteristic mass : 0.001 g
Equivalent Weight : 0.000 g/eq.
Density : 0.000 g/cm3
Volume (V) : 0.001 cm3
Cycle Definition : Charge/Discharge alternance
Mode                Single sine         
E (V)               0.4500              
vs.                 Ref                 
tE (h:m:s)          0:00:0.0000         
record              0                   
dI                  0.000               
unit dI             mA                  
dt (s)              0.000               
fi                  500.000             
unit fi             kHz                 
ff                  1.000               
unit ff             Hz                  
Nd                  6                   
Points              per decade          
spacing             Logarithmic         
Va (mV)             10.0                
pw                  0.10                
Na                  2                   
corr                0                   
E range min (V)     -1.000              
E range max (V)     1.000               
I Range             Auto                
Bandwidth           5                   
nc cycles           0                   
goto Ns'            0                   
nr cycles           0                   
inc. cycle          0                   

freq/Hz	Re(Z)/Ohm	-Im(Z)/Ohm	|Z|/Ohm	Phase(Z)/deg	time/s	<Ewe>/V	<I>/mA	Cs/uF	Cp/uF	cycle number	I Range	|Ewe|/V	|I|/A	Ns	(Q-Qo)/mA.h	Re(Y)/Ohm-1	Im(Y)/Ohm-1	|Y|/Ohm-1	Phase(Y)/deg	Re(C)/nF	Im(C)/nF	|C|/nF	Phase(C)/deg	Re(M)	Im(M)	|M|	Phase(M)/deg	Re(Permittivity)	Im(Permittivity)	|Permittivity|	Phase(Permittivity)/deg	Re(Resistivity)/Ohm.cm	Im(Resistivity)/Ohm.cm	|Resistivity|/Ohm.cm	Phase(Resistivity)/deg	Re(Conductivity)/mS/cm	Im(Conductivity)/mS/cm	|Conductivity|/mS/cm	Phase(Conductivity)/deg	Tan(Delta)	Loss Angle(Delta)/deg	dq/mA.h	Pwe/W	Rwe/Ohm	
5.0001856E+005	1.4757713E+001	-3.8095505E+000	1.5241482E+001	1.4474329E+001	2.016140833984973E+002	4.4979456E-001	2.1973753E-002	-8.3552659E-002	-5.2197939E-003	1.000000000000000E+000	10	4.6130856E-003	3.0266648E-004	0	3.288222267943072E-005	6.3527927E-002	-1.6399074E-002	6.5610416E-002	-1.4474329E+001	-5.2197938E+000	2.0220818E+001	2.0883671E+001	-1.0447433E+002	0.0000000E+000	0.0000000E+000	0.0000000E+000	1.0447433E+002	0.0000000E+000	0.0000000E+000	0.0000000E+000	-1.0447433E+002	0.0000000E+000	0.0000000E+000	0.0000000E+000	1.4474329E+001	0.0000000E+000	0.0000000E+000	0.0000000E+000	-1.4474329E+001	3.8738725E+000	7.5525673E+001	3.288222267943072E-005	9.8836745E-006	2.0469629E+004
3.3989941E+005	1.0208852E+001	-2.0453179E+000	1.0411723E+001	1.1329076E+001	2.020370672852878E+002	4.4969711E-001	2.1630691E-002	-2.2893326E-001	-8.8345679E-003	1.000000000000000E+000	10	7.1189539E-003	6.8374403E-004	0	3.544316693085582E-005	9.4174147E-002	-1.8867554E-002	9.6045583E-002	-1.1329076E+001	-8.8345699E+000	4.4096222E+001	4.4972507E+001	-1.0132908E+002	0.0000000E+000	0.0000000E+000	0.0000000E+000	1.0132908E+002	0.0000000E+000	0.0000000E+000	0.0000000E+000	-1.0132908E+002	0.0000000E+000	0.0000000E+000	0.0000000E+000	1.1329076E+001	0.0000000E+000	0.0000000E+000	0.0000000E+000	-1.1329076E+001	4.9913278E+000	7.8670921E+001	2.560944251425100E-006	9.7272596E-006	2.0789770E+004
2.3106258E+005	8.6949215E+000	-1.0129521E+000	8.7537270E+000	6.6449628E+000	2.024590840786841E+002	4.4956082E-001	2.0918453E-002	-6.7998856E-001	-9.1052828E-003	1.000000000000000E+000	10	1.0098783E-002	1.1536552E-003	0	3.717345818540586E-005	1.1346964E-001	-1.3219131E-002	1.1423706E-001	-6.6449628E+000	-9.1052866E+000	7.8157410E+001	7.8686005E+001	-9.6644966E+001	0.0000000E+000	0.0000000E+000	0.0000000E+000	9.6644966E+001	0.0000000E+000	0.0000000E+000	0.0000000E+000	-9.6644966E+001	0.0000000E+000	0.0000000E+000	0.0000000E+000	6.6449628E+000	0.0000000E+000	0.0000000E+000	0.0000000E+000	-6.6449628E+000	8.5837440E+000	8.3355034E+001	1.730291254550038E-006	9.4041170E-006	2.1491111E+004
1.5707578E+005	8.2196922E+000	-4.3750697E-001	8.2313271E+000	3.0467894E+000	2.028810772453580E+002	4.4953367E-001	2.1069486E-002	-2.3159328E+000	-6.5426873E-003	1.000000000000000E+000	10	1.0896844E-002	1.3238259E-003	0	3.600313847576682E-005	1.2131537E-001	-6.4572152E-003	1.2148710E-001	-3.0467894E+000	-6.5426908E+000	1.2292117E+002	1.2309518E+002	-9.3046791E+001	0.0000000E+000	0.0000000E+000	0.0000000E+000	9.3046791E+001	0.0000000E+000	0.0000000E+000	0.0000000E+000	-9.3046791E+001	0.0000000E+000	0.0000000E+000	0.0000000E+000	3.0467894E+000	0.0000000E+000	0.0000000E+000	0.0000000E+000	-3.0467894E+000	1.8787569E+001	8.6953209E+001	-1.170319709639043E-006	9.4714433E-006	2.1335770E+004
1.0678630E+005	8.1261435E+000	-1.6274095E-001	8.1277733E+000	1.1472998E+000	2.033030686520651E+002	4.4954482E-001	2.0413177E-002	-9.1581507E+000	-3.6716249E-003	1.000000000000000E+000	10	1.0831172E-002	1.3326125E-003	0	3.893589723092090E-005	1.2301026E-001	-2.4635061E-003	1.2303492E-001	-1.1472998E+000	-3.6716275E+000	1.8333524E+002	1.8337199E+002	-9.1147301E+001	0.0000000E+000	0.0000000E+000	0.0000000E+000	9.1147301E+001	0.0000000E+000	0.0000000E+000	0.0000000E+000	-9.1147301E+001	0.0000000E+000	0.0000000E+000	0.0000000E+000	1.1472998E+000	0.0000000E+000	0.0000000E+000	0.0000000E+000	-1.1472998E+000	4.9932999E+001	8.8852699E+001	2.932758755154083E-006	9.1766378E-006	2.2022285E+004
7.2595008E+004	8.1269484E+000	-5.1252469E-002	8.1271095E+000	3.6133012E-001	2.037250750454405E+002	4.4954208E-001	1.9736355E-002	-4.2775845E+001	-1.7012022E-003	1.000000000000000E+000	10	1.0695336E-002	1.3160073E-003	0	4.358003952731896E-005	1.2304253E-001	-7.7596575E-004	1.2304498E-001	-3.6133012E-001	-1.7011927E+000	2.6975446E+002	2.6975983E+002	-9.0361328E+001	0.0000000E+000	0.0000000E+000	0.0000000E+000	9.0361328E+001	0.0000000E+000	0.0000000E+000	0.0000000E+000	-9.0361328E+001	0.0000000E+000	0.0000000E+000	0.0000000E+000	3.6133012E-001	0.0000000E+000	0.0000000E+000	0.0000000E+000	-3.6133012E-001	1.5856696E+002	8.9638672E+001	4.644142296398058E-006	8.8723218E-006	2.2777361E+004
4.9352359E+004	8.1279211E+000	-4.3807464E-004	8.1279211E+000	3.0880992E-003	2.041470681855135E+002	4.4955835E-001	2.0051457E-002	-7.3614619E+003	-2.1384611E-005	1.000000000000000E+000	10	1.0574810E-002	1.3010473E-003	0	4.592835660807840E-005	1.2303269E-001	-6.6311541E-006	1.2303269E-001	-3.0880992E-003	-2.1397114E-002	3.9676443E+002	3.9676443E+002	-9.0003090E+001	0.0000000E+000	0.0000000E+000	0.0000000E+000	9.0003090E+001	0.0000000E+000	0.0000000E+000	0.0000000E+000	-9.0003090E+001	0.0000000E+000	0.0000000E+000	0.0000000E+000	3.0880992E-003	0.0000000E+000	0.0000000E+000	0.0000000E+000	-3.0880992E-003	1.8553736E+004	8.9996910E+001	2.348317080759441E-006	9.0143003E-006	2.2420234E+004
3.3551066E+004	8.1486578E+000	2.0318424E-002	8.1486835E+000	-1.4286493E-001	2.045690864188509E+002	4.4956255E-001	2.0213669E-002	2.3346609E+002	1.4515398E-003	1.000000000000000E+000	10	1.0534457E-002	1.2927802E-003	0	5.030549797331655E-005	1.2271883E-001	3.0599552E-004	1.2271921E-001	1.4286493E-001	1.4515713E+000	5.8213672E+002	5.8213855E+002	-8.9857132E+001	0.0000000E+000	0.0000000E+000	0.0000000E+000	8.9857132E+001	0.0000000E+000	0.0000000E+000	0.0000000E+000	-8.9857132E+001	0.0000000E+000	0.0000000E+000	0.0000000E+000	-1.4286493E-001	0.0000000E+000	0.0000000E+000	0.0000000E+000	1.4286493E-001	4.0104773E+002	8.9857132E+001	4.377141365238155E-006	9.0873091E-006	2.2240521E+004
2.2806563E+004	8.1564951E+000	2.8052075E-002	8.1565437E+000	-1.9705267E-001	2.049910746255919E+002	4.4955564E-001	2.0038409E-002	2.4876845E+002	2.9424762E-003	1.000000000000000E+000	10	1.0519554E-002	1.2897073E-003	0	5.332319787181526E-005	1.2260023E-001	4.2165056E-004	1.2260095E-001	1.9705267E-001	2.9424663E+000	8.5556213E+002	8.5556720E+002	-8.9802948E+001	0.0000000E+000	0.0000000E+000	0.0000000E+000	8.9802948E+001	0.0000000E+000	0.0000000E+000	0.0000000E+000	-8.9802948E+001	0.0000000E+000	0.0000000E+000	0.0000000E+000	-1.9705267E-001	0.0000000E+000	0.0000000E+000	0.0000000E+000	1.9705267E-001	2.9076263E+002	8.9802948E+001	3.017699898498704E-006	9.0083795E-006	2.2434697E+004
1.5504379E+004	8.1673174E+000	3.3959579E-002	8.1673880E+000	-2.3823358E-001	2.054130671789899E+002	4.4954509E-001	1.9773645E-002	3.0227585E+002	5.2259071E-003	1.000000000000000E+000	10	1.0462537E-002	1.2810139E-003	0	5.379207201246431E-005	1.2243710E-001	5.0909154E-004	1.2243816E-001	2.3823358E-001	5.2259483E+000	1.2568365E+003	1.2568474E+003	-8.9761765E+001	0.0000000E+000	0.0000000E+000	0.0000000E+000	8.9761765E+001	0.0000000E+000	0.0000000E+000	0.0000000E+000	-8.9761765E+001	0.0000000E+000	0.0000000E+000	0.0000000E+000	-2.3823358E-001	0.0000000E+000	0.0000000E+000	0.0000000E+000	2.3823358E-001	2.4050114E+002	8.9761765E+001	4.688741406490488E-007	8.8891447E-006	2.2734559E+004
1.0540381E+004	8.1751184E+000	3.9029565E-002	8.1752119E+000	-2.7353883E-001	2.058360682923958E+002	4.4955504E-001	1.9387690E-002	3.8687454E+002	8.8177854E-003	1.000000000000000E+000	10	1.0358234E-002	1.2670294E-003	0	5.571278908134910E-005	1.2231959E-001	5.8397691E-004	1.2232099E-001	2.7353883E-001	8.8177166E+000	1.8469702E+003	1.8469912E+003	-8.9726463E+001	0.0000000E+000	0.0000000E+000	0.0000000E+000	8.9726463E+001	0.0000000E+000	0.0000000E+000	0.0000000E+000	-8.9726463E+001	0.0000000E+000	0.0000000E+000	0.0000000E+000	-2.7353883E-001	0.0000000E+000	0.0000000E+000	0.0000000E+000	2.7353883E-001	2.0945964E+002	8.9726463E+001	1.920717068884795E-006	8.7158342E-006	2.3187652E+004
7.1637817E+003	8.1893358E+000	3.9414480E-002	8.1894302E+000	-2.7575693E-001	2.063606873573299E+002	4.4953501E-001	1.8904779E-002	5.6366620E+002	1.3056483E-002	1.000000000000000E+000	10	1.0212830E-002	1.2470746E-003	0	5.921101993277100E-005	1.2210720E-001	5.8769016E-004	1.2210862E-001	2.7575693E-001	1.3056479E+001	2.7128079E+003	2.7128394E+003	-8.9724243E+001	0.0000000E+000	0.0000000E+000	0.0000000E+000	8.9724243E+001	0.0000000E+000	0.0000000E+000	0.0000000E+000	-8.9724243E+001	0.0000000E+000	0.0000000E+000	0.0000000E+000	-2.7575693E-001	0.0000000E+000	0.0000000E+000	0.0000000E+000	2.7575693E-001	2.0777480E+002	8.9724243E+001	3.498230851421894E-006	8.4983603E-006	2.3778908E+004
4.8715591E+003	8.1909695E+000	4.1750696E-002	8.1910763E+000	-2.9204330E-001	2.070502724834441E+002	4.4954532E-001	1.8390171E-002	7.8250739E+002	2.0329839E-002	1.000000000000000E+000	10	1.0162175E-002	1.2406397E-003	0	6.324848757055588E-005	1.2208249E-001	6.2227418E-004	1.2208408E-001	2.9204330E-001	2.0329996E+001	3.9884626E+003	3.9885144E+003	-8.9707954E+001	0.0000000E+000	0.0000000E+000	0.0000000E+000	8.9707954E+001	0.0000000E+000	0.0000000E+000	0.0000000E+000	-8.9707954E+001	0.0000000E+000	0.0000000E+000	0.0000000E+000	-2.9204330E-001	0.0000000E+000	0.0000000E+000	0.0000000E+000	2.9204330E-001	1.9618762E+002	8.9707954E+001	4.037467637784889E-006	8.2672159E-006	2.4444869E+004
3.3110596E+003	8.1976023E+000	5.4475896E-002	8.1977835E+000	-3.8074464E-001	2.075152914922000E+002	4.4955021E-001	1.8626966E-002	8.8236603E+002	3.8964100E-002	1.000000000000000E+000	10	1.0895395E-002	1.3290659E-003	0	6.665088199146945E-005	1.2198150E-001	8.1060920E-004	1.2198419E-001	3.8074464E-001	3.8964134E+001	5.8633677E+003	5.8634971E+003	-8.9619255E+001	0.0000000E+000	0.0000000E+000	0.0000000E+000	8.9619255E+001	0.0000000E+000	0.0000000E+000	0.0000000E+000	-8.9619255E+001	0.0000000E+000	0.0000000E+000	0.0000000E+000	-3.8074464E-001	0.0000000E+000	0.0000000E+000	0.0000000E+000	3.8074464E-001	1.5048128E+002	8.9619255E+001	3.402394420913565E-006	8.3737559E-006	2.4134377E+004
2.2507205E+003	8.1974611E+000	6.0523108E-002	8.1976843E+000	-4.2301580E-001	2.082012828847801E+002	4.4954416E-001	1.8147783E-002	1.1683618E+003	6.3685037E-002	1.000000000000000E+000	10	1.0109406E-002	1.2332026E-003	0	6.825497995316335E-005	1.2198234E-001	9.0061425E-004	1.2198567E-001	4.2301580E-001	6.3685581E+001	8.6257236E+003	8.6259590E+003	-8.9576981E+001	0.0000000E+000	0.0000000E+000	0.0000000E+000	8.9576981E+001	0.0000000E+000	0.0000000E+000	0.0000000E+000	-8.9576981E+001	0.0000000E+000	0.0000000E+000	0.0000000E+000	-4.2301580E-001	0.0000000E+000	0.0000000E+000	0.0000000E+000	4.2301580E-001	1.3544350E+002	8.9576981E+001	1.604097961693899E-006	8.1582302E-006	2.4771299E+004
1.5304901E+003	8.2112617E+000	8.3879851E-002	8.2116899E+000	-5.8526868E-001	2.086662674401960E+002	4.4954810E-001	1.7625721E-002	1.2397439E+003	1.2935469E-001	1.000000000000000E+000	10	1.0308180E-002	1.2553056E-003	0	7.162517001951346E-005	1.2177126E-001	1.2439203E-003	1.2177762E-001	5.8526868E-001	1.2935413E+002	1.2662936E+004	1.2663597E+004	-8.9414734E+001	0.0000000E+000	0.0000000E+000	0.0000000E+000	8.9414734E+001	0.0000000E+000	0.0000000E+000	0.0000000E+000	-8.9414734E+001	0.0000000E+000	0.0000000E+000	0.0000000E+000	-5.8526868E-001	0.0000000E+000	0.0000000E+000	0.0000000E+000	5.8526868E-001	9.7893135E+001	8.9414734E+001	3.370190066350113E-006	7.9236097E-006	2.5505230E+004
1.0403328E+003	8.2174520E+000	1.0707831E-001	8.2181501E+000	-7.4655592E-001	2.091313035689527E+002	4.4955152E-001	1.7862514E-002	1.4287175E+003	2.4254996E-001	1.000000000000000E+000	10	1.0404685E-002	1.2660616E-003	0	7.301065569413872E-005	1.2167156E-001	1.5854529E-003	1.2168188E-001	7.4655592E-001	2.4255101E+002	1.8613881E+004	1.8615461E+004	-8.9253441E+001	0.0000000E+000	0.0000000E+000	0.0000000E+000	8.9253441E+001	0.0000000E+000	0.0000000E+000	0.0000000E+000	-8.9253441E+001	0.0000000E+000	0.0000000E+000	0.0000000E+000	-7.4655592E-001	0.0000000E+000	0.0000000E+000	0.0000000E+000	7.4655592E-001	7.6742455E+001	8.9253441E+001	1.385485674625260E-006	8.0301206E-006	2.5167316E+004
7.0703625E+002	8.2200747E+000	1.4372042E-001	8.2213306E+000	-1.0016618E+000	2.095957962043030E+002	4.4954619E-001	1.7280784E-002	1.5662458E+003	4.7864407E-001	1.000000000000000E+000	10	1.0447698E-002	1.2708037E-003	0	7.602763557448311E-005	1.2161622E-001	2.1263475E-003	1.2163481E-001	1.0016618E+000	4.7864478E+002	2.7376000E+004	2.7380184E+004	-8.8998337E+001	0.0000000E+000	0.0000000E+000	0.0000000E+000	8.8998337E+001	0.0000000E+000	0.0000000E+000	0.0000000E+000	-8.8998337E+001	0.0000000E+000	0.0000000E+000	0.0000000E+000	-1.0016618E+000	0.0000000E+000	0.0000000E+000	0.0000000E+000	1.0016618E+000	5.7194897E+001	8.8998337E+001	3.016979880344386E-006	7.7685099E-006	2.6014225E+004
4.8076920E+002	8.2292366E+000	2.0112982E-001	8.2316942E+000	-1.4000808E+000	2.100610200930532E+002	4.4953907E-001	1.6721427E-002	1.6459136E+003	9.8261076E-001	1.000000000000000E+000	10	1.0478089E-002	1.2728957E-003	0	7.861417234517608E-005	1.2144540E-001	2.9682331E-003	1.2148167E-001	1.4000808E+000	9.8260870E+002	4.0203566E+004	4.0215574E+004	-8.8599922E+001	0.0000000E+000	0.0000000E+000	0.0000000E+000	8.8599922E+001	0.0000000E+000	0.0000000E+000	0.0000000E+000	-8.8599922E+001	0.0000000E+000	0.0000000E+000	0.0000000E+000	-1.4000808E+000	0.0000000E+000	0.0000000E+000	0.0000000E+000	1.4000808E+000	4.0915051E+001	8.8599922E+001	2.586536770692976E-006	7.5169351E-006	2.6884012E+004
3.2677771E+002	8.2391987E+000	2.9046908E-001	8.2443171E+000	-2.0190995E+000	2.105242406484504E+002	4.4954222E-001	1.7709624E-002	1.6767482E+003	2.0814130E+000	1.000000000000000E+000	10	1.0492999E-002	1.2727554E-003	0	8.162766367804984E-005	1.2122037E-001	4.2735669E-003	1.2129568E-001	2.0190995E+000	2.0814097E+003	5.9039586E+004	5.9076266E+004	-8.7980904E+001	0.0000000E+000	0.0000000E+000	0.0000000E+000	8.7980904E+001	0.0000000E+000	0.0000000E+000	0.0000000E+000	-8.7980904E+001	0.0000000E+000	0.0000000E+000	0.0000000E+000	-2.0190995E+000	0.0000000E+000	0.0000000E+000	0.0000000E+000	2.0190995E+000	2.8365149E+001	8.7980904E+001	3.013491332873753E-006	7.9612237E-006	2.5384064E+004
2.2206076E+002	8.2548018E+000	4.1469094E-001	8.2652111E+000	-2.8759122E+000	2.109854929903377E+002	4.4954202E-001	1.7856920E-002	1.7283185E+003	4.3507581E+000	1.000000000000000E+000	10	1.0503815E-002	1.2708466E-003	0	8.259665538959154E-005	1.2083667E-001	6.0703908E-003	1.2098905E-001	2.8759122E+000	4.3507637E+003	8.6605820E+004	8.6715031E+004	-8.7124084E+001	0.0000000E+000	0.0000000E+000	0.0000000E+000	8.7124084E+001	0.0000000E+000	0.0000000E+000	0.0000000E+000	-8.7124084E+001	0.0000000E+000	0.0000000E+000	0.0000000E+000	-2.8759122E+000	0.0000000E+000	0.0000000E+000	0.0000000E+000	2.8759122E+000	1.9905912E+001	8.7124084E+001	9.689917115416984E-007	8.0274358E-006	2.5174666E+004
1.5101485E+002	8.2730427E+000	5.8590925E-001	8.2937641E+000	-4.0510092E+000	2.114470196255861E+002	4.4953048E-001	1.7172642E-002	1.7987472E+003	8.9769230E+000	1.000000000000000E+000	10	1.0511602E-002	1.2674103E-003	0	8.516865704574027E-005	1.2027127E-001	8.5177915E-003	1.2057251E-001	4.0510092E+000	8.9769248E+003	1.2675420E+005	1.2707169E+005	-8.5948990E+001	0.0000000E+000	0.0000000E+000	0.0000000E+000	8.5948990E+001	0.0000000E+000	0.0000000E+000	0.0000000E+000	-8.5948990E+001	0.0000000E+000	0.0000000E+000	0.0000000E+000	-4.0510092E+000	0.0000000E+000	0.0000000E+000	0.0000000E+000	4.0510092E+000	1.4120007E+001	8.5948990E+001	2.572001656148731E-006	7.7196264E-006	2.6177131E+004
1.0266736E+002	8.2986259E+000	8.2818878E-001	8.3398495E+000	-5.6991510E+000	2.119218949547649E+002	4.4955096E-001	1.7789798E-002	1.8717955E+003	1.8458679E+001	1.000000000000000E+000	10	1.0516951E-002	1.2610480E-003	0	8.717380247092741E-005	1.1931355E-001	1.1907290E-002	1.1990624E-001	5.6991510E+000	1.8458680E+004	1.8495988E+005	1.8587867E+005	-8.4300850E+001	0.0000000E+000	0.0000000E+000	0.0000000E+000	8.4300850E+001	0.0000000E+000	0.0000000E+000	0.0000000E+000	-8.4300850E+001	0.0000000E+000	0.0000000E+000	0.0000000E+000	-5.6991510E+000	0.0000000E+000	0.0000000E+000	0.0000000E+000	5.6991510E+000	1.0020210E+001	8.4300850E+001	2.005145425187143E-006	7.9974207E-006	2.5270156E+004
6.9754463E+001	8.3337631E+000	1.1908475E+000	8.4184160E+000	-8.1321907E+000	2.123890497769607E+002	4.4953656E-001	1.7120434E-002	1.9159844E+003	3.8339241E+001	1.000000000000000E+000	10	1.0524615E-002	1.2501894E-003	0	8.869459271842141E-005	1.1759271E-001	1.6803332E-002	1.1878719E-001	8.1321907E+000	3.8339227E+004	2.6830488E+005	2.7103025E+005	-8.1867813E+001	0.0000000E+000	0.0000000E+000	0.0000000E+000	8.1867813E+001	0.0000000E+000	0.0000000E+000	0.0000000E+000	-8.1867813E+001	0.0000000E+000	0.0000000E+000	0.0000000E+000	-8.1321907E+000	0.0000000E+000	0.0000000E+000	0.0000000E+000	8.1321907E+000	6.9981780E+000	8.1867813E+001	1.520790247494001E-006	7.6962606E-006	2.6257311E+004
