EC-Lab ASCII FILE
Nb header lines : 63                          

Potentio Electrochemical Impedance Spectroscopy

Run on channel : 2 (SN 69290)
User : 
CE vs. WE compliance from -10 V to 10 V
Electrode connection : standard
Potential control : Ewe
Ewe ctrl range : min = -1.00 V, max = 1.00 V
Safety Limits :
	Do not start on E overload
Acquisition started on : 11/12/2025 21:00:04.183
Loaded Setting File :  C:\Users\User\Documents\EC-Lab\Data\Yatsuzuka\20251112_2-148_alpha_reproducibility\20251112_2-148_002_alpha_reproducibility_2_K1.mps
Saved on :
	File : 20251112_2-148_006_gamma_reproducibility_2_Na2_r_02_PEIS_C02.mpr
	Directory : C:\Users\User\Documents\EC-Lab\Data\Yatsuzuka\20251112_2-148_alpha_reproducibility\
	Host : 192.109.209.127
Device : SP-150e (SN .003883)
Address : 192.109.209.128
EC-Lab for windows v11.52 (software)
Internet server v11.52 (firmware)
Command interpretor v11.50 (firmware)
Electrode material : 
Initial state : 
Electrolyte : 
Comments : 
Electrode surface area : 0.001 cm2
Characteristic mass : 0.001 g
Equivalent Weight : 0.000 g/eq.
Density : 0.000 g/cm3
Volume (V) : 0.001 cm3
Cycle Definition : Charge/Discharge alternance
Mode                Single sine         
E (V)               0.4500              
vs.                 Ref                 
tE (h:m:s)          0:00:0.0000         
record              0                   
dI                  0.000               
unit dI             mA                  
dt (s)              0.000               
fi                  500.000             
unit fi             kHz                 
ff                  1.000               
unit ff             Hz                  
Nd                  6                   
Points              per decade          
spacing             Logarithmic         
Va (mV)             10.0                
pw                  0.10                
Na                  2                   
corr                0                   
E range min (V)     -1.000              
E range max (V)     1.000               
I Range             Auto                
Bandwidth           5                   
nc cycles           0                   
goto Ns'            0                   
nr cycles           0                   
inc. cycle          0                   

freq/Hz	Re(Z)/Ohm	-Im(Z)/Ohm	|Z|/Ohm	Phase(Z)/deg	time/s	<Ewe>/V	<I>/mA	Cs/uF	Cp/uF	cycle number	I Range	|Ewe|/V	|I|/A	Ns	(Q-Qo)/mA.h	Re(Y)/Ohm-1	Im(Y)/Ohm-1	|Y|/Ohm-1	Phase(Y)/deg	Re(C)/nF	Im(C)/nF	|C|/nF	Phase(C)/deg	Re(M)	Im(M)	|M|	Phase(M)/deg	Re(Permittivity)	Im(Permittivity)	|Permittivity|	Phase(Permittivity)/deg	Re(Resistivity)/Ohm.cm	Im(Resistivity)/Ohm.cm	|Resistivity|/Ohm.cm	Phase(Resistivity)/deg	Re(Conductivity)/mS/cm	Im(Conductivity)/mS/cm	|Conductivity|/mS/cm	Phase(Conductivity)/deg	Tan(Delta)	Loss Angle(Delta)/deg	dq/mA.h	
5.0001856E+005	1.8348501E+001	-2.4837768E+000	1.8515848E+001	7.7090836E+000	2.019340863737307E+002	4.4977692E-001	1.7950119E-002	-1.2815084E-001	-2.3060003E-003	1.000000000000000E+000	10	6.0510947E-003	3.2680624E-004	0	2.963688875771145E-005	5.3519662E-002	-7.2447825E-003	5.4007787E-002	-7.7090836E+000	-2.3060002E+000	1.7035206E+001	1.7190575E+001	-9.7709084E+001	0.0000000E+000	0.0000000E+000	0.0000000E+000	9.7709084E+001	0.0000000E+000	0.0000000E+000	0.0000000E+000	-9.7709084E+001	0.0000000E+000	0.0000000E+000	0.0000000E+000	7.7090836E+000	0.0000000E+000	0.0000000E+000	0.0000000E+000	-7.7090836E+000	7.3873391E+000	8.2290916E+001	2.963688875771145E-005
3.3989941E+005	1.3447254E+001	-1.5859261E+000	1.3540451E+001	6.7262101E+000	2.022200844672770E+002	4.4967997E-001	1.8401342E-002	-2.9524788E-001	-4.0502925E-003	1.000000000000000E+000	10	1.0096768E-002	7.4567442E-004	0	3.167548587399263E-005	7.3344469E-002	-8.6500114E-003	7.3852785E-002	-6.7262101E+000	-4.0502934E+000	3.4342911E+001	3.4580925E+001	-9.6726212E+001	0.0000000E+000	0.0000000E+000	0.0000000E+000	9.6726212E+001	0.0000000E+000	0.0000000E+000	0.0000000E+000	-9.6726212E+001	0.0000000E+000	0.0000000E+000	0.0000000E+000	6.7262101E+000	0.0000000E+000	0.0000000E+000	0.0000000E+000	-6.7262101E+000	8.4791183E+000	8.3273788E+001	2.038597116281181E-006
2.3106258E+005	1.1652763E+001	-8.5919476E-001	1.1684396E+001	4.2169666E+000	2.026420904073311E+002	4.4954538E-001	1.9074444E-002	-8.0167603E-001	-4.3348055E-003	1.000000000000000E+000	10	1.0708902E-002	9.1651315E-004	0	3.503349660592600E-005	8.5352533E-002	-6.2933099E-003	8.5584231E-002	-4.2169666E+000	-4.3348041E+000	5.8790474E+001	5.8950066E+001	-9.4216965E+001	0.0000000E+000	0.0000000E+000	0.0000000E+000	9.4216965E+001	0.0000000E+000	0.0000000E+000	0.0000000E+000	-9.4216965E+001	0.0000000E+000	0.0000000E+000	0.0000000E+000	4.2169666E+000	0.0000000E+000	0.0000000E+000	0.0000000E+000	-4.2169666E+000	1.3562424E+001	8.5783035E+001	3.358010731933365E-006
1.5707578E+005	1.1026835E+001	-3.8041991E-001	1.1033396E+001	1.9758900E+000	2.032000919538696E+002	4.4955149E-001	1.9801607E-002	-2.6634691E+000	-3.1663268E-003	1.000000000000000E+000	10	1.0112122E-002	9.1650127E-004	0	3.809084715512452E-005	9.0580039E-002	-3.1249628E-003	9.0633929E-002	-1.9758900E+000	-3.1663287E+000	9.1779015E+001	9.1833618E+001	-9.1975891E+001	0.0000000E+000	0.0000000E+000	0.0000000E+000	9.1975891E+001	0.0000000E+000	0.0000000E+000	0.0000000E+000	-9.1975891E+001	0.0000000E+000	0.0000000E+000	0.0000000E+000	1.9758900E+000	0.0000000E+000	0.0000000E+000	0.0000000E+000	-1.9758900E+000	2.8985958E+001	8.8024109E+001	3.057350549198516E-006
1.0678630E+005	1.0848742E+001	-1.1957129E-001	1.0849401E+001	6.3146979E-001	2.036220737339027E+002	4.4954702E-001	1.9596510E-002	-1.2464581E+001	-1.5139794E-003	1.000000000000000E+000	10	1.0792449E-002	9.9475065E-004	0	3.886164158356971E-005	9.2165388E-002	-1.0158168E-003	9.2170984E-002	-6.3146979E-001	-1.5139793E+000	1.3736385E+002	1.3737219E+002	-9.0631470E+001	0.0000000E+000	0.0000000E+000	0.0000000E+000	9.0631470E+001	0.0000000E+000	0.0000000E+000	0.0000000E+000	-9.0631470E+001	0.0000000E+000	0.0000000E+000	0.0000000E+000	6.3146979E-001	0.0000000E+000	0.0000000E+000	0.0000000E+000	-6.3146979E-001	9.0730331E+001	8.9368530E+001	7.707944284451954E-007
7.2595008E+004	1.0810500E+001	2.4646618E-003	1.0810500E+001	-1.3062737E-002	2.040440748739202E+002	4.4954425E-001	1.9344799E-002	8.8952063E+002	4.6235884E-005	1.000000000000000E+000	10	1.0708173E-002	9.9053443E-004	0	4.184371236602177E-005	9.2502661E-002	2.1089476E-005	9.2502661E-002	1.3062737E-002	4.6231586E-002	2.0279984E+002	2.0279984E+002	-8.9986938E+001	0.0000000E+000	0.0000000E+000	0.0000000E+000	8.9986938E+001	0.0000000E+000	0.0000000E+000	0.0000000E+000	-8.9986938E+001	0.0000000E+000	0.0000000E+000	0.0000000E+000	-1.3062737E-002	0.0000000E+000	0.0000000E+000	0.0000000E+000	1.3062737E-002	4.3862002E+003	8.9986938E+001	2.982070782452056E-006
4.9352359E+004	1.0816730E+001	6.6441603E-002	1.0816935E+001	-3.5193405E-001	2.044670857473538E+002	4.4955394E-001	1.8750016E-002	4.8536907E+001	1.8312342E-003	1.000000000000000E+000	10	1.0608287E-002	9.8071096E-004	0	4.365352019807339E-005	9.2445888E-002	5.6784746E-004	9.2447631E-002	3.5193405E-001	1.8312463E+000	2.9812598E+002	2.9813159E+002	-8.9648064E+001	0.0000000E+000	0.0000000E+000	0.0000000E+000	8.9648064E+001	0.0000000E+000	0.0000000E+000	0.0000000E+000	-8.9648064E+001	0.0000000E+000	0.0000000E+000	0.0000000E+000	-3.5193405E-001	0.0000000E+000	0.0000000E+000	0.0000000E+000	3.5193405E-001	1.6280057E+002	8.9648064E+001	1.809807832051621E-006
3.3551066E+004	1.0835960E+001	1.1011749E-001	1.0836520E+001	-5.8223265E-001	2.048890772874147E+002	4.4956204E-001	1.8097434E-002	4.3078197E+001	4.4482625E-003	1.000000000000000E+000	10	1.0506771E-002	9.6957054E-004	0	4.733239905905490E-005	9.2275783E-002	9.3772740E-004	9.2280544E-002	5.8223265E-001	4.4482393E+000	4.3772516E+002	4.3774777E+002	-8.9417770E+001	0.0000000E+000	0.0000000E+000	0.0000000E+000	8.9417770E+001	0.0000000E+000	0.0000000E+000	0.0000000E+000	-8.9417770E+001	0.0000000E+000	0.0000000E+000	0.0000000E+000	-5.8223265E-001	0.0000000E+000	0.0000000E+000	0.0000000E+000	5.8223265E-001	9.8403625E+001	8.9417770E+001	3.678878860981516E-006
2.2806563E+004	1.0858249E+001	1.3120686E-001	1.0859041E+001	-6.9230628E-001	2.053110779474518E+002	4.4955570E-001	1.8309990E-002	5.3186790E+001	7.7648642E-003	1.000000000000000E+000	10	1.0416689E-002	9.5926417E-004	0	4.935150301849697E-005	9.2082441E-002	1.1126884E-003	9.2089161E-002	6.9230628E-001	7.7648668E+000	6.4259460E+002	6.4264154E+002	-8.9307693E+001	0.0000000E+000	0.0000000E+000	0.0000000E+000	8.9307693E+001	0.0000000E+000	0.0000000E+000	0.0000000E+000	-8.9307693E+001	0.0000000E+000	0.0000000E+000	0.0000000E+000	-6.9230628E-001	0.0000000E+000	0.0000000E+000	0.0000000E+000	6.9230628E-001	8.2756721E+001	8.9307693E+001	2.019103959442063E-006
1.5504379E+004	1.0892187E+001	1.5651684E-001	1.0893312E+001	-8.2326317E-001	2.057340790341987E+002	4.4955823E-001	1.8188797E-002	6.5585030E+001	1.3539636E-002	1.000000000000000E+000	10	1.0331644E-002	9.4843918E-004	0	5.008589418202064E-005	9.1789976E-002	1.3189891E-003	9.1799453E-002	8.2326317E-001	1.3539666E+001	9.4223883E+002	9.4233612E+002	-8.9176735E+001	0.0000000E+000	0.0000000E+000	0.0000000E+000	8.9176735E+001	0.0000000E+000	0.0000000E+000	0.0000000E+000	-8.9176735E+001	0.0000000E+000	0.0000000E+000	0.0000000E+000	-8.2326317E-001	0.0000000E+000	0.0000000E+000	0.0000000E+000	8.2326317E-001	6.9591156E+001	8.9176735E+001	7.343911635236675E-007
1.0540381E+004	1.0908442E+001	1.8383856E-001	1.0909990E+001	-9.6550703E-001	2.061560667875601E+002	4.4955939E-001	1.9063257E-002	8.2134804E+001	2.3321245E-002	1.000000000000000E+000	10	1.0174450E-002	9.3258108E-004	0	5.141118301610328E-005	9.1646090E-002	1.5444999E-003	9.1659106E-002	9.6550703E-001	2.3321255E+001	1.3838142E+003	1.3840107E+003	-8.9034492E+001	0.0000000E+000	0.0000000E+000	0.0000000E+000	8.9034492E+001	0.0000000E+000	0.0000000E+000	0.0000000E+000	-8.9034492E+001	0.0000000E+000	0.0000000E+000	0.0000000E+000	-9.6550703E-001	0.0000000E+000	0.0000000E+000	0.0000000E+000	9.6550703E-001	5.9337070E+001	8.9034492E+001	1.325288834082640E-006
7.1637817E+003	1.0933086E+001	2.1856649E-001	1.0935271E+001	-1.1452639E+000	2.066806868924905E+002	4.4953558E-001	1.7090594E-002	1.0164692E+002	4.0607125E-002	1.000000000000000E+000	10	1.0123719E-002	9.2578575E-004	0	5.464168342012130E-005	9.1428936E-002	1.8277823E-003	9.1447204E-002	1.1452639E+000	4.0607113E+001	2.0312408E+003	2.0316467E+003	-8.8854736E+001	0.0000000E+000	0.0000000E+000	0.0000000E+000	8.8854736E+001	0.0000000E+000	0.0000000E+000	0.0000000E+000	-8.8854736E+001	0.0000000E+000	0.0000000E+000	0.0000000E+000	-1.1452639E+000	0.0000000E+000	0.0000000E+000	0.0000000E+000	1.1452639E+000	5.0021786E+001	8.8854736E+001	3.230500404018028E-006
4.8715591E+003	1.0967080E+001	2.7861726E-001	1.0970618E+001	-1.4552790E+000	2.071482847281004E+002	4.4955906E-001	1.8686622E-002	1.1725845E+002	7.5630672E-002	1.000000000000000E+000	10	1.0683251E-002	9.7380573E-004	0	5.694842204865522E-005	9.1123164E-002	2.3149725E-003	9.1152564E-002	1.4552790E+000	7.5630547E+001	2.9770146E+003	2.9779751E+003	-8.8544724E+001	0.0000000E+000	0.0000000E+000	0.0000000E+000	8.8544724E+001	0.0000000E+000	0.0000000E+000	0.0000000E+000	-8.8544724E+001	0.0000000E+000	0.0000000E+000	0.0000000E+000	-1.4552790E+000	0.0000000E+000	0.0000000E+000	0.0000000E+000	1.4552790E+000	3.9362530E+001	8.8544724E+001	2.306738628533921E-006
3.3110596E+003	1.0990366E+001	3.6418232E-001	1.0996398E+001	-1.8978876E+000	2.076132763501810E+002	4.4956404E-001	1.8996134E-002	1.3198796E+002	1.4476751E-001	1.000000000000000E+000	10	1.0962611E-002	9.9692750E-004	0	5.849656645976494E-005	9.0888977E-002	3.0117433E-003	9.0938866E-002	1.8978876E+000	1.4476756E+002	4.3688223E+003	4.3712202E+003	-8.8102112E+001	0.0000000E+000	0.0000000E+000	0.0000000E+000	8.8102112E+001	0.0000000E+000	0.0000000E+000	0.0000000E+000	-8.8102112E+001	0.0000000E+000	0.0000000E+000	0.0000000E+000	-1.8978876E+000	0.0000000E+000	0.0000000E+000	0.0000000E+000	1.8978876E+000	3.0178198E+001	8.8102112E+001	1.548144411109711E-006
2.2507205E+003	1.1025124E+001	4.7808969E-001	1.1035484E+001	-2.4829991E+000	2.083002754228146E+002	4.4956580E-001	1.9003592E-002	1.4790717E+002	2.7760366E-001	1.000000000000000E+000	10	1.0127786E-002	9.1774727E-004	0	6.363462352536064E-005	9.0531699E-002	3.9257859E-003	9.0616778E-002	2.4829991E+000	2.7760394E+002	6.4017578E+003	6.4077739E+003	-8.7516998E+001	0.0000000E+000	0.0000000E+000	0.0000000E+000	8.7516998E+001	0.0000000E+000	0.0000000E+000	0.0000000E+000	-8.7516998E+001	0.0000000E+000	0.0000000E+000	0.0000000E+000	-2.4829991E+000	0.0000000E+000	0.0000000E+000	0.0000000E+000	2.4829991E+000	2.3060785E+001	8.7516998E+001	5.138057065595702E-006
1.5304901E+003	1.1053380E+001	6.5901774E-001	1.1073009E+001	-3.4120142E+000	2.087652673648990E+002	4.4956428E-001	1.9277677E-002	1.5779474E+002	5.5892748E-001	1.000000000000000E+000	10	1.0181886E-002	9.1952301E-004	0	6.574741734182114E-005	9.0149611E-002	5.3748437E-003	9.0309694E-002	3.4120142E+000	5.5892810E+002	9.3746152E+003	9.3912627E+003	-8.6587982E+001	0.0000000E+000	0.0000000E+000	0.0000000E+000	8.6587982E+001	0.0000000E+000	0.0000000E+000	0.0000000E+000	-8.6587982E+001	0.0000000E+000	0.0000000E+000	0.0000000E+000	-3.4120142E+000	0.0000000E+000	0.0000000E+000	0.0000000E+000	3.4120142E+000	1.6772507E+001	8.6587982E+001	2.112793816460505E-006
1.0403328E+003	1.1099317E+001	8.9004940E-001	1.1134946E+001	-4.5847135E+000	2.092303043469874E+002	4.4956362E-001	1.9108005E-002	1.7188333E+002	1.0982109E+000	1.000000000000000E+000	10	1.0203809E-002	9.1637712E-004	0	6.790606974530359E-005	8.9519992E-002	7.1785697E-003	8.9807354E-002	4.5847135E+000	1.0982117E+003	1.3695185E+004	1.3739146E+004	-8.5415283E+001	0.0000000E+000	0.0000000E+000	0.0000000E+000	8.5415283E+001	0.0000000E+000	0.0000000E+000	0.0000000E+000	-8.5415283E+001	0.0000000E+000	0.0000000E+000	0.0000000E+000	-4.5847135E+000	0.0000000E+000	0.0000000E+000	0.0000000E+000	4.5847135E+000	1.2470450E+001	8.5415283E+001	2.158652403482449E-006
7.0703625E+002	1.1158831E+001	1.2529864E+000	1.1228957E+001	-6.4067087E+000	2.096947828490083E+002	4.4956264E-001	1.8703403E-002	1.7965199E+002	2.2368968E+000	1.000000000000000E+000	10	1.0218187E-002	9.0998539E-004	0	7.020088790107508E-005	8.8499300E-002	9.9372799E-003	8.9055464E-002	6.4067087E+000	2.2368965E+003	1.9921328E+004	2.0046521E+004	-8.3593292E+001	0.0000000E+000	0.0000000E+000	0.0000000E+000	8.3593292E+001	0.0000000E+000	0.0000000E+000	0.0000000E+000	-8.3593292E+001	0.0000000E+000	0.0000000E+000	0.0000000E+000	-6.4067087E+000	0.0000000E+000	0.0000000E+000	0.0000000E+000	6.4067087E+000	8.9057875E+000	8.3593292E+001	2.294818155771486E-006
4.8076920E+002	1.1235657E+001	1.7587816E+000	1.1372479E+001	-8.8966389E+000	2.101600243910943E+002	4.4956189E-001	1.8802224E-002	1.8822252E+002	4.5017886E+000	1.000000000000000E+000	10	1.0229730E-002	8.9951622E-004	0	7.258985187297650E-005	8.6873665E-002	1.3598831E-002	8.7931573E-002	8.8966389E+000	4.5017871E+003	2.8758855E+004	2.9109068E+004	-8.1103363E+001	0.0000000E+000	0.0000000E+000	0.0000000E+000	8.1103363E+001	0.0000000E+000	0.0000000E+000	0.0000000E+000	-8.1103363E+001	0.0000000E+000	0.0000000E+000	0.0000000E+000	-8.8966389E+000	0.0000000E+000	0.0000000E+000	0.0000000E+000	8.8966389E+000	6.3883185E+000	8.1103363E+001	2.388963971901425E-006
3.2677771E+002	1.1310916E+001	2.5077991E+000	1.1585589E+001	-1.2501107E+001	2.106232538264849E+002	4.4956210E-001	1.8531868E-002	1.9421150E+002	9.0996399E+000	1.000000000000000E+000	10	1.0224607E-002	8.8252797E-004	0	7.452543920392095E-005	8.4267773E-002	1.8683424E-002	8.6314127E-002	1.2501107E+001	9.0996387E+003	4.1042066E+004	4.2038727E+004	-7.7498894E+001	0.0000000E+000	0.0000000E+000	0.0000000E+000	7.7498894E+001	0.0000000E+000	0.0000000E+000	0.0000000E+000	-7.7498894E+001	0.0000000E+000	0.0000000E+000	0.0000000E+000	-1.2501107E+001	0.0000000E+000	0.0000000E+000	0.0000000E+000	1.2501107E+001	4.5102959E+000	7.7498894E+001	1.935587330944446E-006
2.2206076E+002	1.1419265E+001	3.5447640E+000	1.1956796E+001	-1.7245369E+001	2.110844922216929E+002	4.4956279E-001	1.8490847E-002	2.0219061E+002	1.7770761E+001	1.000000000000000E+000	10	1.0227087E-002	8.5533678E-004	0	7.752016902005845E-005	7.9874575E-002	2.4794636E-002	8.3634451E-002	1.7245369E+001	1.7770760E+004	5.7247539E+004	5.9942313E+004	-7.2754631E+001	0.0000000E+000	0.0000000E+000	0.0000000E+000	7.2754631E+001	0.0000000E+000	0.0000000E+000	0.0000000E+000	-7.2754631E+001	0.0000000E+000	0.0000000E+000	0.0000000E+000	-1.7245369E+001	0.0000000E+000	0.0000000E+000	0.0000000E+000	1.7245369E+001	3.2214456E+000	7.2754631E+001	2.994729816137501E-006
1.5101485E+002	1.1556869E+001	5.0765357E+000	1.2622695E+001	-2.3714235E+001	2.115459910969512E+002	4.4955823E-001	1.8045226E-002	2.0760272E+002	3.3578690E+001	1.000000000000000E+000	10	1.0225530E-002	8.1009086E-004	0	7.942570102618871E-005	7.2533064E-002	3.1861287E-002	7.9222389E-002	2.3714235E+001	3.3578688E+004	7.6442781E+004	8.3492680E+004	-6.6285767E+001	0.0000000E+000	0.0000000E+000	0.0000000E+000	6.6285767E+001	0.0000000E+000	0.0000000E+000	0.0000000E+000	-6.6285767E+001	0.0000000E+000	0.0000000E+000	0.0000000E+000	-2.3714235E+001	0.0000000E+000	0.0000000E+000	0.0000000E+000	2.3714235E+001	2.2765267E+000	6.6285767E+001	1.905532006130260E-006
1.0266736E+002	1.1742850E+001	7.2947326E+000	1.3824169E+001	-3.1848810E+001	2.120209037328168E+002	4.4956750E-001	1.9068839E-002	2.1250949E+002	5.9172379E+001	1.000000000000000E+000	10	1.0222308E-002	7.3945191E-004	0	8.117258033570357E-005	6.1446257E-002	3.8170800E-002	7.2337076E-002	3.1848810E+001	5.9172379E+004	9.5254000E+004	1.1213695E+005	-5.8151192E+001	0.0000000E+000	0.0000000E+000	0.0000000E+000	5.8151192E+001	0.0000000E+000	0.0000000E+000	0.0000000E+000	-5.8151192E+001	0.0000000E+000	0.0000000E+000	0.0000000E+000	-3.1848810E+001	0.0000000E+000	0.0000000E+000	0.0000000E+000	3.1848810E+001	1.6097711E+000	5.8151192E+001	1.746879309514856E-006
6.9754463E+001	1.1994164E+001	1.0519641E+001	1.5953771E+001	-4.1252811E+001	2.124890574884048E+002	4.4956356E-001	1.8634409E-002	2.1689383E+002	9.4302315E+001	1.000000000000000E+000	10	1.0219804E-002	6.4058864E-004	0	8.324616123407719E-005	4.7124125E-002	4.1330840E-002	6.2681109E-002	4.1252811E+001	9.4302305E+004	1.0752053E+005	1.4301605E+005	-4.8747189E+001	0.0000000E+000	0.0000000E+000	0.0000000E+000	4.8747189E+001	0.0000000E+000	0.0000000E+000	0.0000000E+000	-4.8747189E+001	0.0000000E+000	0.0000000E+000	0.0000000E+000	-4.1252811E+001	0.0000000E+000	0.0000000E+000	0.0000000E+000	4.1252811E+001	1.1401685E+000	4.8747192E+001	2.073580898373625E-006
4.7444328E+001	1.2337550E+001	1.5141417E+001	1.9531452E+001	-5.0826115E+001	2.131780501078028E+002	4.4955233E-001	9.4065478E-004	2.2154877E+002	1.3314758E+002	1.000000000000000E+000	11	1.0249512E-002	5.2476960E-004	0	8.460282115765706E-005	3.2341477E-002	3.9691493E-002	5.1199470E-002	5.0826115E+001	1.3314756E+005	1.0849148E+005	1.7175178E+005	-3.9173885E+001	0.0000000E+000	0.0000000E+000	0.0000000E+000	3.9173885E+001	0.0000000E+000	0.0000000E+000	0.0000000E+000	-3.9173885E+001	0.0000000E+000	0.0000000E+000	0.0000000E+000	-5.0826115E+001	0.0000000E+000	0.0000000E+000	0.0000000E+000	5.0826115E+001	8.1482142E-001	3.9173889E+001	1.356659923579872E-006
3.2238655E+001	1.2835639E+001	2.1853271E+001	2.5344015E+001	-5.9571918E+001	2.136154708485847E+002	4.4954896E-001	5.1542663E-004	2.2590547E+002	1.6796115E+002	1.000000000000000E+000	11	1.0226473E-002	4.0350645E-004	0	8.449167179664113E-005	1.9983275E-002	3.4022450E-002	3.9457045E-002	5.9571918E+001	1.6796116E+005	9.8652906E+004	1.9479052E+005	-3.0428082E+001	0.0000000E+000	0.0000000E+000	0.0000000E+000	3.0428082E+001	0.0000000E+000	0.0000000E+000	0.0000000E+000	-3.0428082E+001	0.0000000E+000	0.0000000E+000	0.0000000E+000	-5.9571918E+001	0.0000000E+000	0.0000000E+000	0.0000000E+000	5.9571918E+001	5.8735549E-001	3.0428085E+001	-1.111493610159322E-007
