EC-Lab ASCII FILE
Nb header lines : 63                          

Potentio Electrochemical Impedance Spectroscopy

Run on channel : 1 (SN 66416)
User : 
CE vs. WE compliance from -10 V to 10 V
Electrode connection : standard
Potential control : Ewe
Ewe ctrl range : min = -1.00 V, max = 1.00 V
Safety Limits :
	Do not start on E overload
Acquisition started on : 05/14/2024 14:49:10.521
Loaded Setting File :  E:\20240328_2-129_K_Na_diff\20240401_2-128_CV_cycles_alpha_gamma\20240328_2-128_001_alpha_K-1.mps
Saved on :
	File : 20240514_2-139_kinetic_test_02_PEIS_C01.mpr
	Directory : C:\Users\HZ-7000\Documents\EC-Lab\Data\Yatsuzuka\20240514_2-139_kinetics_test\
	Host : 192.109.209.100
Device : SP-150e (SN .003466)
Address : 192.109.209.128
EC-Lab for windows v11.50 (software)
Internet server v11.50 (firmware)
Command interpretor v11.50 (firmware)
Electrode material : 
Initial state : 
Electrolyte : 
Comments : 
Electrode surface area : 0.001 cm2
Characteristic mass : 0.001 g
Equivalent Weight : 0.000 g/eq.
Density : 0.000 g/cm3
Volume (V) : 0.001 cm3
Cycle Definition : Charge/Discharge alternance
Mode                Single sine         
E (V)               0.4500              
vs.                 Ref                 
tE (h:m:s)          0:00:0.0000         
record              0                   
dI                  0.000               
unit dI             mA                  
dt (s)              0.000               
fi                  500.000             
unit fi             kHz                 
ff                  1.000               
unit ff             Hz                  
Nd                  6                   
Points              per decade          
spacing             Logarithmic         
Va (mV)             10.0                
pw                  0.10                
Na                  2                   
corr                0                   
E range min (V)     -1.000              
E range max (V)     1.000               
I Range             Auto                
Bandwidth           5                   
nc cycles           0                   
goto Ns'            0                   
nr cycles           0                   
inc. cycle          0                   

freq/Hz	Re(Z)/Ohm	-Im(Z)/Ohm	|Z|/Ohm	Phase(Z)/deg	time/s	<Ewe>/V	<I>/mA	Cs/uF	Cp/uF	cycle number	I Range	|Ewe|/V	|I|/A	Ns	(Q-Qo)/mA.h	Re(Y)/Ohm-1	Im(Y)/Ohm-1	|Y|/Ohm-1	Phase(Y)/deg	Re(C)/nF	Im(C)/nF	|C|/nF	Phase(C)/deg	Re(M)	Im(M)	|M|	Phase(M)/deg	Re(Permittivity)	Im(Permittivity)	|Permittivity|	Phase(Permittivity)/deg	Re(Resistivity)/Ohm.cm	Im(Resistivity)/Ohm.cm	|Resistivity|/Ohm.cm	Phase(Resistivity)/deg	Re(Conductivity)/mS/cm	Im(Conductivity)/mS/cm	|Conductivity|/mS/cm	Phase(Conductivity)/deg	Tan(Delta)	Loss Angle(Delta)/deg	dq/mA.h	
5.0001856E+005	2.7751379E+001	-2.1702240E+000	2.7836107E+001	4.4715662E+000	2.008798821106757E+002	4.4965184E-001	4.5119438E-001	-1.4666601E-001	-8.9150044E-004	1.000000000000000E+000	10	1.1519371E-002	4.1382835E-004	0	4.839703262388454E-004	3.5815217E-002	-2.8008355E-003	3.5924565E-002	-4.4715662E+000	-8.9150029E-001	1.1399914E+001	1.1434719E+001	-9.4471565E+001	0.0000000E+000	0.0000000E+000	0.0000000E+000	9.4471565E+001	0.0000000E+000	0.0000000E+000	0.0000000E+000	-9.4471565E+001	0.0000000E+000	0.0000000E+000	0.0000000E+000	4.4715662E+000	0.0000000E+000	0.0000000E+000	0.0000000E+000	-4.4715662E+000	1.2787334E+001	8.5528435E+001	4.839703262388454E-004
3.3989941E+005	1.7706860E+001	-3.7391706E+000	1.8097355E+001	1.1924009E+001	2.013018856774288E+002	4.4959432E-001	1.7701876E-001	-1.2522598E-001	-5.3458256E-003	1.000000000000000E+000	10	1.0627566E-002	5.8724417E-004	0	5.106434625209141E-004	5.4064393E-002	-1.1416818E-002	5.5256695E-002	-1.1924009E+001	-5.3458266E+000	2.5315182E+001	2.5873466E+001	-1.0192401E+002	0.0000000E+000	0.0000000E+000	0.0000000E+000	1.0192401E+002	0.0000000E+000	0.0000000E+000	0.0000000E+000	-1.0192401E+002	0.0000000E+000	0.0000000E+000	0.0000000E+000	1.1924009E+001	0.0000000E+000	0.0000000E+000	0.0000000E+000	-1.1924009E+001	4.7355046E+000	7.8075989E+001	2.667313628206870E-005
2.3106258E+005	1.4121985E+001	-2.3109956E+000	1.4309828E+001	9.2938032E+000	2.017248767374986E+002	4.4956085E-001	1.0839882E-001	-2.9805157E-001	-7.7735754E-003	1.000000000000000E+000	10	1.0840865E-002	7.5758179E-004	0	5.262801078645571E-004	6.8964712E-002	-1.1285746E-002	6.9882043E-002	-9.2938032E+000	-7.7735734E+000	4.7502613E+001	4.8134464E+001	-9.9293800E+001	0.0000000E+000	0.0000000E+000	0.0000000E+000	9.9293800E+001	0.0000000E+000	0.0000000E+000	0.0000000E+000	-9.9293800E+001	0.0000000E+000	0.0000000E+000	0.0000000E+000	9.2938032E+000	0.0000000E+000	0.0000000E+000	0.0000000E+000	-9.2938032E+000	6.1107798E+000	8.0706200E+001	1.563664534364297E-005
1.5707578E+005	1.3022669E+001	-1.2271451E+000	1.3080359E+001	5.3831692E+000	2.022838882840442E+002	4.4956508E-001	8.0363415E-002	-8.2568616E-001	-7.2672069E-003	1.000000000000000E+000	10	1.0103751E-002	7.7243685E-004	0	5.408948645734538E-004	7.6113321E-002	-7.1722697E-003	7.6450504E-002	-5.3831692E+000	-7.2672095E+000	7.7120811E+001	7.7462456E+001	-9.5383171E+001	0.0000000E+000	0.0000000E+000	0.0000000E+000	9.5383171E+001	0.0000000E+000	0.0000000E+000	0.0000000E+000	-9.5383171E+001	0.0000000E+000	0.0000000E+000	0.0000000E+000	5.3831692E+000	0.0000000E+000	0.0000000E+000	0.0000000E+000	-5.3831692E+000	1.0612167E+001	8.4616829E+001	1.461475670889675E-005
1.0678630E+005	1.2718884E+001	-6.8709493E-001	1.2737430E+001	3.0922060E+000	2.027058732374426E+002	4.4956461E-001	6.9499321E-002	-2.1691415E+000	-6.3118660E-003	1.000000000000000E+000	10	1.0692296E-002	8.3943905E-004	0	5.504955012300860E-004	7.8394465E-002	-4.2349971E-003	7.8508772E-002	-3.0922060E+000	-6.3118720E+000	1.1683960E+002	1.1700996E+002	-9.3092209E+001	0.0000000E+000	0.0000000E+000	0.0000000E+000	9.3092209E+001	0.0000000E+000	0.0000000E+000	0.0000000E+000	-9.3092209E+001	0.0000000E+000	0.0000000E+000	0.0000000E+000	3.0922060E+000	0.0000000E+000	0.0000000E+000	0.0000000E+000	-3.0922060E+000	1.8511103E+001	8.6907791E+001	9.600636656632161E-006
7.2595008E+004	1.2613118E+001	-4.1500893E-001	1.2619944E+001	1.8845209E+000	2.031278820041189E+002	4.4956759E-001	6.2048223E-002	-5.2827001E+000	-5.7128919E-003	1.000000000000000E+000	10	1.0583918E-002	8.3866599E-004	0	5.574931783719350E-004	7.9196803E-002	-2.6058091E-003	7.9239659E-002	-1.8845209E+000	-5.7128940E+000	1.7362851E+002	1.7372247E+002	-9.1884521E+001	0.0000000E+000	0.0000000E+000	0.0000000E+000	9.1884521E+001	0.0000000E+000	0.0000000E+000	0.0000000E+000	-9.1884521E+001	0.0000000E+000	0.0000000E+000	0.0000000E+000	1.8845209E+000	0.0000000E+000	0.0000000E+000	0.0000000E+000	-1.8845209E+000	3.0392401E+001	8.8115479E+001	6.997677141849009E-006
4.9352359E+004	1.2562314E+001	-2.6909375E-001	1.2565196E+001	1.2271289E+000	2.035498730108229E+002	4.4957066E-001	5.7092015E-002	-1.1984187E+001	-5.4963864E-003	1.000000000000000E+000	10	1.0495270E-002	8.3526509E-004	0	5.635108122922247E-004	7.9566658E-002	-1.7043747E-003	7.9584911E-002	-1.2271289E+000	-5.4963789E+000	2.5659213E+002	2.5665100E+002	-9.1227127E+001	0.0000000E+000	0.0000000E+000	0.0000000E+000	9.1227127E+001	0.0000000E+000	0.0000000E+000	0.0000000E+000	-9.1227127E+001	0.0000000E+000	0.0000000E+000	0.0000000E+000	1.2271289E+000	0.0000000E+000	0.0000000E+000	0.0000000E+000	-1.2271289E+000	4.6683781E+001	8.8772873E+001	6.017633920289722E-006
3.3551066E+004	1.2533463E+001	-1.7781644E-001	1.2534725E+001	8.1281984E-001	2.039718762042321E+002	4.4957125E-001	5.4839704E-002	-2.6677303E+001	-5.3685387E-003	1.000000000000000E+000	10	1.0444293E-002	8.3322870E-004	0	5.714794223229788E-004	7.9770349E-002	-1.1317285E-003	7.9778373E-002	-8.1281984E-001	-5.3685422E+000	3.7840359E+002	3.7844168E+002	-9.0812820E+001	0.0000000E+000	0.0000000E+000	0.0000000E+000	9.0812820E+001	0.0000000E+000	0.0000000E+000	0.0000000E+000	-9.0812820E+001	0.0000000E+000	0.0000000E+000	0.0000000E+000	8.1281984E-001	0.0000000E+000	0.0000000E+000	0.0000000E+000	-8.1281984E-001	7.0485405E+001	8.9187180E+001	7.968610030754117E-006
2.2806563E+004	1.2519187E+001	-1.1126459E-001	1.2519681E+001	5.0920427E-001	2.043938699042628E+002	4.4957390E-001	5.4850899E-002	-6.2719604E+001	-4.9537118E-003	1.000000000000000E+000	10	1.0361039E-002	8.2758011E-004	0	5.771363723257026E-004	7.9871088E-002	-7.0985628E-004	7.9874240E-002	-5.0920427E-001	-4.9536800E+000	5.5737805E+002	5.5740009E+002	-9.0509201E+001	0.0000000E+000	0.0000000E+000	0.0000000E+000	9.0509201E+001	0.0000000E+000	0.0000000E+000	0.0000000E+000	-9.0509201E+001	0.0000000E+000	0.0000000E+000	0.0000000E+000	5.0920427E-001	0.0000000E+000	0.0000000E+000	0.0000000E+000	-5.0920427E-001	1.1251727E+002	8.9490799E+001	5.656950002723773E-006
1.5504379E+004	1.2500854E+001	-7.7073365E-002	1.2501091E+001	3.5324970E-001	2.048158894976223E+002	4.4958186E-001	5.4897550E-002	-1.3318687E+002	-5.0626076E-003	1.000000000000000E+000	10	1.0161730E-002	8.1286742E-004	0	5.849634928493890E-004	7.9991497E-002	-4.9318344E-004	7.9993017E-002	-3.5324970E-001	-5.0625916E+000	8.2112555E+002	8.2114117E+002	-9.0353249E+001	0.0000000E+000	0.0000000E+000	0.0000000E+000	9.0353249E+001	0.0000000E+000	0.0000000E+000	0.0000000E+000	-9.0353249E+001	0.0000000E+000	0.0000000E+000	0.0000000E+000	3.5324970E-001	0.0000000E+000	0.0000000E+000	0.0000000E+000	-3.5324970E-001	1.6219421E+002	8.9646751E+001	7.827120523686373E-006
1.0540381E+004	1.2506671E+001	-5.4752860E-002	1.2506791E+001	2.5083315E-001	2.052378899977048E+002	4.4957516E-001	5.4707214E-002	-2.7577637E+002	-5.2854121E-003	1.000000000000000E+000	10	1.0120155E-002	8.0917281E-004	0	5.908212105349327E-004	7.9955794E-002	-3.5003785E-004	7.9956561E-002	-2.5083315E-001	-5.2853794E+000	1.2072960E+003	1.2073076E+003	-9.0250832E+001	0.0000000E+000	0.0000000E+000	0.0000000E+000	9.0250832E+001	0.0000000E+000	0.0000000E+000	0.0000000E+000	-9.0250832E+001	0.0000000E+000	0.0000000E+000	0.0000000E+000	2.5083315E-001	0.0000000E+000	0.0000000E+000	0.0000000E+000	-2.5083315E-001	2.2842041E+002	8.9749168E+001	5.857717685543761E-006
7.1637817E+003	1.2507389E+001	-3.8055558E-002	1.2507447E+001	1.7433022E-001	2.055954722813767E+002	4.4957301E-001	5.0239913E-002	-5.8379407E+002	-5.4045375E-003	1.000000000000000E+000	10	1.0740373E-002	8.5871824E-004	0	5.963779561068384E-004	7.9951994E-002	-2.4326560E-004	7.9952367E-002	-1.7433022E-001	-5.4045815E+000	1.7762623E+003	1.7762705E+003	-9.0174332E+001	0.0000000E+000	0.0000000E+000	0.0000000E+000	9.0174332E+001	0.0000000E+000	0.0000000E+000	0.0000000E+000	-9.0174332E+001	0.0000000E+000	0.0000000E+000	0.0000000E+000	1.7433022E-001	0.0000000E+000	0.0000000E+000	0.0000000E+000	-1.7433022E-001	3.2866129E+002	8.9825668E+001	5.556745571905631E-006
4.8715591E+003	1.2502455E+001	-1.8880280E-002	1.2502469E+001	8.6523771E-002	2.062850662608107E+002	4.4959235E-001	4.9579330E-002	-1.7303889E+003	-3.9461083E-003	1.000000000000000E+000	10	1.0106734E-002	8.0837903E-004	0	6.041613218548203E-004	7.9984114E-002	-1.2078608E-004	7.9984203E-002	-8.6523771E-002	-3.9461627E+000	2.6130991E+003	2.6131021E+003	-9.0086525E+001	0.0000000E+000	0.0000000E+000	0.0000000E+000	9.0086525E+001	0.0000000E+000	0.0000000E+000	0.0000000E+000	-9.0086525E+001	0.0000000E+000	0.0000000E+000	0.0000000E+000	8.6523771E-002	0.0000000E+000	0.0000000E+000	0.0000000E+000	-8.6523771E-002	6.6219647E+002	8.9913475E+001	7.783365747981953E-006
3.3110596E+003	1.2502211E+001	-1.5358370E-002	1.2502220E+001	7.0385098E-002	2.067500698028962E+002	4.4959548E-001	4.9974930E-002	-3.1297383E+003	-4.7230655E-003	1.000000000000000E+000	10	1.0254141E-002	8.2018558E-004	0	6.104022725628811E-004	7.9985730E-002	-9.8258657E-005	7.9985790E-002	-7.0385098E-002	-4.7233133E+000	3.8447280E+003	3.8447310E+003	-9.0070389E+001	0.0000000E+000	0.0000000E+000	0.0000000E+000	9.0070389E+001	0.0000000E+000	0.0000000E+000	0.0000000E+000	-9.0070389E+001	0.0000000E+000	0.0000000E+000	0.0000000E+000	7.0385098E-002	0.0000000E+000	0.0000000E+000	0.0000000E+000	-7.0385098E-002	8.1403241E+002	8.9929611E+001	6.240950708060800E-006
2.2507205E+003	1.2505603E+001	-4.9162335E-003	1.2505604E+001	2.2524256E-002	2.072150777449860E+002	4.4959417E-001	4.8095826E-002	-1.4383551E+004	-2.2229094E-003	1.000000000000000E+000	10	1.0319035E-002	8.2515285E-004	0	6.170062014937446E-004	7.9964146E-002	-3.1435702E-005	7.9964153E-002	-2.2524256E-002	-2.2226839E+000	5.6544956E+003	5.6544961E+003	-9.0022522E+001	0.0000000E+000	0.0000000E+000	0.0000000E+000	9.0022522E+001	0.0000000E+000	0.0000000E+000	0.0000000E+000	-9.0022522E+001	0.0000000E+000	0.0000000E+000	0.0000000E+000	2.2524256E-002	0.0000000E+000	0.0000000E+000	0.0000000E+000	-2.2524256E-002	2.5437366E+003	8.9977478E+001	6.603928930863428E-006
1.5304901E+003	1.2500834E+001	-4.4578868E-003	1.2500834E+001	2.0432085E-002	2.076800736604055E+002	4.4959170E-001	4.7795396E-002	-2.3327092E+004	-2.9664747E-003	1.000000000000000E+000	10	1.0356564E-002	8.2846981E-004	0	6.232351873480333E-004	7.9994649E-002	-2.8526665E-005	7.9994656E-002	-2.0432085E-002	-2.9663923E+000	8.3186055E+003	8.3186064E+003	-9.0020432E+001	0.0000000E+000	0.0000000E+000	0.0000000E+000	9.0020432E+001	0.0000000E+000	0.0000000E+000	0.0000000E+000	-9.0020432E+001	0.0000000E+000	0.0000000E+000	0.0000000E+000	2.0432085E-002	0.0000000E+000	0.0000000E+000	0.0000000E+000	-2.0432085E-002	2.8042061E+003	8.9979568E+001	6.228985854288770E-006
1.0403328E+003	1.2508580E+001	1.3998819E-002	1.2508588E+001	-6.4121813E-002	2.081450669358237E+002	4.4958308E-001	4.6938881E-002	1.0928397E+004	1.3687454E-002	1.000000000000000E+000	10	1.0372999E-002	8.2927017E-004	0	6.286671706461444E-004	7.9945020E-002	8.9469453E-005	7.9945073E-002	6.4121813E-002	1.3688147E+001	1.2230361E+004	1.2230369E+004	-8.9935875E+001	0.0000000E+000	0.0000000E+000	0.0000000E+000	8.9935875E+001	0.0000000E+000	0.0000000E+000	0.0000000E+000	-8.9935875E+001	0.0000000E+000	0.0000000E+000	0.0000000E+000	-6.4121813E-002	0.0000000E+000	0.0000000E+000	0.0000000E+000	6.4121813E-002	8.9354541E+002	8.9935875E+001	5.431983298111089E-006
7.0703625E+002	1.2509325E+001	1.7220989E-002	1.2509336E+001	-7.8876302E-002	2.086095625311573E+002	4.4958812E-001	4.5559879E-002	1.3071347E+004	2.4772394E-002	1.000000000000000E+000	10	1.0384233E-002	8.3011860E-004	0	6.345573680580500E-004	7.9940215E-002	1.1004986E-004	7.9940289E-002	7.8876302E-002	2.4771254E+001	1.7994664E+004	1.7994682E+004	-8.9921127E+001	0.0000000E+000	0.0000000E+000	0.0000000E+000	8.9921127E+001	0.0000000E+000	0.0000000E+000	0.0000000E+000	-8.9921127E+001	0.0000000E+000	0.0000000E+000	0.0000000E+000	-7.8876302E-002	0.0000000E+000	0.0000000E+000	0.0000000E+000	7.8876302E-002	7.2639990E+002	8.9921127E+001	5.890197411905548E-006
4.8076920E+002	1.2497707E+001	2.5037587E-002	1.2497732E+001	-1.1478475E-001	2.090748352199298E+002	4.4958377E-001	4.5862179E-002	1.3221813E+004	5.3065658E-002	1.000000000000000E+000	10	1.0381880E-002	8.3070114E-004	0	6.403408815026956E-004	8.0014355E-002	1.6029872E-004	8.0014519E-002	1.1478475E-001	5.3065426E+001	2.6488139E+004	2.6488191E+004	-8.9885216E+001	0.0000000E+000	0.0000000E+000	0.0000000E+000	8.9885216E+001	0.0000000E+000	0.0000000E+000	0.0000000E+000	-8.9885216E+001	0.0000000E+000	0.0000000E+000	0.0000000E+000	-1.1478475E-001	0.0000000E+000	0.0000000E+000	0.0000000E+000	1.1478475E-001	4.9915784E+002	8.9885216E+001	5.783513444645614E-006
3.2677771E+002	1.2517620E+001	3.4050789E-002	1.2517667E+001	-1.5585724E-001	2.095380387353216E+002	4.4958389E-001	4.3650918E-002	1.4303441E+004	1.0583958E-001	1.000000000000000E+000	10	1.0389676E-002	8.3000102E-004	0	6.456760973530375E-004	7.9886794E-002	2.1731036E-004	7.9887092E-002	1.5585724E-001	1.0584207E+002	3.8908340E+004	3.8908484E+004	-8.9844139E+001	0.0000000E+000	0.0000000E+000	0.0000000E+000	8.9844139E+001	0.0000000E+000	0.0000000E+000	0.0000000E+000	-8.9844139E+001	0.0000000E+000	0.0000000E+000	0.0000000E+000	-1.5585724E-001	0.0000000E+000	0.0000000E+000	0.0000000E+000	1.5585724E-001	3.6761615E+002	8.9844139E+001	5.335215850341916E-006
2.2206076E+002	1.2505281E+001	4.7846090E-002	1.2505373E+001	-2.1921663E-001	2.099992819838662E+002	4.4957945E-001	4.4889968E-002	1.4979657E+004	2.1928123E-001	1.000000000000000E+000	10	1.0388860E-002	8.3075167E-004	0	6.518912299338295E-004	7.9965040E-002	3.0595189E-004	7.9965629E-002	2.1921663E-001	2.1928000E+002	5.7312387E+004	5.7312805E+004	-8.9780785E+001	0.0000000E+000	0.0000000E+000	0.0000000E+000	8.9780785E+001	0.0000000E+000	0.0000000E+000	0.0000000E+000	-8.9780785E+001	0.0000000E+000	0.0000000E+000	0.0000000E+000	-2.1921663E-001	0.0000000E+000	0.0000000E+000	0.0000000E+000	2.1921663E-001	2.6136475E+002	8.9780785E+001	6.215132580792001E-006
1.5101485E+002	1.2518001E+001	7.7815004E-002	1.2518243E+001	-3.5616022E-001	2.104628070992039E+002	4.4958362E-001	4.3044455E-002	1.3543695E+004	5.2333176E-001	1.000000000000000E+000	10	1.0394395E-002	8.3033979E-004	0	6.570870817414187E-004	7.9881877E-002	4.9656560E-004	7.9883419E-002	3.5616022E-001	5.2333588E+002	8.4187719E+004	8.4189344E+004	-8.9643837E+001	0.0000000E+000	0.0000000E+000	0.0000000E+000	8.9643837E+001	0.0000000E+000	0.0000000E+000	0.0000000E+000	-8.9643837E+001	0.0000000E+000	0.0000000E+000	0.0000000E+000	-3.5616022E-001	0.0000000E+000	0.0000000E+000	0.0000000E+000	3.5616022E-001	1.6086873E+002	8.9643837E+001	5.195851807589247E-006
1.0266736E+002	1.2517926E+001	1.0095736E-001	1.2518333E+001	-4.6208173E-001	2.109376903750672E+002	4.4959104E-001	4.4953413E-002	1.5354997E+004	9.9869454E-001	1.000000000000000E+000	10	1.0392917E-002	8.3021575E-004	0	6.621884526810771E-004	7.9880238E-002	6.4423593E-004	7.9882838E-002	4.6208173E-001	9.9869501E+002	1.2383036E+005	1.2383438E+005	-8.9537918E+001	0.0000000E+000	0.0000000E+000	0.0000000E+000	8.9537918E+001	0.0000000E+000	0.0000000E+000	0.0000000E+000	-8.9537918E+001	0.0000000E+000	0.0000000E+000	0.0000000E+000	-4.6208173E-001	0.0000000E+000	0.0000000E+000	0.0000000E+000	4.6208173E-001	1.2399222E+002	8.9537918E+001	5.101370939658307E-006
6.9754463E+001	1.2513611E+001	1.4948566E-001	1.2514503E+001	-6.8441397E-001	2.114048579172668E+002	4.4958925E-001	4.2691775E-002	1.5263306E+004	2.1778123E+000	1.000000000000000E+000	10	1.0388453E-002	8.3011307E-004	0	6.675982883934307E-004	7.9901583E-002	9.5449196E-004	7.9907283E-002	6.8441397E-001	2.1778240E+003	1.8230708E+005	1.8232008E+005	-8.9315582E+001	0.0000000E+000	0.0000000E+000	0.0000000E+000	8.9315582E+001	0.0000000E+000	0.0000000E+000	0.0000000E+000	-8.9315582E+001	0.0000000E+000	0.0000000E+000	0.0000000E+000	-6.8441397E-001	0.0000000E+000	0.0000000E+000	0.0000000E+000	6.8441397E-001	8.3711113E+001	8.9315582E+001	5.409835712353651E-006
4.7444328E+001	1.2526212E+001	2.3039253E-001	1.2528331E+001	-1.0537130E+000	2.118488255917182E+002	4.4957229E-001	4.1616932E-002	1.4560203E+004	4.9239974E+000	1.000000000000000E+000	10	1.0390762E-002	8.2938123E-004	0	6.720265032450261E-004	7.9805590E-002	1.4678510E-003	7.9819091E-002	1.0537130E+000	4.9239878E+003	2.6771281E+005	2.6775809E+005	-8.8946289E+001	0.0000000E+000	0.0000000E+000	0.0000000E+000	8.8946289E+001	0.0000000E+000	0.0000000E+000	0.0000000E+000	-8.8946289E+001	0.0000000E+000	0.0000000E+000	0.0000000E+000	-1.0537130E+000	0.0000000E+000	0.0000000E+000	0.0000000E+000	1.0537130E+000	5.4368999E+001	8.8946289E+001	4.428214851595396E-006
3.2238655E+001	1.2529443E+001	2.9682329E-001	1.2532958E+001	-1.3570869E+000	2.122852470791113E+002	4.4956467E-001	4.2242058E-002	1.6632029E+004	9.3289766E+000	1.000000000000000E+000	10	1.0389701E-002	8.2899036E-004	0	6.764381957196973E-004	7.9767242E-002	1.8896912E-003	7.9789624E-002	1.3570869E+000	9.3289727E+003	3.9379281E+005	3.9390331E+005	-8.8642914E+001	0.0000000E+000	0.0000000E+000	0.0000000E+000	8.8642914E+001	0.0000000E+000	0.0000000E+000	0.0000000E+000	-8.8642914E+001	0.0000000E+000	0.0000000E+000	0.0000000E+000	-1.3570869E+000	0.0000000E+000	0.0000000E+000	0.0000000E+000	1.3570869E+000	4.2211792E+001	8.8642914E+001	4.411692474671201E-006
