EC-Lab ASCII FILE
Nb header lines : 63                          

Potentio Electrochemical Impedance Spectroscopy

Run on channel : 2 (SN 68855)
User : 
CE vs. WE compliance from -10 V to 10 V
Electrode connection : standard
Potential control : Ewe
Ewe ctrl range : min = -1.00 V, max = 1.00 V
Safety Limits :
	Do not start on E overload
Acquisition started on : 05/28/2024 11:18:57.125
Loaded Setting File :  C:\Users\HZ-7000\Documents\EC-Lab\Data\Yatsuzuka\20240502_2-136_UPS_preparation\20240502_2-136_UPS_preparation_K-1.mps
Saved on :
	File : 20240527_2-145_inK_02_PEIS_C02.mpr
	Directory : C:\Users\HZ-7000\Documents\EC-Lab\Data\Yatsuzuka\20240527_2-145_re-addition\
	Host : 192.109.209.100
Device : SP-150e (SN .003466)
Address : 192.109.209.128
EC-Lab for windows v11.50 (software)
Internet server v11.50 (firmware)
Command interpretor v11.50 (firmware)
Electrode material : 
Initial state : 
Electrolyte : 
Comments : 
Electrode surface area : 0.001 cm2
Characteristic mass : 0.001 g
Equivalent Weight : 0.000 g/eq.
Density : 0.000 g/cm3
Volume (V) : 0.001 cm3
Cycle Definition : Charge/Discharge alternance
Mode                Single sine         
E (V)               0.4500              
vs.                 Ref                 
tE (h:m:s)          0:00:0.0000         
record              0                   
dI                  0.000               
unit dI             mA                  
dt (s)              0.000               
fi                  500.000             
unit fi             kHz                 
ff                  1.000               
unit ff             Hz                  
Nd                  6                   
Points              per decade          
spacing             Logarithmic         
Va (mV)             10.0                
pw                  0.10                
Na                  2                   
corr                0                   
E range min (V)     -1.000              
E range max (V)     1.000               
I Range             Auto                
Bandwidth           5                   
nc cycles           0                   
goto Ns'            0                   
nr cycles           0                   
inc. cycle          0                   

freq/Hz	Re(Z)/Ohm	-Im(Z)/Ohm	|Z|/Ohm	Phase(Z)/deg	time/s	<Ewe>/V	<I>/mA	Cs/uF	Cp/uF	cycle number	I Range	|Ewe|/V	|I|/A	Ns	(Q-Qo)/mA.h	Re(Y)/Ohm-1	Im(Y)/Ohm-1	|Y|/Ohm-1	Phase(Y)/deg	Re(C)/nF	Im(C)/nF	|C|/nF	Phase(C)/deg	Re(M)	Im(M)	|M|	Phase(M)/deg	Re(Permittivity)	Im(Permittivity)	|Permittivity|	Phase(Permittivity)/deg	Re(Resistivity)/Ohm.cm	Im(Resistivity)/Ohm.cm	|Resistivity|/Ohm.cm	Phase(Resistivity)/deg	Re(Conductivity)/mS/cm	Im(Conductivity)/mS/cm	|Conductivity|/mS/cm	Phase(Conductivity)/deg	Tan(Delta)	Loss Angle(Delta)/deg	dq/mA.h	
5.0001856E+005	2.9837015E+001	-2.2779388E+000	2.9923845E+001	4.3658381E+000	2.010538786260440E+002	4.4968209E-001	5.6749251E-002	-1.3973074E-001	-8.0973195E-004	1.000000000000000E+000	10	1.0838083E-002	3.6218885E-004	0	5.511391952461175E-005	3.3321194E-002	-2.5439421E-003	3.3418164E-002	-4.3658381E+000	-8.0973172E-001	1.0606072E+001	1.0636937E+001	-9.4365837E+001	0.0000000E+000	0.0000000E+000	0.0000000E+000	9.4365837E+001	0.0000000E+000	0.0000000E+000	0.0000000E+000	-9.4365837E+001	0.0000000E+000	0.0000000E+000	0.0000000E+000	4.3658381E+000	0.0000000E+000	0.0000000E+000	0.0000000E+000	-4.3658381E+000	1.3098251E+001	8.5634163E+001	5.511391952461175E-005
3.3989941E+005	2.0155083E+001	-2.8000503E+000	2.0348652E+001	7.9092078E+000	2.014758729927853E+002	4.4943482E-001	3.7534684E-002	-1.6722605E-001	-3.1663890E-003	1.000000000000000E+000	10	1.0573368E-002	5.1961024E-004	0	5.987861555516591E-005	4.8675820E-002	-6.7623015E-003	4.9143303E-002	-7.9092078E+000	-3.1663902E+000	2.2792032E+001	2.3010927E+001	-9.7909210E+001	0.0000000E+000	0.0000000E+000	0.0000000E+000	9.7909210E+001	0.0000000E+000	0.0000000E+000	0.0000000E+000	-9.7909210E+001	0.0000000E+000	0.0000000E+000	0.0000000E+000	7.9092078E+000	0.0000000E+000	0.0000000E+000	0.0000000E+000	-7.9092078E+000	7.1981144E+000	8.2090790E+001	4.764696030554153E-006
2.3106258E+005	1.6860182E+001	-1.6252769E+000	1.6938337E+001	5.5061483E+000	2.018978786394728E+002	4.4936040E-001	3.8059097E-002	-4.2380214E-001	-3.9019017E-003	1.000000000000000E+000	10	1.0920937E-002	6.4474670E-004	0	6.473202792666012E-005	5.8765266E-002	-5.6648161E-003	5.9037670E-002	-5.5061483E+000	-3.9019027E+000	4.0477272E+001	4.0664906E+001	-9.5506149E+001	0.0000000E+000	0.0000000E+000	0.0000000E+000	9.5506149E+001	0.0000000E+000	0.0000000E+000	0.0000000E+000	-9.5506149E+001	0.0000000E+000	0.0000000E+000	0.0000000E+000	5.5061483E+000	0.0000000E+000	0.0000000E+000	0.0000000E+000	-5.5061483E+000	1.0373729E+001	8.4493851E+001	4.853412371494213E-006
1.5707578E+005	1.5807077E+001	-7.6066333E-001	1.5825369E+001	2.7550447E+000	2.024558810659946E+002	4.4934353E-001	3.2579880E-002	-1.3320435E+000	-3.0774833E-003	1.000000000000000E+000	10	1.0102590E-002	6.3837942E-004	0	7.177605464564275E-005	6.3116640E-002	-3.0372797E-003	6.3189678E-002	-2.7550447E+000	-3.0774813E+000	6.3952095E+001	6.4026100E+001	-9.2755043E+001	0.0000000E+000	0.0000000E+000	0.0000000E+000	9.2755043E+001	0.0000000E+000	0.0000000E+000	0.0000000E+000	-9.2755043E+001	0.0000000E+000	0.0000000E+000	0.0000000E+000	2.7550447E+000	0.0000000E+000	0.0000000E+000	0.0000000E+000	-2.7550447E+000	2.0780649E+001	8.7244957E+001	7.044026718982626E-006
1.0678630E+005	1.5531855E+001	-3.6152640E-001	1.5536061E+001	1.3334014E+000	2.028778763127193E+002	4.4935426E-001	3.2242097E-002	-4.1225371E+000	-2.2323525E-003	1.000000000000000E+000	10	1.0700705E-002	6.8876566E-004	0	7.529126053840770E-005	6.4348951E-002	-1.4978149E-003	6.4366378E-002	-1.3334014E+000	-2.2323575E+000	9.5906059E+001	9.5932037E+001	-9.1333405E+001	0.0000000E+000	0.0000000E+000	0.0000000E+000	9.1333405E+001	0.0000000E+000	0.0000000E+000	0.0000000E+000	-9.1333405E+001	0.0000000E+000	0.0000000E+000	0.0000000E+000	1.3334014E+000	0.0000000E+000	0.0000000E+000	0.0000000E+000	-1.3334014E+000	4.2961884E+001	8.8666595E+001	3.515205892764951E-006
7.2595008E+004	1.5422020E+001	-1.8770683E-001	1.5423162E+001	6.9733262E-001	2.032998665727355E+002	4.4936323E-001	3.4447964E-002	-1.1679744E+001	-1.7300020E-003	1.000000000000000E+000	10	1.0618369E-002	6.8846898E-004	0	7.980215069686528E-005	6.4832740E-002	-7.8910211E-004	6.4837545E-002	-6.9733262E-001	-1.7300060E+000	1.4213721E+002	1.4214774E+002	-9.0697334E+001	0.0000000E+000	0.0000000E+000	0.0000000E+000	9.0697334E+001	0.0000000E+000	0.0000000E+000	0.0000000E+000	-9.0697334E+001	0.0000000E+000	0.0000000E+000	0.0000000E+000	6.9733262E-001	0.0000000E+000	0.0000000E+000	0.0000000E+000	-6.9733262E-001	8.2160141E+001	8.9302666E+001	4.510890158457588E-006
4.9352359E+004	1.5372497E+001	-1.0931002E-001	1.5372886E+001	4.0740925E-001	2.037218824061129E+002	4.4935879E-001	2.8769068E-002	-2.9502052E+001	-1.4916309E-003	1.000000000000000E+000	10	1.0477790E-002	6.8157597E-004	0	8.388579602000149E-005	6.5047950E-002	-4.6253990E-004	6.5049596E-002	-4.0740925E-001	-1.4916326E+000	2.0977118E+002	2.0977649E+002	-9.0407410E+001	0.0000000E+000	0.0000000E+000	0.0000000E+000	9.0407410E+001	0.0000000E+000	0.0000000E+000	0.0000000E+000	-9.0407410E+001	0.0000000E+000	0.0000000E+000	0.0000000E+000	4.0740925E-001	0.0000000E+000	0.0000000E+000	0.0000000E+000	-4.0740925E-001	1.4063208E+002	8.9592590E+001	4.083645323136204E-006
3.3551066E+004	1.5353745E+001	-7.1858458E-002	1.5353913E+001	2.6815322E-001	2.041438772261754E+002	4.4935238E-001	3.0226585E-002	-6.6013985E+001	-1.4459508E-003	1.000000000000000E+000	10	1.0376059E-002	6.7579251E-004	0	8.763885066395677E-005	6.5129258E-002	-3.0481737E-004	6.5129973E-002	-2.6815322E-001	-1.4459352E+000	3.0895126E+002	3.0895465E+002	-9.0268150E+001	0.0000000E+000	0.0000000E+000	0.0000000E+000	9.0268150E+001	0.0000000E+000	0.0000000E+000	0.0000000E+000	-9.0268150E+001	0.0000000E+000	0.0000000E+000	0.0000000E+000	2.6815322E-001	0.0000000E+000	0.0000000E+000	0.0000000E+000	-2.6815322E-001	2.1366650E+002	8.9731850E+001	3.753054643955284E-006
2.2806563E+004	1.5353772E+001	-4.5003962E-002	1.5353838E+001	1.6794112E-001	2.045658684195514E+002	4.4936460E-001	3.1794205E-002	-1.5506348E+002	-1.3322236E-003	1.000000000000000E+000	10	1.0334657E-002	6.7309925E-004	0	9.115388554253150E-005	6.5130010E-002	-1.9090480E-004	6.5130293E-002	-1.6794112E-001	-1.3322008E+000	4.5450797E+002	4.5450992E+002	-9.0167938E+001	0.0000000E+000	0.0000000E+000	0.0000000E+000	9.0167938E+001	0.0000000E+000	0.0000000E+000	0.0000000E+000	-9.0167938E+001	0.0000000E+000	0.0000000E+000	0.0000000E+000	1.6794112E-001	0.0000000E+000	0.0000000E+000	0.0000000E+000	-1.6794112E-001	3.4116489E+002	8.9832062E+001	3.515034878574729E-006
1.5504379E+004	1.5337004E+001	-2.9064046E-002	1.5337031E+001	1.0857695E-001	2.049878692129423E+002	4.4935516E-001	2.7078277E-002	-3.5319104E+002	-1.2683504E-003	1.000000000000000E+000	10	1.0144915E-002	6.6146540E-004	0	9.375439024606506E-005	6.5201551E-002	-1.2355874E-004	6.5201670E-002	-1.0857695E-001	-1.2683147E+000	6.6930432E+002	6.6930554E+002	-9.0108574E+001	0.0000000E+000	0.0000000E+000	0.0000000E+000	9.0108574E+001	0.0000000E+000	0.0000000E+000	0.0000000E+000	-9.0108574E+001	0.0000000E+000	0.0000000E+000	0.0000000E+000	1.0857695E-001	0.0000000E+000	0.0000000E+000	0.0000000E+000	-1.0857695E-001	5.2769678E+002	8.9891426E+001	2.600504703533559E-006
1.0540381E+004	1.5337321E+001	-1.9967880E-003	1.5337321E+001	7.4594202E-003	2.054098791529686E+002	4.4935733E-001	3.0426269E-002	-7.5619165E+003	-1.2817307E-004	1.000000000000000E+000	10	1.0146707E-002	6.6156971E-004	0	9.709024537190433E-005	6.5200433E-002	-8.4885387E-006	6.5200433E-002	-7.4594202E-003	-1.2820964E-001	9.8449689E+002	9.8449689E+002	-9.0007462E+001	0.0000000E+000	0.0000000E+000	0.0000000E+000	9.0007462E+001	0.0000000E+000	0.0000000E+000	0.0000000E+000	-9.0007462E+001	0.0000000E+000	0.0000000E+000	0.0000000E+000	7.4594202E-003	0.0000000E+000	0.0000000E+000	0.0000000E+000	-7.4594202E-003	7.6809966E+003	8.9992538E+001	3.335855125839274E-006
7.1637817E+003	1.5339736E+001	4.8944671E-003	1.5339737E+001	-1.8281428E-002	2.057664809832495E+002	4.4934905E-001	2.7684797E-002	4.5391274E+003	4.6211213E-004	1.000000000000000E+000	10	1.0670515E-002	6.9561263E-004	0	1.003719943765771E-004	6.5190166E-002	2.0800298E-005	6.5190166E-002	1.8281428E-002	4.6207675E-001	1.4483043E+003	1.4483044E+003	-8.9981720E+001	0.0000000E+000	0.0000000E+000	0.0000000E+000	8.9981720E+001	0.0000000E+000	0.0000000E+000	0.0000000E+000	-8.9981720E+001	0.0000000E+000	0.0000000E+000	0.0000000E+000	-1.8281428E-002	0.0000000E+000	0.0000000E+000	0.0000000E+000	1.8281428E-002	3.1340974E+003	8.9981720E+001	3.281749004672735E-006
4.8715591E+003	1.5326845E+001	-5.3931493E-003	1.5326846E+001	2.0161010E-002	2.062340802854887E+002	4.4938344E-001	2.9991442E-002	-6.0577275E+003	-7.5004791E-004	1.000000000000000E+000	10	1.0943312E-002	7.1399636E-004	0	1.035757532905069E-004	6.5244988E-002	-2.2958147E-005	6.5244995E-002	-2.0161010E-002	-7.5017738E-001	2.1315686E+003	2.1315688E+003	-9.0020164E+001	0.0000000E+000	0.0000000E+000	0.0000000E+000	9.0020164E+001	0.0000000E+000	0.0000000E+000	0.0000000E+000	-9.0020164E+001	0.0000000E+000	0.0000000E+000	0.0000000E+000	2.0161010E-002	0.0000000E+000	0.0000000E+000	0.0000000E+000	-2.0161010E-002	2.8419099E+003	8.9979836E+001	3.203758913929858E-006
3.3110596E+003	1.5329874E+001	7.3345248E-003	1.5329876E+001	-2.7412964E-002	2.069210821581219E+002	4.4937858E-001	2.9369991E-002	6.5536187E+003	1.5001955E-003	1.000000000000000E+000	10	1.0116105E-002	6.5989478E-004	0	1.090031734796260E-004	6.5232091E-002	3.1210067E-005	6.5232098E-002	2.7412964E-002	1.5001653E+000	3.1355552E+003	3.1355554E+003	-8.9972588E+001	0.0000000E+000	0.0000000E+000	0.0000000E+000	8.9972588E+001	0.0000000E+000	0.0000000E+000	0.0000000E+000	-8.9972588E+001	0.0000000E+000	0.0000000E+000	0.0000000E+000	-2.7412964E-002	0.0000000E+000	0.0000000E+000	0.0000000E+000	2.7412964E-002	2.0900979E+003	8.9972588E+001	5.427420189119109E-006
2.2507205E+003	1.5334414E+001	1.2986148E-002	1.5334419E+001	-4.8521664E-002	2.073860845002055E+002	4.4938287E-001	2.7625076E-002	5.4452554E+003	3.9052088E-003	1.000000000000000E+000	10	1.0178076E-002	6.6374056E-004	0	1.121158683127481E-004	6.5212749E-002	5.5226265E-005	6.5212771E-002	4.8521664E-002	3.9053123E+000	4.6113823E+003	4.6113838E+003	-8.9951477E+001	0.0000000E+000	0.0000000E+000	0.0000000E+000	8.9951477E+001	0.0000000E+000	0.0000000E+000	0.0000000E+000	-8.9951477E+001	0.0000000E+000	0.0000000E+000	0.0000000E+000	-4.8521664E-002	0.0000000E+000	0.0000000E+000	0.0000000E+000	4.8521664E-002	1.1808285E+003	8.9951477E+001	3.112694833122076E-006
1.5304901E+003	1.5324535E+001	2.9326774E-002	1.5324563E+001	-1.0964759E-001	2.078510801489610E+002	4.4938225E-001	2.8181208E-002	3.5458904E+003	1.2986070E-002	1.000000000000000E+000	10	1.0207325E-002	6.6607608E-004	0	1.154093377493264E-004	6.5254599E-002	1.2487863E-004	6.5254718E-002	1.0964759E-001	1.2986314E+001	6.7857949E+003	6.7858071E+003	-8.9890350E+001	0.0000000E+000	0.0000000E+000	0.0000000E+000	8.9890350E+001	0.0000000E+000	0.0000000E+000	0.0000000E+000	-8.9890350E+001	0.0000000E+000	0.0000000E+000	0.0000000E+000	-1.0964759E-001	0.0000000E+000	0.0000000E+000	0.0000000E+000	1.0964759E-001	5.2254419E+002	8.9890350E+001	3.293469436578257E-006
1.0403328E+003	1.5350774E+001	3.9209615E-002	1.5350824E+001	-1.4634705E-001	2.083160751577161E+002	4.4938076E-001	2.9532351E-002	3.9017126E+003	2.5455231E-002	1.000000000000000E+000	10	1.0230250E-002	6.6642999E-004	0	1.195340508199111E-004	6.5142862E-002	1.6639073E-004	6.5143079E-002	1.4634705E-001	2.5455229E+001	9.9658594E+003	9.9658916E+003	-8.9853653E+001	0.0000000E+000	0.0000000E+000	0.0000000E+000	8.9853653E+001	0.0000000E+000	0.0000000E+000	0.0000000E+000	-8.9853653E+001	0.0000000E+000	0.0000000E+000	0.0000000E+000	-1.4634705E-001	0.0000000E+000	0.0000000E+000	0.0000000E+000	1.4634705E-001	3.9150534E+002	8.9853653E+001	4.124713070584719E-006
7.0703625E+002	1.5346721E+001	4.6643425E-002	1.5346791E+001	-1.7413904E-001	2.087805600330612E+002	4.4938132E-001	2.8877309E-002	4.8260078E+003	4.4579346E-002	1.000000000000000E+000	10	1.0236554E-002	6.6701591E-004	0	1.228513487906223E-004	6.5159902E-002	1.9804106E-004	6.5160200E-002	1.7413904E-001	4.4579830E+001	1.4667594E+004	1.4667661E+004	-8.9825859E+001	0.0000000E+000	0.0000000E+000	0.0000000E+000	8.9825859E+001	0.0000000E+000	0.0000000E+000	0.0000000E+000	-8.9825859E+001	0.0000000E+000	0.0000000E+000	0.0000000E+000	-1.7413904E-001	0.0000000E+000	0.0000000E+000	0.0000000E+000	1.7413904E-001	3.2902216E+002	8.9825859E+001	3.317297970711184E-006
4.8076920E+002	1.5351254E+001	7.7709839E-002	1.5351450E+001	-2.9003546E-001	2.092458444285003E+002	4.4937980E-001	2.7128663E-002	4.2599795E+003	1.0915929E-001	1.000000000000000E+000	10	1.0240967E-002	6.6710101E-004	0	1.261096623673633E-004	6.5139592E-002	3.2974422E-004	6.5140426E-002	2.9003546E-001	1.0916065E+002	2.1563963E+004	2.1564238E+004	-8.9709961E+001	0.0000000E+000	0.0000000E+000	0.0000000E+000	8.9709961E+001	0.0000000E+000	0.0000000E+000	0.0000000E+000	-8.9709961E+001	0.0000000E+000	0.0000000E+000	0.0000000E+000	-2.9003546E-001	0.0000000E+000	0.0000000E+000	0.0000000E+000	2.9003546E-001	1.9754582E+002	8.9709961E+001	3.258313576740978E-006
3.2677771E+002	1.5357462E+001	1.1762446E-001	1.5357912E+001	-4.3882599E-001	2.097090524238774E+002	4.4937652E-001	2.6766617E-002	4.1406650E+003	2.4288519E-001	1.000000000000000E+000	10	1.0246197E-002	6.6716078E-004	0	1.296848668924447E-004	6.5111108E-002	4.9869303E-004	6.5113015E-002	4.3882599E-001	2.4288602E+002	3.1711939E+004	3.1712869E+004	-8.9561172E+001	0.0000000E+000	0.0000000E+000	0.0000000E+000	8.9561172E+001	0.0000000E+000	0.0000000E+000	0.0000000E+000	-8.9561172E+001	0.0000000E+000	0.0000000E+000	0.0000000E+000	-4.3882599E-001	0.0000000E+000	0.0000000E+000	0.0000000E+000	4.3882599E-001	1.3056351E+002	8.9561172E+001	3.575204525081460E-006
2.2206076E+002	1.5361974E+001	1.6945614E-001	1.5362908E+001	-6.3199741E-001	2.101703120724269E+002	4.4938233E-001	2.7593352E-002	4.2295190E+003	5.1458693E-001	1.000000000000000E+000	10	1.0249626E-002	6.6716701E-004	0	1.328892890118194E-004	6.5087885E-002	7.1797683E-004	6.5091841E-002	6.3199741E-001	5.1458588E+002	4.6649652E+004	4.6652492E+004	-8.9368004E+001	0.0000000E+000	0.0000000E+000	0.0000000E+000	8.9368004E+001	0.0000000E+000	0.0000000E+000	0.0000000E+000	-8.9368004E+001	0.0000000E+000	0.0000000E+000	0.0000000E+000	-6.3199741E-001	0.0000000E+000	0.0000000E+000	0.0000000E+000	6.3199741E-001	9.0654572E+001	8.9368004E+001	3.204422119374724E-006
1.5101485E+002	1.5370399E+001	2.2751129E-001	1.5372082E+001	-8.4802520E-001	2.106318138009665E+002	4.4938245E-001	2.8668292E-002	4.6323091E+003	1.0147010E+000	1.000000000000000E+000	10	1.0247177E-002	6.6660956E-004	0	1.365542683519088E-004	6.5045878E-002	9.6280337E-004	6.5053001E-002	8.4802520E-001	1.0146976E+003	6.8552016E+004	6.8559523E+004	-8.9151978E+001	0.0000000E+000	0.0000000E+000	0.0000000E+000	8.9151978E+001	0.0000000E+000	0.0000000E+000	0.0000000E+000	-8.9151978E+001	0.0000000E+000	0.0000000E+000	0.0000000E+000	-8.4802520E-001	0.0000000E+000	0.0000000E+000	0.0000000E+000	8.4802520E-001	6.7558838E+001	8.9151978E+001	3.664979340089396E-006
1.0266736E+002	1.5395714E+001	3.5595909E-001	1.5399828E+001	-1.3244804E+000	2.111066885168693E+002	4.4938487E-001	2.8054306E-002	4.3549951E+003	2.3267841E+000	1.000000000000000E+000	10	1.0255036E-002	6.6591887E-004	0	1.406311047329097E-004	6.4918436E-002	1.5009573E-003	6.4935789E-002	1.3244804E+000	2.3267800E+003	1.0063656E+005	1.0066346E+005	-8.8675522E+001	0.0000000E+000	0.0000000E+000	0.0000000E+000	8.8675522E+001	0.0000000E+000	0.0000000E+000	0.0000000E+000	-8.8675522E+001	0.0000000E+000	0.0000000E+000	0.0000000E+000	-1.3244804E+000	0.0000000E+000	0.0000000E+000	0.0000000E+000	1.3244804E+000	4.3251358E+001	8.8675522E+001	4.076836381000854E-006
6.9754463E+001	1.5406819E+001	4.7663459E-001	1.5414190E+001	-1.7719713E+000	2.115738381390838E+002	4.4938555E-001	2.6292598E-002	4.7869907E+003	4.5771198E+000	1.000000000000000E+000	10	1.0251006E-002	6.6503696E-004	0	1.443811763806160E-004	6.4844258E-002	2.0060607E-003	6.4875282E-002	1.7719713E+000	4.5771226E+003	1.4795161E+005	1.4802239E+005	-8.8228027E+001	0.0000000E+000	0.0000000E+000	0.0000000E+000	8.8228027E+001	0.0000000E+000	0.0000000E+000	0.0000000E+000	-8.8228027E+001	0.0000000E+000	0.0000000E+000	0.0000000E+000	-1.7719713E+000	0.0000000E+000	0.0000000E+000	0.0000000E+000	1.7719713E+000	3.2324173E+001	8.8228027E+001	3.750071647706332E-006
4.7444328E+001	1.5445643E+001	6.6896158E-001	1.5460123E+001	-2.4799705E+000	2.120178383468447E+002	4.4936866E-001	2.5236320E-002	5.0145811E+003	9.3888226E+000	1.000000000000000E+000	10	1.0253378E-002	6.6321454E-004	0	1.482212501592148E-004	6.4621955E-002	2.7988220E-003	6.4682536E-002	2.4799705E+000	9.3888311E+003	2.1677836E+005	2.1698158E+005	-8.7520027E+001	0.0000000E+000	0.0000000E+000	0.0000000E+000	8.7520027E+001	0.0000000E+000	0.0000000E+000	0.0000000E+000	-8.7520027E+001	0.0000000E+000	0.0000000E+000	0.0000000E+000	-2.4799705E+000	0.0000000E+000	0.0000000E+000	0.0000000E+000	2.4799705E+000	2.3088984E+001	8.7520027E+001	3.840073778598808E-006
3.2238655E+001	1.5462745E+001	9.2609859E-001	1.5490453E+001	-3.4274790E+000	2.124552547676285E+002	4.4937161E-001	2.4708180E-002	5.3307217E+003	1.9053389E+001	1.000000000000000E+000	10	1.0252442E-002	6.6185556E-004	0	1.511487143421554E-004	6.4440414E-002	3.8594818E-003	6.4555891E-002	3.4274790E+000	1.9053410E+004	3.1812778E+005	3.1869784E+005	-8.6572517E+001	0.0000000E+000	0.0000000E+000	0.0000000E+000	8.6572517E+001	0.0000000E+000	0.0000000E+000	0.0000000E+000	-8.6572517E+001	0.0000000E+000	0.0000000E+000	0.0000000E+000	-3.4274790E+000	0.0000000E+000	0.0000000E+000	0.0000000E+000	3.4274790E+000	1.6696651E+001	8.6572517E+001	2.927464182940546E-006
