EC-Lab ASCII FILE
Nb header lines : 63                          

Potentio Electrochemical Impedance Spectroscopy

Run on channel : 1 (SN 66412)
User : 
CE vs. WE compliance from -10 V to 10 V
Electrode connection : standard
Potential control : Ewe
Ewe ctrl range : min = -1.00 V, max = 1.00 V
Safety Limits :
	Do not start on E overload
Acquisition started on : 04/01/2024 18:50:54.595
Loaded Setting File :  C:\Users\NakamuraT\Documents\EC-Lab\Data\Yatsuzuka\20240328_2-129_UV-vis_K_Na_diff\20240328_2-129_001_preconditioning+CV_inK.mps
Saved on :
	File : 20240328_2-128_001_alpha_K-1_02_PEIS_C01.mpr
	Directory : C:\Users\NakamuraT\Documents\EC-Lab\Data\Yatsuzuka\20240401_2-128_CV_cycles_alpha_gamma\
	Host : 192.109.209.100
Device : SP-150e (SN .003411)
Address : 192.109.209.236
EC-Lab for windows v11.50 (software)
Internet server v11.50 (firmware)
Command interpretor v11.50 (firmware)
Electrode material : 
Initial state : 
Electrolyte : 
Comments : 
Electrode surface area : 0.001 cm2
Characteristic mass : 0.001 g
Equivalent Weight : 0.000 g/eq.
Density : 0.000 g/cm3
Volume (V) : 0.001 cm3
Cycle Definition : Charge/Discharge alternance
Mode                Single sine         
E (V)               0.4500              
vs.                 Ref                 
tE (h:m:s)          0:00:0.0000         
record              0                   
dI                  0.000               
unit dI             mA                  
dt (s)              0.000               
fi                  500.000             
unit fi             kHz                 
ff                  1.000               
unit ff             Hz                  
Nd                  6                   
Points              per decade          
spacing             Logarithmic         
Va (mV)             10.0                
pw                  0.10                
Na                  2                   
corr                0                   
E range min (V)     -1.000              
E range max (V)     1.000               
I Range             Auto                
Bandwidth           5                   
nc cycles           0                   
goto Ns'            0                   
nr cycles           0                   
inc. cycle          0                   

freq/Hz	Re(Z)/Ohm	-Im(Z)/Ohm	|Z|/Ohm	Phase(Z)/deg	time/s	<Ewe>/V	<I>/mA	Cs/uF	Cp/uF	cycle number	I Range	|Ewe|/V	|I|/A	Ns	(Q-Qo)/mA.h	Re(Y)/Ohm-1	Im(Y)/Ohm-1	|Y|/Ohm-1	Phase(Y)/deg	Re(C)/nF	Im(C)/nF	|C|/nF	Phase(C)/deg	Re(M)	Im(M)	|M|	Phase(M)/deg	Re(Permittivity)	Im(Permittivity)	|Permittivity|	Phase(Permittivity)/deg	Re(Resistivity)/Ohm.cm	Im(Resistivity)/Ohm.cm	|Resistivity|/Ohm.cm	Phase(Resistivity)/deg	Re(Conductivity)/mS/cm	Im(Conductivity)/mS/cm	|Conductivity|/mS/cm	Phase(Conductivity)/deg	Tan(Delta)	Loss Angle(Delta)/deg	dq/mA.h	
5.0001856E+005	3.6620461E+001	2.2369969E-001	3.6621143E+001	-3.4999254E-001	2.007124784766347E+002	4.5047897E-001	1.8624552E-001	1.4228811E+000	5.3092794E-005	1.000000000000000E+000	11	8.5950373E-003	2.3470151E-004	0	7.507630423562497E-005	2.7306119E-002	1.6680211E-004	2.7306629E-002	3.4999254E-001	5.3092536E-002	8.6914854E+000	8.6916475E+000	-8.9650009E+001	0.0000000E+000	0.0000000E+000	0.0000000E+000	8.9650009E+001	0.0000000E+000	0.0000000E+000	0.0000000E+000	-8.9650009E+001	0.0000000E+000	0.0000000E+000	0.0000000E+000	-3.4999254E-001	0.0000000E+000	0.0000000E+000	0.0000000E+000	3.4999254E-001	1.6370367E+002	8.9650009E+001	7.507630423562497E-005
3.3989941E+005	2.7293447E+001	-2.7366295E+000	2.7430302E+001	5.7257338E+000	2.015744877709076E+002	4.5034721E-001	6.3982983E-003	-1.7110147E-001	-1.7030388E-003	1.000000000000000E+000	10	9.9060182E-003	3.6113412E-004	0	8.312698293690725E-005	3.6274150E-002	-3.6370966E-003	3.6456034E-002	-5.7257338E+000	-1.7030381E+000	1.6985056E+001	1.7070221E+001	-9.5725731E+001	0.0000000E+000	0.0000000E+000	0.0000000E+000	9.5725731E+001	0.0000000E+000	0.0000000E+000	0.0000000E+000	-9.5725731E+001	0.0000000E+000	0.0000000E+000	0.0000000E+000	5.7257338E+000	0.0000000E+000	0.0000000E+000	0.0000000E+000	-5.7257338E+000	9.9733810E+000	8.4274269E+001	8.050678701282274E-006
2.3106258E+005	2.3075239E+001	-1.9982629E+000	2.3161600E+001	4.9493361E+000	2.019964741909062E+002	4.5031562E-001	-4.0109616E-004	-3.4469730E-001	-2.5657008E-003	1.000000000000000E+000	10	1.0830544E-002	4.6760775E-004	0	8.331189515287406E-005	4.3013927E-002	-3.7249078E-003	4.3174911E-002	-4.9493361E+000	-2.5656993E+000	2.9627815E+001	2.9738699E+001	-9.4949333E+001	0.0000000E+000	0.0000000E+000	0.0000000E+000	9.4949333E+001	0.0000000E+000	0.0000000E+000	0.0000000E+000	-9.4949333E+001	0.0000000E+000	0.0000000E+000	0.0000000E+000	4.9493361E+000	0.0000000E+000	0.0000000E+000	0.0000000E+000	-4.9493361E+000	1.1547649E+001	8.5050667E+001	1.849122159668098E-007
1.5707578E+005	2.1658939E+001	-1.1031364E+000	2.1687014E+001	2.9156780E+000	2.024184837576468E+002	4.5032606E-001	-4.1907714E-003	-9.1850531E-001	-2.3765154E-003	1.000000000000000E+000	10	1.0933897E-002	5.0416798E-004	0	8.226746717571142E-005	4.6050854E-002	-2.3454691E-003	4.6110544E-002	-2.9156780E+000	-2.3765168E+000	4.6660412E+001	4.6720894E+001	-9.2915680E+001	0.0000000E+000	0.0000000E+000	0.0000000E+000	9.2915680E+001	0.0000000E+000	0.0000000E+000	0.0000000E+000	-9.2915680E+001	0.0000000E+000	0.0000000E+000	0.0000000E+000	2.9156780E+000	0.0000000E+000	0.0000000E+000	0.0000000E+000	-2.9156780E+000	1.9633963E+001	8.7084320E+001	-1.044427977162633E-006
1.0678630E+005	2.1171225E+001	-6.3631946E-001	2.1180784E+001	1.7215561E+000	2.028404715376673E+002	4.5032319E-001	-7.3497673E-003	-2.3422294E+000	-2.1139551E-003	1.000000000000000E+000	10	1.0719018E-002	5.0607277E-004	0	8.196351083785864E-005	4.7191296E-002	-1.4183753E-003	4.7212604E-002	-1.7215561E+000	-2.1139569E+000	7.0334190E+001	7.0365952E+001	-9.1721558E+001	0.0000000E+000	0.0000000E+000	0.0000000E+000	9.1721558E+001	0.0000000E+000	0.0000000E+000	0.0000000E+000	-9.1721558E+001	0.0000000E+000	0.0000000E+000	0.0000000E+000	1.7215561E+000	0.0000000E+000	0.0000000E+000	0.0000000E+000	-1.7215561E+000	3.3271378E+001	8.8278442E+001	-3.039563378527812E-007
7.2595008E+004	2.0966665E+001	-3.9248371E-001	2.0970339E+001	1.0724182E+000	2.032624743843917E+002	4.5032716E-001	-8.0214981E-003	-5.5858822E+000	-1.9566994E-003	1.000000000000000E+000	10	1.0525853E-002	5.0194009E-004	0	8.217541181786994E-005	4.7678050E-002	-8.9250517E-004	4.7686402E-002	-1.0724182E+000	-1.9566995E+000	1.0452782E+002	1.0454613E+002	-9.1072418E+001	0.0000000E+000	0.0000000E+000	0.0000000E+000	9.1072418E+001	0.0000000E+000	0.0000000E+000	0.0000000E+000	-9.1072418E+001	0.0000000E+000	0.0000000E+000	0.0000000E+000	1.0724182E+000	0.0000000E+000	0.0000000E+000	0.0000000E+000	-1.0724182E+000	5.3420471E+001	8.8927582E+001	2.119009800113030E-007
4.9352359E+004	2.0884775E+001	-2.4474782E-001	2.0886209E+001	6.7141610E-001	2.036844834177755E+002	4.5032167E-001	-8.9264670E-003	-1.3176297E+001	-1.8093049E-003	1.000000000000000E+000	10	1.0458601E-002	5.0074194E-004	0	8.157333018093939E-005	4.7875196E-002	-5.6104740E-004	4.7878481E-002	-6.7141610E-001	-1.8093081E+000	1.5439128E+002	1.5440189E+002	-9.0671417E+001	0.0000000E+000	0.0000000E+000	0.0000000E+000	9.0671417E+001	0.0000000E+000	0.0000000E+000	0.0000000E+000	-9.0671417E+001	0.0000000E+000	0.0000000E+000	0.0000000E+000	6.7141610E-001	0.0000000E+000	0.0000000E+000	0.0000000E+000	-6.7141610E-001	8.5331810E+001	8.9328583E+001	-6.020816369305517E-007
3.3551066E+004	2.0851551E+001	-1.7716295E-001	2.0852304E+001	4.8679563E-001	2.041064778911532E+002	4.5032361E-001	-9.2380755E-003	-2.6775707E+001	-1.9327629E-003	1.000000000000000E+000	10	1.0329616E-002	4.9537048E-004	0	7.995606369949787E-005	4.7954597E-002	-4.0744102E-004	4.7956329E-002	-4.8679563E-001	-1.9327545E+000	2.2748045E+002	2.2748866E+002	-9.0486794E+001	0.0000000E+000	0.0000000E+000	0.0000000E+000	9.0486794E+001	0.0000000E+000	0.0000000E+000	0.0000000E+000	-9.0486794E+001	0.0000000E+000	0.0000000E+000	0.0000000E+000	4.8679563E-001	0.0000000E+000	0.0000000E+000	0.0000000E+000	-4.8679563E-001	1.1769702E+002	8.9513206E+001	-1.617266481441522E-006
2.2806563E+004	2.0818707E+001	-1.0485622E-001	2.0818970E+001	2.8857550E-001	2.045284744445235E+002	4.5032284E-001	-1.0223280E-002	-6.6552765E+001	-1.6882472E-003	1.000000000000000E+000	10	1.0299550E-002	4.9471948E-004	0	7.861194642690113E-005	4.8032507E-002	-2.4192223E-004	4.8033118E-002	-2.8857550E-001	-1.6882399E+000	3.3519351E+002	3.3519775E+002	-9.0288574E+001	0.0000000E+000	0.0000000E+000	0.0000000E+000	9.0288574E+001	0.0000000E+000	0.0000000E+000	0.0000000E+000	-9.0288574E+001	0.0000000E+000	0.0000000E+000	0.0000000E+000	2.8857550E-001	0.0000000E+000	0.0000000E+000	0.0000000E+000	-2.8857550E-001	1.9854526E+002	8.9711426E+001	-1.344117272596737E-006
1.5504379E+004	2.0831932E+001	-6.9255568E-002	2.0832047E+001	1.9047861E-001	2.049514788646484E+002	4.5031345E-001	-1.1348427E-002	-1.4822147E+002	-1.6381610E-003	1.000000000000000E+000	10	1.0091336E-002	4.8441408E-004	0	7.741975195807674E-005	4.8002701E-002	-1.5958455E-004	4.8002966E-002	-1.9047861E-001	-1.6381340E+000	4.9275543E+002	4.9275815E+002	-9.0190475E+001	0.0000000E+000	0.0000000E+000	0.0000000E+000	9.0190475E+001	0.0000000E+000	0.0000000E+000	0.0000000E+000	-9.0190475E+001	0.0000000E+000	0.0000000E+000	0.0000000E+000	1.9047861E-001	0.0000000E+000	0.0000000E+000	0.0000000E+000	-1.9047861E-001	3.0079794E+002	8.9809525E+001	-1.192194468824397E-006
1.0540381E+004	2.0829815E+001	-5.5966269E-002	2.0829889E+001	1.5394393E-001	2.052374814648647E+002	4.5032206E-001	-1.1311107E-002	-2.6979721E+002	-1.9476741E-003	1.000000000000000E+000	10	1.0844013E-002	5.2059867E-004	0	7.629470597129775E-005	4.8007760E-002	-1.2898893E-004	4.8007935E-002	-1.5394393E-001	-1.9476993E+000	7.2489532E+002	7.2489795E+002	-9.0153946E+001	0.0000000E+000	0.0000000E+000	0.0000000E+000	9.0153946E+001	0.0000000E+000	0.0000000E+000	0.0000000E+000	-9.0153946E+001	0.0000000E+000	0.0000000E+000	0.0000000E+000	1.5394393E-001	0.0000000E+000	0.0000000E+000	0.0000000E+000	-1.5394393E-001	3.7218515E+002	8.9846054E+001	-1.125045986778987E-006
7.1637817E+003	2.0819359E+001	-3.2271355E-002	2.0819384E+001	8.8812098E-002	2.057610879164422E+002	4.5031151E-001	-1.3225539E-002	-6.8843127E+002	-1.6540905E-003	1.000000000000000E+000	10	1.0186987E-002	4.8930303E-004	0	7.487747602020196E-005	4.8032105E-002	-7.4452873E-005	4.8032161E-002	-8.8812098E-002	-1.6541218E+000	1.0671105E+003	1.0671118E+003	-9.0088814E+001	0.0000000E+000	0.0000000E+000	0.0000000E+000	9.0088814E+001	0.0000000E+000	0.0000000E+000	0.0000000E+000	-9.0088814E+001	0.0000000E+000	0.0000000E+000	0.0000000E+000	8.8812098E-002	0.0000000E+000	0.0000000E+000	0.0000000E+000	-8.8812098E-002	6.4513434E+002	8.9911186E+001	-1.417229951095793E-006
4.8715591E+003	2.0864828E+001	-2.0976806E-002	2.0864840E+001	5.7603255E-002	2.062286909253380E+002	4.5035017E-001	-1.2219809E-002	-1.5574453E+003	-1.5742055E-003	1.000000000000000E+000	10	1.0381697E-002	4.9756898E-004	0	7.330594557314666E-005	4.7927491E-002	-4.8184709E-005	4.7927517E-002	-5.7603255E-002	-1.5741693E+000	1.5658022E+003	1.5658030E+003	-9.0057602E+001	0.0000000E+000	0.0000000E+000	0.0000000E+000	9.0057602E+001	0.0000000E+000	0.0000000E+000	0.0000000E+000	-9.0057602E+001	0.0000000E+000	0.0000000E+000	0.0000000E+000	5.7603255E-002	0.0000000E+000	0.0000000E+000	0.0000000E+000	-5.7603255E-002	9.9466180E+002	8.9942398E+001	-1.571530447055301E-006
3.3110596E+003	2.0842205E+001	1.9712893E-002	2.0842215E+001	-5.4191254E-002	2.066927027873753E+002	4.5034802E-001	-1.2505295E-002	2.4383879E+003	2.1813021E-003	1.000000000000000E+000	10	1.0468804E-002	5.0228846E-004	0	7.126655410589107E-005	4.7979522E-002	4.5379806E-005	4.7979545E-002	5.4191254E-002	2.1813157E+000	2.3062646E+003	2.3062656E+003	-8.9945808E+001	0.0000000E+000	0.0000000E+000	0.0000000E+000	8.9945808E+001	0.0000000E+000	0.0000000E+000	0.0000000E+000	-8.9945808E+001	0.0000000E+000	0.0000000E+000	0.0000000E+000	-5.4191254E-002	0.0000000E+000	0.0000000E+000	0.0000000E+000	5.4191254E-002	1.0572880E+003	8.9945808E+001	-2.039391467255583E-006
2.2507205E+003	2.0881479E+001	5.0774808E-003	2.0881479E+001	-1.3931878E-002	2.071576977694640E+002	4.5035544E-001	-1.3302041E-002	1.3926767E+004	8.2342559E-004	1.000000000000000E+000	10	1.0521892E-002	5.0388632E-004	0	6.992512159395846E-005	4.7889326E-002	1.1644632E-005	4.7889326E-002	1.3931878E-002	8.2338995E-001	3.3863928E+003	3.3863928E+003	-8.9986069E+001	0.0000000E+000	0.0000000E+000	0.0000000E+000	8.9986069E+001	0.0000000E+000	0.0000000E+000	0.0000000E+000	-8.9986069E+001	0.0000000E+000	0.0000000E+000	0.0000000E+000	-1.3931878E-002	0.0000000E+000	0.0000000E+000	0.0000000E+000	1.3931878E-002	4.1125669E+003	8.9986069E+001	-1.341432511932613E-006
1.5304901E+003	2.0890015E+001	1.8714482E-003	2.0890015E+001	-5.1328870E-003	2.076226950982164E+002	4.5035082E-001	-1.3316968E-002	5.5566340E+004	4.4595389E-004	1.000000000000000E+000	10	1.0545215E-002	5.0479692E-004	0	6.861620675137318E-005	4.7869761E-002	4.2884499E-006	4.7869761E-002	5.1328870E-003	4.4610116E-001	4.9779536E+003	4.9779536E+003	-8.9994865E+001	0.0000000E+000	0.0000000E+000	0.0000000E+000	8.9994865E+001	0.0000000E+000	0.0000000E+000	0.0000000E+000	-8.9994865E+001	0.0000000E+000	0.0000000E+000	0.0000000E+000	-5.1328870E-003	0.0000000E+000	0.0000000E+000	0.0000000E+000	5.1328870E-003	1.1162486E+004	8.9994865E+001	-1.308914842585281E-006
1.0403328E+003	2.0864498E+001	2.0254551E-002	2.0864508E+001	-5.5620793E-002	2.080876871736327E+002	4.5034504E-001	-1.3102388E-002	7.5530996E+003	7.1179378E-003	1.000000000000000E+000	10	1.0550147E-002	5.0565042E-004	0	6.678438612964318E-005	4.7928259E-002	4.6527137E-005	4.7928281E-002	5.5620793E-002	7.1176171E+000	7.3322881E+003	7.3322915E+003	-8.9944382E+001	0.0000000E+000	0.0000000E+000	0.0000000E+000	8.9944382E+001	0.0000000E+000	0.0000000E+000	0.0000000E+000	-8.9944382E+001	0.0000000E+000	0.0000000E+000	0.0000000E+000	-5.5620793E-002	0.0000000E+000	0.0000000E+000	0.0000000E+000	5.5620793E-002	1.0301141E+003	8.9944382E+001	-1.831820621729996E-006
7.0703625E+002	2.0850708E+001	7.3002316E-002	2.0850836E+001	-2.0060265E-001	2.085521771690110E+002	4.5035511E-001	-1.3861815E-002	3.0834846E+003	3.7797939E-002	1.000000000000000E+000	10	1.0541875E-002	5.0558522E-004	0	6.527716475996163E-005	4.7959413E-002	1.6791507E-004	4.7959708E-002	2.0060265E-001	3.7797375E+001	1.0795736E+004	1.0795803E+004	-8.9799400E+001	0.0000000E+000	0.0000000E+000	0.0000000E+000	8.9799400E+001	0.0000000E+000	0.0000000E+000	0.0000000E+000	-8.9799400E+001	0.0000000E+000	0.0000000E+000	0.0000000E+000	-2.0060265E-001	0.0000000E+000	0.0000000E+000	0.0000000E+000	2.0060265E-001	2.8561707E+002	8.9799400E+001	-1.507221369681549E-006
4.8076920E+002	2.0879061E+001	5.7969067E-002	2.0879141E+001	-1.5907681E-001	2.090174526844057E+002	4.5034415E-001	-1.4003625E-002	5.7106719E+003	4.4020459E-002	1.000000000000000E+000	10	1.0559484E-002	5.0574326E-004	0	6.356930261334572E-005	4.7894504E-002	1.3297533E-004	4.7894690E-002	1.5907681E-001	4.4021477E+001	1.5855106E+004	1.5855168E+004	-8.9840919E+001	0.0000000E+000	0.0000000E+000	0.0000000E+000	8.9840919E+001	0.0000000E+000	0.0000000E+000	0.0000000E+000	-8.9840919E+001	0.0000000E+000	0.0000000E+000	0.0000000E+000	-1.5907681E-001	0.0000000E+000	0.0000000E+000	0.0000000E+000	1.5907681E-001	3.6017590E+002	8.9840919E+001	-1.707862146615915E-006
3.2677771E+002	2.0895569E+001	8.9422390E-002	2.0895760E+001	-2.4519525E-001	2.094816481465132E+002	4.5034790E-001	-1.4287245E-002	5.4465493E+003	9.9746503E-002	1.000000000000000E+000	10	1.0566913E-002	5.0569652E-004	0	6.205231492679579E-005	4.7856160E-002	2.0479999E-004	4.7856599E-002	2.4519525E-001	9.9745766E+001	2.3308029E+004	2.3308242E+004	-8.9754807E+001	0.0000000E+000	0.0000000E+000	0.0000000E+000	8.9754807E+001	0.0000000E+000	0.0000000E+000	0.0000000E+000	-8.9754807E+001	0.0000000E+000	0.0000000E+000	0.0000000E+000	-2.4519525E-001	0.0000000E+000	0.0000000E+000	0.0000000E+000	2.4519525E-001	2.3367267E+002	8.9754807E+001	-1.516987686549928E-006
2.2206076E+002	2.0933180E+001	1.0569466E-001	2.0933447E+001	-2.8929225E-001	2.099428958750796E+002	4.5034489E-001	-1.4513020E-002	6.7810234E+003	1.7287008E-001	1.000000000000000E+000	10	1.0570927E-002	5.0497783E-004	0	5.964436577771104E-005	4.7769833E-002	2.4119682E-004	4.7770441E-002	2.8929225E-001	1.7286957E+002	3.4237496E+004	3.4237934E+004	-8.9710709E+001	0.0000000E+000	0.0000000E+000	0.0000000E+000	8.9710709E+001	0.0000000E+000	0.0000000E+000	0.0000000E+000	-8.9710709E+001	0.0000000E+000	0.0000000E+000	0.0000000E+000	-2.8929225E-001	0.0000000E+000	0.0000000E+000	0.0000000E+000	2.8929225E-001	1.9805333E+002	8.9710709E+001	-2.407949149084746E-006
1.5101485E+002	2.0935316E+001	1.8631242E-001	2.0936146E+001	-5.0988644E-001	2.104043932569330E+002	4.5034784E-001	-1.5223934E-002	5.6566421E+003	4.4796991E-001	1.000000000000000E+000	10	1.0575978E-002	5.0515402E-004	0	5.787326710088463E-005	4.7762390E-002	4.2505816E-004	4.7764283E-002	5.0988644E-001	4.4797101E+002	5.0336910E+004	5.0338902E+004	-8.9490112E+001	0.0000000E+000	0.0000000E+000	0.0000000E+000	8.9490112E+001	0.0000000E+000	0.0000000E+000	0.0000000E+000	-8.9490112E+001	0.0000000E+000	0.0000000E+000	0.0000000E+000	-5.0988644E-001	0.0000000E+000	0.0000000E+000	0.0000000E+000	5.0988644E-001	1.1236672E+002	8.9490112E+001	-1.771098676826415E-006
1.0266736E+002	2.0918137E+001	2.4034162E-001	2.0919518E+001	-6.5827829E-001	2.108793061861652E+002	4.5035660E-001	-1.4923521E-002	6.4499858E+003	8.5136026E-001	1.000000000000000E+000	10	1.0568802E-002	5.0521252E-004	0	5.592014062648620E-005	4.7799096E-002	5.4919388E-004	4.7802251E-002	6.5827829E-001	8.5136182E+002	7.4098156E+004	7.4103047E+004	-8.9341721E+001	0.0000000E+000	0.0000000E+000	0.0000000E+000	8.9341721E+001	0.0000000E+000	0.0000000E+000	0.0000000E+000	-8.9341721E+001	0.0000000E+000	0.0000000E+000	0.0000000E+000	-6.5827829E-001	0.0000000E+000	0.0000000E+000	0.0000000E+000	6.5827829E-001	8.7035019E+001	8.9341721E+001	-1.953126474398432E-006
6.9754463E+001	2.0944731E+001	3.3552957E-001	2.0947418E+001	-9.1778618E-001	2.116004641404143E+002	4.5033541E-001	2.1069350E-003	6.8001323E+003	1.7446886E+000	1.000000000000000E+000	11	1.0565753E-002	5.0439406E-004	0	5.542332860583298E-005	4.7732454E-002	7.6466252E-004	4.7738578E-002	9.1778618E-001	1.7446876E+003	1.0890853E+005	1.0892251E+005	-8.9082214E+001	0.0000000E+000	0.0000000E+000	0.0000000E+000	8.9082214E+001	0.0000000E+000	0.0000000E+000	0.0000000E+000	-8.9082214E+001	0.0000000E+000	0.0000000E+000	0.0000000E+000	-9.1778618E-001	0.0000000E+000	0.0000000E+000	0.0000000E+000	9.1778618E-001	6.2422905E+001	8.9082214E+001	-4.968120206532225E-007
4.7444328E+001	2.0987207E+001	4.8346916E-001	2.0992775E+001	-1.3196536E+000	2.120454554149183E+002	4.5032614E-001	2.0830606E-003	6.9385234E+003	3.6801448E+000	1.000000000000000E+000	11	1.0575433E-002	5.0376536E-004	0	5.512076550293002E-005	4.7622800E-002	1.0970567E-003	4.7635436E-002	1.3196536E+000	3.6801521E+003	1.5975363E+005	1.5979602E+005	-8.8680344E+001	0.0000000E+000	0.0000000E+000	0.0000000E+000	8.8680344E+001	0.0000000E+000	0.0000000E+000	0.0000000E+000	-8.8680344E+001	0.0000000E+000	0.0000000E+000	0.0000000E+000	-1.3196536E+000	0.0000000E+000	0.0000000E+000	0.0000000E+000	1.3196536E+000	4.3409611E+001	8.8680344E+001	-3.025631029029545E-007
3.2238655E+001	2.0976412E+001	7.0863116E-001	2.0988379E+001	-1.9348466E+000	2.124828711690498E+002	4.5031911E-001	2.2389898E-003	6.9666333E+003	7.9415574E+000	1.000000000000000E+000	11	1.0570253E-002	5.0362409E-004	0	5.540832703158311E-005	4.7618251E-002	1.6086535E-003	4.7645416E-002	1.9348466E+000	7.9415513E+003	2.3508053E+005	2.3521464E+005	-8.8065155E+001	0.0000000E+000	0.0000000E+000	0.0000000E+000	8.8065155E+001	0.0000000E+000	0.0000000E+000	0.0000000E+000	-8.8065155E+001	0.0000000E+000	0.0000000E+000	0.0000000E+000	-1.9348466E+000	0.0000000E+000	0.0000000E+000	0.0000000E+000	1.9348466E+000	2.9601313E+001	8.8065155E+001	2.875615286530901E-007
