EC-Lab ASCII FILE
Nb header lines : 63                          

Potentio Electrochemical Impedance Spectroscopy

Run on channel : 1 (SN 66412)
User : 
CE vs. WE compliance from -10 V to 10 V
Electrode connection : standard
Potential control : Ewe
Ewe ctrl range : min = -1.00 V, max = 1.00 V
Safety Limits :
	Do not start on E overload
Acquisition started on : 04/01/2024 19:24:04.746
Loaded Setting File :  C:\Users\NakamuraT\Documents\EC-Lab\Data\Yatsuzuka\20240328_2-129_UV-vis_K_Na_diff\20240328_2-129_001_preconditioning+CV_inK.mps
Saved on :
	File : 20240328_2-128_003_alpha_Na-1_02_PEIS_C01.mpr
	Directory : C:\Users\NakamuraT\Documents\EC-Lab\Data\Yatsuzuka\20240401_2-128_CV_cycles_alpha_gamma\
	Host : 192.109.209.100
Device : SP-150e (SN .003411)
Address : 192.109.209.236
EC-Lab for windows v11.50 (software)
Internet server v11.50 (firmware)
Command interpretor v11.50 (firmware)
Electrode material : 
Initial state : 
Electrolyte : 
Comments : 
Electrode surface area : 0.001 cm2
Characteristic mass : 0.001 g
Equivalent Weight : 0.000 g/eq.
Density : 0.000 g/cm3
Volume (V) : 0.001 cm3
Cycle Definition : Charge/Discharge alternance
Mode                Single sine         
E (V)               0.4500              
vs.                 Ref                 
tE (h:m:s)          0:00:0.0000         
record              0                   
dI                  0.000               
unit dI             mA                  
dt (s)              0.000               
fi                  500.000             
unit fi             kHz                 
ff                  1.000               
unit ff             Hz                  
Nd                  6                   
Points              per decade          
spacing             Logarithmic         
Va (mV)             10.0                
pw                  0.10                
Na                  2                   
corr                0                   
E range min (V)     -1.000              
E range max (V)     1.000               
I Range             Auto                
Bandwidth           5                   
nc cycles           0                   
goto Ns'            0                   
nr cycles           0                   
inc. cycle          0                   

freq/Hz	Re(Z)/Ohm	-Im(Z)/Ohm	|Z|/Ohm	Phase(Z)/deg	time/s	<Ewe>/V	<I>/mA	Cs/uF	Cp/uF	cycle number	I Range	|Ewe|/V	|I|/A	Ns	(Q-Qo)/mA.h	Re(Y)/Ohm-1	Im(Y)/Ohm-1	|Y|/Ohm-1	Phase(Y)/deg	Re(C)/nF	Im(C)/nF	|C|/nF	Phase(C)/deg	Re(M)	Im(M)	|M|	Phase(M)/deg	Re(Permittivity)	Im(Permittivity)	|Permittivity|	Phase(Permittivity)/deg	Re(Resistivity)/Ohm.cm	Im(Resistivity)/Ohm.cm	|Resistivity|/Ohm.cm	Phase(Resistivity)/deg	Re(Conductivity)/mS/cm	Im(Conductivity)/mS/cm	|Conductivity|/mS/cm	Phase(Conductivity)/deg	Tan(Delta)	Loss Angle(Delta)/deg	dq/mA.h	
5.0001856E+005	3.6377064E+001	-4.3835125E+000	3.6640224E+001	6.8711309E+000	2.007158773831761E+002	4.5044816E-001	1.2729292E-001	-7.2612561E-002	-1.0392978E-003	1.000000000000000E+000	11	7.7632470E-003	2.1187772E-004	0	5.671357301592717E-005	2.7096389E-002	-3.2651715E-003	2.7292410E-002	-6.8711309E+000	-1.0392979E+000	8.6247282E+000	8.6871214E+000	-9.6871132E+001	0.0000000E+000	0.0000000E+000	0.0000000E+000	9.6871132E+001	0.0000000E+000	0.0000000E+000	0.0000000E+000	-9.6871132E+001	0.0000000E+000	0.0000000E+000	0.0000000E+000	6.8711309E+000	0.0000000E+000	0.0000000E+000	0.0000000E+000	-6.8711309E+000	8.2986107E+000	8.3128868E+001	5.671357301592717E-005
3.3989941E+005	2.6342342E+001	-5.2865453E+000	2.6867575E+001	1.1347733E+001	2.014408697909530E+002	4.5031381E-001	3.2728889E-003	-8.8572271E-002	-3.4291362E-003	1.000000000000000E+000	10	9.9429553E-003	3.7007267E-004	0	6.076174030511498E-005	3.6491983E-002	-7.3234378E-003	3.7219584E-002	-1.1347733E+001	-3.4291363E+000	1.7087053E+001	1.7427748E+001	-1.0134773E+002	0.0000000E+000	0.0000000E+000	0.0000000E+000	1.0134773E+002	0.0000000E+000	0.0000000E+000	0.0000000E+000	-1.0134773E+002	0.0000000E+000	0.0000000E+000	0.0000000E+000	1.1347733E+001	0.0000000E+000	0.0000000E+000	0.0000000E+000	-1.1347733E+001	4.9829030E+000	7.8652267E+001	4.048167289187805E-006
2.3106258E+005	2.2111446E+001	-3.3141029E+000	2.2358429E+001	8.5241413E+000	2.018638765044016E+002	4.5027575E-001	-4.9278094E-003	-2.0783781E-001	-4.5663998E-003	1.000000000000000E+000	10	1.0651102E-002	4.7637973E-004	0	6.157187469374103E-005	4.4231798E-002	-6.6295406E-003	4.4725861E-002	-8.5241413E+000	-4.5663991E+000	3.0466679E+001	3.0806988E+001	-9.8524139E+001	0.0000000E+000	0.0000000E+000	0.0000000E+000	9.8524139E+001	0.0000000E+000	0.0000000E+000	0.0000000E+000	-9.8524139E+001	0.0000000E+000	0.0000000E+000	0.0000000E+000	8.5241413E+000	0.0000000E+000	0.0000000E+000	0.0000000E+000	-8.5241413E+000	6.6719251E+000	8.1475861E+001	8.101343886260555E-007
1.5707578E+005	2.0738663E+001	-1.8534274E+000	2.0821320E+001	5.1069922E+000	2.022858834844519E+002	4.5029005E-001	-8.1166588E-003	-5.4668266E-001	-4.3318160E-003	1.000000000000000E+000	10	1.0836085E-002	5.2043219E-004	0	5.970966813479512E-005	4.7837034E-002	-4.2752260E-003	4.8027694E-002	-5.1069922E+000	-4.3318181E+000	4.8470238E+001	4.8663422E+001	-9.5106995E+001	0.0000000E+000	0.0000000E+000	0.0000000E+000	9.5106995E+001	0.0000000E+000	0.0000000E+000	0.0000000E+000	-9.5106995E+001	0.0000000E+000	0.0000000E+000	0.0000000E+000	5.1069922E+000	0.0000000E+000	0.0000000E+000	0.0000000E+000	-5.1069922E+000	1.1189358E+001	8.4893005E+001	-1.862206558945916E-006
1.0678630E+005	2.0331457E+001	-1.1399249E+000	2.0363388E+001	3.2090456E+000	2.027088697445433E+002	4.5029029E-001	-1.0437858E-002	-1.3074600E+000	-4.0971399E-003	1.000000000000000E+000	10	1.0658428E-002	5.2341132E-004	0	5.801374936038499E-005	4.9030736E-002	-2.7490088E-003	4.9107742E-002	-3.2090456E+000	-4.0971394E+000	7.3075706E+001	7.3190475E+001	-9.3209045E+001	0.0000000E+000	0.0000000E+000	0.0000000E+000	9.3209045E+001	0.0000000E+000	0.0000000E+000	0.0000000E+000	-9.3209045E+001	0.0000000E+000	0.0000000E+000	0.0000000E+000	3.2090456E+000	0.0000000E+000	0.0000000E+000	0.0000000E+000	-3.2090456E+000	1.7835787E+001	8.6790955E+001	-1.695918774410126E-006
7.2595008E+004	2.0206863E+001	-7.0092988E-001	2.0219017E+001	1.9866630E+000	2.031308904578764E+002	4.5029470E-001	-1.1820502E-002	-3.1277988E+000	-3.7589616E-003	1.000000000000000E+000	10	1.0547233E-002	5.2164914E-004	0	5.647270097437690E-005	4.9428660E-002	-1.7145672E-003	4.9458388E-002	-1.9866630E+000	-3.7589629E+000	1.0836578E+002	1.0843096E+002	-9.1986664E+001	0.0000000E+000	0.0000000E+000	0.0000000E+000	9.1986664E+001	0.0000000E+000	0.0000000E+000	0.0000000E+000	-9.1986664E+001	0.0000000E+000	0.0000000E+000	0.0000000E+000	1.9866630E+000	0.0000000E+000	0.0000000E+000	0.0000000E+000	-1.9866630E+000	2.8828651E+001	8.8013336E+001	-1.541048386008095E-006
4.9352359E+004	2.0090343E+001	-4.5482945E-001	2.0095491E+001	1.2969095E+000	2.035528733846004E+002	4.5028958E-001	-1.2384009E-002	-7.0902839E+000	-3.6321478E-003	1.000000000000000E+000	10	1.0501458E-002	5.2257784E-004	0	5.525132712067312E-005	4.9749658E-002	-1.1262927E-003	4.9762405E-002	-1.2969095E+000	-3.6321580E+000	1.6043617E+002	1.6047728E+002	-9.1296913E+001	0.0000000E+000	0.0000000E+000	0.0000000E+000	9.1296913E+001	0.0000000E+000	0.0000000E+000	0.0000000E+000	-9.1296913E+001	0.0000000E+000	0.0000000E+000	0.0000000E+000	1.2969095E+000	0.0000000E+000	0.0000000E+000	0.0000000E+000	-1.2969095E+000	4.4171158E+001	8.8703087E+001	-1.221373853703780E-006
3.3551066E+004	2.0043692E+001	-3.2057175E-001	2.0046255E+001	9.1629034E-001	2.039748729779822E+002	4.5029137E-001	-1.2751594E-002	-1.4797507E+001	-3.7841867E-003	1.000000000000000E+000	10	1.0413237E-002	5.1946047E-004	0	5.390657268766921E-005	4.9878251E-002	-7.9773512E-004	4.9884629E-002	-9.1629034E-001	-3.7841859E+000	2.3660559E+002	2.3663585E+002	-9.0916290E+001	0.0000000E+000	0.0000000E+000	0.0000000E+000	9.0916290E+001	0.0000000E+000	0.0000000E+000	0.0000000E+000	-9.0916290E+001	0.0000000E+000	0.0000000E+000	0.0000000E+000	9.1629034E-001	0.0000000E+000	0.0000000E+000	0.0000000E+000	-9.1629034E-001	6.2524822E+001	8.9083710E+001	-1.344754433003902E-006
2.2806563E+004	1.9935909E+001	-2.1068305E-001	1.9937023E+001	6.0548025E-001	2.043968824380281E+002	4.5029372E-001	-1.3001627E-002	-3.3123077E+001	-3.6988717E-003	1.000000000000000E+000	10	1.0382155E-002	5.2074750E-004	0	5.198504209633554E-005	5.0155137E-002	-5.3004036E-004	5.0157938E-002	-6.0548025E-001	-3.6988947E+000	3.5000623E+002	3.5002576E+002	-9.0605484E+001	0.0000000E+000	0.0000000E+000	0.0000000E+000	9.0605484E+001	0.0000000E+000	0.0000000E+000	0.0000000E+000	-9.0605484E+001	0.0000000E+000	0.0000000E+000	0.0000000E+000	6.0548025E-001	0.0000000E+000	0.0000000E+000	0.0000000E+000	-6.0548025E-001	9.4625122E+001	8.9394516E+001	-1.921530591333671E-006
1.5504379E+004	2.0004562E+001	-1.2729247E-001	2.0004967E+001	3.6457801E-001	2.048188873647450E+002	4.5029303E-001	-1.3714408E-002	-8.0642334E+001	-3.2650724E-003	1.000000000000000E+000	10	1.0217781E-002	5.1076221E-004	0	5.008237879787662E-005	4.9986575E-002	-3.1807320E-004	4.9987588E-002	-3.6457801E-001	-3.2650747E+000	5.1312024E+002	5.1313062E+002	-9.0364578E+001	0.0000000E+000	0.0000000E+000	0.0000000E+000	9.0364578E+001	0.0000000E+000	0.0000000E+000	0.0000000E+000	-9.0364578E+001	0.0000000E+000	0.0000000E+000	0.0000000E+000	3.6457801E-001	0.0000000E+000	0.0000000E+000	0.0000000E+000	-3.6457801E-001	1.5715433E+002	8.9635422E+001	-1.902663298458920E-006
1.0540381E+004	2.0010275E+001	-9.5595464E-002	2.0010504E+001	2.7371812E-001	2.052408693047910E+002	4.5030099E-001	-1.4466371E-002	-1.5795253E+002	-3.6048323E-003	1.000000000000000E+000	10	1.0192608E-002	5.0936290E-004	0	4.854877165761637E-005	4.9973186E-002	-2.3873783E-004	4.9973756E-002	-2.7371812E-001	-3.6048541E+000	7.5457227E+002	7.5458087E+002	-9.0273720E+001	0.0000000E+000	0.0000000E+000	0.0000000E+000	9.0273720E+001	0.0000000E+000	0.0000000E+000	0.0000000E+000	-9.0273720E+001	0.0000000E+000	0.0000000E+000	0.0000000E+000	2.7371812E-001	0.0000000E+000	0.0000000E+000	0.0000000E+000	-2.7371812E-001	2.0932243E+002	8.9726280E+001	-1.533607140260254E-006
7.1637817E+003	1.9997841E+001	-5.2901283E-002	1.9997911E+001	1.5156703E-001	2.055974782550911E+002	4.5028579E-001	-1.6895793E-002	-4.1996356E+002	-2.9388317E-003	1.000000000000000E+000	10	1.0996763E-002	5.4989557E-004	0	4.692495657276272E-005	5.0005049E-002	-1.3228085E-004	5.0005224E-002	-1.5156703E-001	-2.9388034E+000	1.1109426E+003	1.1109465E+003	-9.0151566E+001	0.0000000E+000	0.0000000E+000	0.0000000E+000	9.0151566E+001	0.0000000E+000	0.0000000E+000	0.0000000E+000	-9.0151566E+001	0.0000000E+000	0.0000000E+000	0.0000000E+000	1.5156703E-001	0.0000000E+000	0.0000000E+000	0.0000000E+000	-1.5156703E-001	3.7802185E+002	8.9848434E+001	-1.623815084853651E-006
4.8715591E+003	2.0025589E+001	-3.3786587E-002	2.0025618E+001	9.6667670E-002	2.062880744479116E+002	4.5030865E-001	-1.5852747E-002	-9.6695856E+002	-2.7524831E-003	1.000000000000000E+000	10	1.0141936E-002	5.0644809E-004	0	4.486810424823327E-005	4.9935967E-002	-8.4250503E-005	4.9936038E-002	-9.6667670E-002	-2.7523909E+000	1.6314194E+003	1.6314218E+003	-9.0096664E+001	0.0000000E+000	0.0000000E+000	0.0000000E+000	9.0096664E+001	0.0000000E+000	0.0000000E+000	0.0000000E+000	-9.0096664E+001	0.0000000E+000	0.0000000E+000	0.0000000E+000	9.6667670E-002	0.0000000E+000	0.0000000E+000	0.0000000E+000	-9.6667670E-002	5.9270825E+002	8.9903336E+001	-2.056852324529452E-006
3.3110596E+003	1.9987167E+001	-1.1395650E-002	1.9987171E+001	3.2667086E-002	2.067530761766611E+002	4.5030764E-001	-1.6238993E-002	-4.2180728E+003	-1.3711646E-003	1.000000000000000E+000	10	1.0342116E-002	5.1743770E-004	0	4.273187096530698E-005	5.0032087E-002	-2.8525707E-005	5.0032094E-002	-3.2667086E-002	-1.3712476E+000	2.4049260E+003	2.4049265E+003	-9.0032669E+001	0.0000000E+000	0.0000000E+000	0.0000000E+000	9.0032669E+001	0.0000000E+000	0.0000000E+000	0.0000000E+000	-9.0032669E+001	0.0000000E+000	0.0000000E+000	0.0000000E+000	3.2667086E-002	0.0000000E+000	0.0000000E+000	0.0000000E+000	-3.2667086E-002	1.7539296E+003	8.9967331E+001	-2.136233282926289E-006
2.2507205E+003	2.0035000E+001	3.6667266E-003	2.0035000E+001	-1.0486048E-002	2.072180763587530E+002	4.5031226E-001	-1.7414520E-002	1.9285018E+004	6.4594927E-004	1.000000000000000E+000	10	1.0440527E-002	5.2111445E-004	0	4.029174085807851E-005	4.9912654E-002	9.1348174E-006	4.9912654E-002	1.0486048E-002	6.4574850E-001	3.5294678E+003	3.5294678E+003	-8.9989517E+001	0.0000000E+000	0.0000000E+000	0.0000000E+000	8.9989517E+001	0.0000000E+000	0.0000000E+000	0.0000000E+000	-8.9989517E+001	0.0000000E+000	0.0000000E+000	0.0000000E+000	-1.0486048E-002	0.0000000E+000	0.0000000E+000	0.0000000E+000	1.0486048E-002	5.4640015E+003	8.9989517E+001	-2.440130107228468E-006
1.5304901E+003	1.9986813E+001	9.3631884E-003	1.9986814E+001	-2.6841257E-002	2.076830663275032E+002	4.5030963E-001	-1.6977895E-002	1.1106209E+004	2.4373967E-003	1.000000000000000E+000	10	1.0485371E-002	5.2461441E-004	0	3.796367964829389E-005	5.0032981E-002	2.3438866E-005	5.0032984E-002	2.6841257E-002	2.4373016E+000	5.2029058E+003	5.2029063E+003	-8.9973160E+001	0.0000000E+000	0.0000000E+000	0.0000000E+000	8.9973160E+001	0.0000000E+000	0.0000000E+000	0.0000000E+000	-8.9973160E+001	0.0000000E+000	0.0000000E+000	0.0000000E+000	-2.6841257E-002	0.0000000E+000	0.0000000E+000	0.0000000E+000	2.6841257E-002	2.1346160E+003	8.9973160E+001	-2.328061209784618E-006
1.0403328E+003	2.0010714E+001	2.6677839E-002	2.0010731E+001	-7.6385424E-002	2.081481086162530E+002	4.5031577E-001	-1.7438777E-002	5.7345220E+003	1.0192310E-002	1.000000000000000E+000	10	1.0513631E-002	5.2539964E-004	0	3.612911968695699E-005	4.9973141E-002	6.6623092E-005	4.9973186E-002	7.6385424E-002	1.0192320E+001	7.6451235E+003	7.6451304E+003	-8.9923615E+001	0.0000000E+000	0.0000000E+000	0.0000000E+000	8.9923615E+001	0.0000000E+000	0.0000000E+000	0.0000000E+000	-8.9923615E+001	0.0000000E+000	0.0000000E+000	0.0000000E+000	-7.6385424E-002	0.0000000E+000	0.0000000E+000	0.0000000E+000	7.6385424E-002	7.5008746E+002	8.9923615E+001	-1.834559961336905E-006
7.0703625E+002	2.0022902E+001	3.6343835E-002	2.0022934E+001	-1.0399822E-001	2.086125507982651E+002	4.5031038E-001	-1.7504083E-002	6.1936646E+003	2.0405807E-002	1.000000000000000E+000	10	1.0527260E-002	5.2576012E-004	0	3.381993232464528E-005	4.9942650E-002	9.0651571E-005	4.9942732E-002	1.0399822E-001	2.0405424E+001	1.1242166E+004	1.1242185E+004	-8.9896004E+001	0.0000000E+000	0.0000000E+000	0.0000000E+000	8.9896004E+001	0.0000000E+000	0.0000000E+000	0.0000000E+000	-8.9896004E+001	0.0000000E+000	0.0000000E+000	0.0000000E+000	-1.0399822E-001	0.0000000E+000	0.0000000E+000	0.0000000E+000	1.0399822E-001	5.5092981E+002	8.9896004E+001	-2.309187362311709E-006
4.8076920E+002	2.0066072E+001	8.2633659E-002	2.0066242E+001	-2.3594718E-001	2.090778317536897E+002	4.5031723E-001	-1.8011613E-002	4.0061433E+003	6.7937315E-002	1.000000000000000E+000	10	1.0545135E-002	5.2551623E-004	0	3.136386227199586E-005	4.9834520E-002	2.0522244E-004	4.9834941E-002	2.3594718E-001	6.7937157E+001	1.6497332E+004	1.6497473E+004	-8.9764053E+001	0.0000000E+000	0.0000000E+000	0.0000000E+000	8.9764053E+001	0.0000000E+000	0.0000000E+000	0.0000000E+000	-8.9764053E+001	0.0000000E+000	0.0000000E+000	0.0000000E+000	-2.3594718E-001	0.0000000E+000	0.0000000E+000	0.0000000E+000	2.3594718E-001	2.4283171E+002	8.9764053E+001	-2.456070052649416E-006
3.2677771E+002	2.0022308E+001	1.1331012E-001	2.0022629E+001	-3.2424444E-001	2.095410574024208E+002	4.5032072E-001	-1.8103043E-002	4.2983228E+003	1.3765571E-001	1.000000000000000E+000	10	1.0540138E-002	5.2641128E-004	0	2.915182278648960E-005	4.9942691E-002	2.8263536E-004	4.9943492E-002	3.2424444E-001	1.3765451E+002	2.4324262E+004	2.4324650E+004	-8.9675758E+001	0.0000000E+000	0.0000000E+000	0.0000000E+000	8.9675758E+001	0.0000000E+000	0.0000000E+000	0.0000000E+000	-8.9675758E+001	0.0000000E+000	0.0000000E+000	0.0000000E+000	-3.2424444E-001	0.0000000E+000	0.0000000E+000	0.0000000E+000	3.2424444E-001	1.7670361E+002	8.9675758E+001	-2.212039485506263E-006
2.2206076E+002	1.9958094E+001	1.6484594E-001	1.9958775E+001	-4.7322965E-001	2.100022809176444E+002	4.5030746E-001	-1.8489286E-002	4.3478047E+003	2.9659158E-001	1.000000000000000E+000	10	1.0546639E-002	5.2842114E-004	0	2.654210321894950E-005	5.0101567E-002	4.1381907E-004	5.0103277E-002	4.7322965E-001	2.9659082E+002	3.5908691E+004	3.5909918E+004	-8.9526772E+001	0.0000000E+000	0.0000000E+000	0.0000000E+000	8.9526772E+001	0.0000000E+000	0.0000000E+000	0.0000000E+000	-8.9526772E+001	0.0000000E+000	0.0000000E+000	0.0000000E+000	-4.7322965E-001	0.0000000E+000	0.0000000E+000	0.0000000E+000	4.7322965E-001	1.2107118E+002	8.9526772E+001	-2.609719567540096E-006
1.5101485E+002	1.9922691E+001	2.1305895E-001	1.9923830E+001	-6.1271405E-001	2.104638086195191E+002	4.5031887E-001	-1.8528471E-002	4.9465308E+003	5.6565887E-001	1.000000000000000E+000	10	1.0549445E-002	5.2948878E-004	0	2.433922585273467E-005	5.0188284E-002	5.3672784E-004	5.0191153E-002	6.1271405E-001	5.6566132E+002	5.2893566E+004	5.2896590E+004	-8.9387283E+001	0.0000000E+000	0.0000000E+000	0.0000000E+000	8.9387283E+001	0.0000000E+000	0.0000000E+000	0.0000000E+000	-8.9387283E+001	0.0000000E+000	0.0000000E+000	0.0000000E+000	-6.1271405E-001	0.0000000E+000	0.0000000E+000	0.0000000E+000	6.1271405E-001	9.3507881E+001	8.9387283E+001	-2.202877366214830E-006
1.0266736E+002	1.9998253E+001	2.8329596E-001	2.0000259E+001	-8.1159979E-001	2.109386823487439E+002	4.5031983E-001	-1.8254181E-002	5.4720156E+003	1.0978850E+000	1.000000000000000E+000	10	1.0554556E-002	5.2772096E-004	0	2.234869561337918E-005	4.9994338E-002	7.0822157E-004	4.9999353E-002	8.1159979E-001	1.0978849E+003	7.7501219E+004	7.7508992E+004	-8.9188400E+001	0.0000000E+000	0.0000000E+000	0.0000000E+000	8.9188400E+001	0.0000000E+000	0.0000000E+000	0.0000000E+000	-8.9188400E+001	0.0000000E+000	0.0000000E+000	0.0000000E+000	-8.1159979E-001	0.0000000E+000	0.0000000E+000	0.0000000E+000	8.1159979E-001	7.0591377E+001	8.9188400E+001	-1.990530239355495E-006
6.9754463E+001	2.0042482E+001	4.3642038E-001	2.0047234E+001	-1.2474052E+000	2.114058534375945E+002	4.5031920E-001	-1.8972559E-002	5.2280908E+003	2.4776745E+000	1.000000000000000E+000	10	1.0556506E-002	5.2658166E-004	0	2.011956546091824E-005	4.9870376E-002	1.0859158E-003	4.9882196E-002	1.2474052E+000	2.4776763E+003	1.1378651E+005	1.1381348E+005	-8.8752594E+001	0.0000000E+000	0.0000000E+000	0.0000000E+000	8.8752594E+001	0.0000000E+000	0.0000000E+000	0.0000000E+000	-8.8752594E+001	0.0000000E+000	0.0000000E+000	0.0000000E+000	-1.2474052E+000	0.0000000E+000	0.0000000E+000	0.0000000E+000	1.2474052E+000	4.5924717E+001	8.8752594E+001	-2.229130152460941E-006
4.7444328E+001	2.0160170E+001	6.3568902E-001	2.0170189E+001	-1.8060480E+000	2.120938286969758E+002	4.5029828E-001	-1.2421954E-003	5.2770488E+003	5.2415605E+000	1.000000000000000E+000	11	1.0556963E-002	5.2339438E-004	0	1.868596248297157E-005	4.9553491E-002	1.5625171E-003	4.9578119E-002	1.8060480E+000	5.2415532E+003	1.6623025E+005	1.6631288E+005	-8.8193954E+001	0.0000000E+000	0.0000000E+000	0.0000000E+000	8.8193954E+001	0.0000000E+000	0.0000000E+000	0.0000000E+000	-8.8193954E+001	0.0000000E+000	0.0000000E+000	0.0000000E+000	-1.8060480E+000	0.0000000E+000	0.0000000E+000	0.0000000E+000	1.8060480E+000	3.1713886E+001	8.8193954E+001	-1.433602977946671E-006
3.2238655E+001	2.0145584E+001	8.7169033E-001	2.0164434E+001	-2.4776170E+000	2.125312432510982E+002	4.5030513E-001	-9.1000955E-005	5.6634487E+003	1.0583598E+001	1.000000000000000E+000	11	1.0559331E-002	5.2366115E-004	0	1.876016513668583E-005	4.9545906E-002	2.1438291E-003	4.9592268E-002	2.4776170E+000	1.0583591E+004	2.4459692E+005	2.4482578E+005	-8.7522385E+001	0.0000000E+000	0.0000000E+000	0.0000000E+000	8.7522385E+001	0.0000000E+000	0.0000000E+000	0.0000000E+000	-8.7522385E+001	0.0000000E+000	0.0000000E+000	0.0000000E+000	-2.4776170E+000	0.0000000E+000	0.0000000E+000	0.0000000E+000	2.4776170E+000	2.3110941E+001	8.7522385E+001	7.420265371426080E-008
