EC-Lab ASCII FILE
Nb header lines : 63                          

Potentio Electrochemical Impedance Spectroscopy

Run on channel : 1 (SN 66412)
User : 
CE vs. WE compliance from -10 V to 10 V
Electrode connection : standard
Potential control : Ewe
Ewe ctrl range : min = -1.00 V, max = 1.00 V
Safety Limits :
	Do not start on E overload
Acquisition started on : 04/01/2024 19:56:53.320
Loaded Setting File :  C:\Users\NakamuraT\Documents\EC-Lab\Data\Yatsuzuka\20240328_2-129_UV-vis_K_Na_diff\20240328_2-129_001_preconditioning+CV_inK.mps
Saved on :
	File : 20240328_2-128_005_alpha_K-2_02_PEIS_C01.mpr
	Directory : C:\Users\NakamuraT\Documents\EC-Lab\Data\Yatsuzuka\20240401_2-128_CV_cycles_alpha_gamma\
	Host : 192.109.209.100
Device : SP-150e (SN .003411)
Address : 192.109.209.236
EC-Lab for windows v11.50 (software)
Internet server v11.50 (firmware)
Command interpretor v11.50 (firmware)
Electrode material : 
Initial state : 
Electrolyte : 
Comments : 
Electrode surface area : 0.001 cm2
Characteristic mass : 0.001 g
Equivalent Weight : 0.000 g/eq.
Density : 0.000 g/cm3
Volume (V) : 0.001 cm3
Cycle Definition : Charge/Discharge alternance
Mode                Single sine         
E (V)               0.4500              
vs.                 Ref                 
tE (h:m:s)          0:00:0.0000         
record              0                   
dI                  0.000               
unit dI             mA                  
dt (s)              0.000               
fi                  500.000             
unit fi             kHz                 
ff                  1.000               
unit ff             Hz                  
Nd                  6                   
Points              per decade          
spacing             Logarithmic         
Va (mV)             10.0                
pw                  0.10                
Na                  2                   
corr                0                   
E range min (V)     -1.000              
E range max (V)     1.000               
I Range             Auto                
Bandwidth           5                   
nc cycles           0                   
goto Ns'            0                   
nr cycles           0                   
inc. cycle          0                   

freq/Hz	Re(Z)/Ohm	-Im(Z)/Ohm	|Z|/Ohm	Phase(Z)/deg	time/s	<Ewe>/V	<I>/mA	Cs/uF	Cp/uF	cycle number	I Range	|Ewe|/V	|I|/A	Ns	(Q-Qo)/mA.h	Re(Y)/Ohm-1	Im(Y)/Ohm-1	|Y|/Ohm-1	Phase(Y)/deg	Re(C)/nF	Im(C)/nF	|C|/nF	Phase(C)/deg	Re(M)	Im(M)	|M|	Phase(M)/deg	Re(Permittivity)	Im(Permittivity)	|Permittivity|	Phase(Permittivity)/deg	Re(Resistivity)/Ohm.cm	Im(Resistivity)/Ohm.cm	|Resistivity|/Ohm.cm	Phase(Resistivity)/deg	Re(Conductivity)/mS/cm	Im(Conductivity)/mS/cm	|Conductivity|/mS/cm	Phase(Conductivity)/deg	Tan(Delta)	Loss Angle(Delta)/deg	dq/mA.h	
5.0001856E+005	3.4961868E+001	-4.0060863E-001	3.4964165E+001	6.5649176E-001	2.006658890111285E+002	4.5042947E-001	1.0444418E-001	-7.9453623E-001	-1.0430569E-004	1.000000000000000E+000	11	8.1642708E-003	2.3350395E-004	0	4.937938036862599E-005	2.8598834E-002	-3.2769813E-004	2.8600711E-002	-6.5649176E-001	-1.0430607E-001	9.1029539E+000	9.1035519E+000	-9.0656494E+001	0.0000000E+000	0.0000000E+000	0.0000000E+000	9.0656494E+001	0.0000000E+000	0.0000000E+000	0.0000000E+000	-9.0656494E+001	0.0000000E+000	0.0000000E+000	0.0000000E+000	6.5649176E-001	0.0000000E+000	0.0000000E+000	0.0000000E+000	-6.5649176E-001	8.7271881E+001	8.9343506E+001	4.937938036862599E-005
3.3989941E+005	2.5851469E+001	-2.8161645E+000	2.6004408E+001	6.2170773E+000	2.015268731853721E+002	4.5028800E-001	-2.1823977E-004	-1.6626915E-001	-1.9499963E-003	1.000000000000000E+000	10	9.8607512E-003	3.7919538E-004	0	5.227721706391215E-005	3.8228855E-002	-4.1645118E-003	3.8455021E-002	-6.2170773E+000	-1.9499969E+000	1.7900328E+001	1.8006227E+001	-9.6217079E+001	0.0000000E+000	0.0000000E+000	0.0000000E+000	9.6217079E+001	0.0000000E+000	0.0000000E+000	0.0000000E+000	-9.6217079E+001	0.0000000E+000	0.0000000E+000	0.0000000E+000	6.2170773E+000	0.0000000E+000	0.0000000E+000	0.0000000E+000	-6.2170773E+000	9.1796732E+000	8.3782921E+001	2.897836695286164E-006
2.3106258E+005	2.1858931E+001	-1.9247251E+000	2.1943504E+001	5.0320368E+000	2.019488869120396E+002	4.5026335E-001	-5.8831582E-003	-3.5786712E-001	-2.7532601E-003	1.000000000000000E+000	10	1.0787033E-002	4.9158209E-004	0	5.142725486521764E-005	4.5395933E-002	-3.9972081E-003	4.5571573E-002	-5.0320368E+000	-2.7532599E+000	3.1268530E+001	3.1389511E+001	-9.5032036E+001	0.0000000E+000	0.0000000E+000	0.0000000E+000	9.5032036E+001	0.0000000E+000	0.0000000E+000	0.0000000E+000	-9.5032036E+001	0.0000000E+000	0.0000000E+000	0.0000000E+000	5.0320368E+000	0.0000000E+000	0.0000000E+000	0.0000000E+000	-5.0320368E+000	1.1356911E+001	8.4967964E+001	-8.499621986945117E-007
1.5707578E+005	2.0501495E+001	-1.0666965E+000	2.0529226E+001	2.9784241E+000	2.023708701321302E+002	4.5026132E-001	-8.9973696E-003	-9.4988281E-001	-2.5645231E-003	1.000000000000000E+000	10	1.0957950E-002	5.3377316E-004	0	4.971655182271368E-005	4.8645243E-002	-2.5310209E-003	4.8711043E-002	-2.9784241E+000	-2.5645230E+000	4.9289143E+001	4.9355812E+001	-9.2978424E+001	0.0000000E+000	0.0000000E+000	0.0000000E+000	9.2978424E+001	0.0000000E+000	0.0000000E+000	0.0000000E+000	-9.2978424E+001	0.0000000E+000	0.0000000E+000	0.0000000E+000	2.9784241E+000	0.0000000E+000	0.0000000E+000	0.0000000E+000	-2.9784241E+000	1.9219614E+001	8.7021576E+001	-1.710703042503963E-006
1.0678630E+005	2.0084419E+001	-6.1689085E-001	2.0093891E+001	1.7592808E+000	2.027928815388150E+002	4.5026594E-001	-1.0740136E-002	-2.4159966E+000	-2.2771144E-003	1.000000000000000E+000	10	1.0735881E-002	5.3428579E-004	0	4.851483137507522E-005	4.9742911E-002	-1.5278483E-003	4.9766369E-002	-1.7592808E+000	-2.2771099E+000	7.4137131E+001	7.4172096E+001	-9.1759277E+001	0.0000000E+000	0.0000000E+000	0.0000000E+000	9.1759277E+001	0.0000000E+000	0.0000000E+000	0.0000000E+000	-9.1759277E+001	0.0000000E+000	0.0000000E+000	0.0000000E+000	1.7592808E+000	0.0000000E+000	0.0000000E+000	0.0000000E+000	-1.7592808E+000	3.2557491E+001	8.8240723E+001	-1.201720447638461E-006
7.2595008E+004	1.9877241E+001	-3.8019711E-001	1.9880877E+001	1.0957775E+000	2.032148815588589E+002	4.5027283E-001	-1.1967909E-002	-5.7663980E+000	-2.1088764E-003	1.000000000000000E+000	10	1.0522555E-002	5.2928022E-004	0	4.687676487335961E-005	5.0290395E-002	-9.6191734E-004	5.0299592E-002	-1.0957775E+000	-2.1088800E+000	1.1025504E+002	1.1027520E+002	-9.1095779E+001	0.0000000E+000	0.0000000E+000	0.0000000E+000	9.1095779E+001	0.0000000E+000	0.0000000E+000	0.0000000E+000	-9.1095779E+001	0.0000000E+000	0.0000000E+000	0.0000000E+000	1.0957775E+000	0.0000000E+000	0.0000000E+000	0.0000000E+000	-1.0957775E+000	5.2281410E+001	8.8904221E+001	-1.638066501715606E-006
4.9352359E+004	1.9768112E+001	-2.4826892E-001	1.9769670E+001	7.1954334E-001	2.036368696855643E+002	4.5026511E-001	-1.2843023E-002	-1.2989423E+001	-2.0484987E-003	1.000000000000000E+000	10	1.0451131E-002	5.2864465E-004	0	4.516120158373896E-005	5.0578542E-002	-6.3521898E-004	5.0582532E-002	-7.1954334E-001	-2.0484991E+000	1.6310924E+002	1.6312210E+002	-9.0719543E+001	0.0000000E+000	0.0000000E+000	0.0000000E+000	9.0719543E+001	0.0000000E+000	0.0000000E+000	0.0000000E+000	-9.0719543E+001	0.0000000E+000	0.0000000E+000	0.0000000E+000	7.1954334E-001	0.0000000E+000	0.0000000E+000	0.0000000E+000	-7.1954334E-001	7.9623787E+001	8.9280457E+001	-1.715563289620656E-006
3.3551066E+004	1.9714962E+001	-1.6041102E-001	1.9715614E+001	4.6617749E-001	2.040588690122968E+002	4.5026854E-001	-1.3733067E-002	-2.9571928E+001	-1.9576154E-003	1.000000000000000E+000	10	1.0408697E-002	5.2794180E-004	0	4.267537711802288E-005	5.0719541E-002	-4.1268015E-004	5.0721221E-002	-4.6617749E-001	-1.9576212E+000	2.4059639E+002	2.4060435E+002	-9.0466179E+001	0.0000000E+000	0.0000000E+000	0.0000000E+000	9.0466179E+001	0.0000000E+000	0.0000000E+000	0.0000000E+000	-9.0466179E+001	0.0000000E+000	0.0000000E+000	0.0000000E+000	4.6617749E-001	0.0000000E+000	0.0000000E+000	0.0000000E+000	-4.6617749E-001	1.2290279E+002	8.9533821E+001	-2.485824465716077E-006
2.2806563E+004	1.9684538E+001	-1.1550175E-001	1.9684877E+001	3.3618703E-001	2.044808826323278E+002	4.5027134E-001	-1.4436517E-002	-6.0418747E+001	-2.0800962E-003	1.000000000000000E+000	10	1.0208977E-002	5.1862031E-004	0	4.077977138081203E-005	5.0799541E-002	-2.9807331E-004	5.0800417E-002	-3.3618703E-001	-2.0801101E+000	3.5450317E+002	3.5450928E+002	-9.0336189E+001	0.0000000E+000	0.0000000E+000	0.0000000E+000	9.0336189E+001	0.0000000E+000	0.0000000E+000	0.0000000E+000	-9.0336189E+001	0.0000000E+000	0.0000000E+000	0.0000000E+000	3.3618703E-001	0.0000000E+000	0.0000000E+000	0.0000000E+000	-3.3618703E-001	1.7042632E+002	8.9663811E+001	-1.895605737210846E-006
1.5504379E+004	1.9663818E+001	-7.4817903E-002	1.9663961E+001	2.1800086E-001	2.049028786256822E+002	4.5026749E-001	-1.4947778E-002	-1.3720193E+002	-1.9862289E-003	1.000000000000000E+000	10	1.0181026E-002	5.1775051E-004	0	3.923633222283509E-005	5.0854083E-002	-1.9349222E-004	5.0854452E-002	-2.1800086E-001	-1.9862422E+000	5.2202539E+002	5.2202917E+002	-9.0218002E+001	0.0000000E+000	0.0000000E+000	0.0000000E+000	9.0218002E+001	0.0000000E+000	0.0000000E+000	0.0000000E+000	-9.0218002E+001	0.0000000E+000	0.0000000E+000	0.0000000E+000	2.1800086E-001	0.0000000E+000	0.0000000E+000	0.0000000E+000	-2.1800086E-001	2.6282236E+002	8.9781998E+001	-1.543439157976940E-006
1.0540381E+004	1.9670202E+001	-5.3552292E-002	1.9670275E+001	1.5598786E-001	2.053248704857688E+002	4.5027739E-001	-1.5072796E-002	-2.8195886E+002	-2.0898785E-003	1.000000000000000E+000	10	1.0144615E-002	5.1573326E-004	0	3.737196986559300E-005	5.0837941E-002	-1.3840673E-004	5.0838131E-002	-1.5598786E-001	-2.0899153E+000	7.6762976E+002	7.6763263E+002	-9.0155991E+001	0.0000000E+000	0.0000000E+000	0.0000000E+000	9.0155991E+001	0.0000000E+000	0.0000000E+000	0.0000000E+000	-9.0155991E+001	0.0000000E+000	0.0000000E+000	0.0000000E+000	1.5598786E-001	0.0000000E+000	0.0000000E+000	0.0000000E+000	-1.5598786E-001	3.6730832E+002	8.9844009E+001	-1.864362357242093E-006
7.1637817E+003	1.9689821E+001	-2.7004957E-002	1.9689840E+001	7.8582183E-002	2.056814595960459E+002	4.5024833E-001	-1.6546868E-002	-8.2268634E+002	-1.5475223E-003	1.000000000000000E+000	10	1.0597960E-002	5.3824508E-004	0	3.613982418974694E-005	5.0787564E-002	-6.9656096E-005	5.0787613E-002	-7.8582183E-002	-1.5475339E+000	1.1283276E+003	1.1283287E+003	-9.0078583E+001	0.0000000E+000	0.0000000E+000	0.0000000E+000	9.0078583E+001	0.0000000E+000	0.0000000E+000	0.0000000E+000	-9.0078583E+001	0.0000000E+000	0.0000000E+000	0.0000000E+000	7.8582183E-002	0.0000000E+000	0.0000000E+000	0.0000000E+000	-7.8582183E-002	7.2911877E+002	8.9921417E+001	-1.232145675846065E-006
4.8715591E+003	1.9672480E+001	-1.3403662E-002	1.9672483E+001	3.9037947E-002	2.061491047916134E+002	4.5029902E-001	-1.5669886E-002	-2.4374104E+003	-1.1315071E-003	1.000000000000000E+000	10	1.0819862E-002	5.4999976E-004	0	3.367176210783105E-005	5.0832413E-002	-3.4634199E-005	5.0832424E-002	-3.9037947E-002	-1.1315554E+000	1.6607065E+003	1.6607069E+003	-9.0039040E+001	0.0000000E+000	0.0000000E+000	0.0000000E+000	9.0039040E+001	0.0000000E+000	0.0000000E+000	0.0000000E+000	-9.0039040E+001	0.0000000E+000	0.0000000E+000	0.0000000E+000	3.9037947E-002	0.0000000E+000	0.0000000E+000	0.0000000E+000	-3.9037947E-002	1.4676943E+003	8.9960960E+001	-2.468062081915886E-006
3.3110596E+003	1.9690533E+001	6.1246781E-003	1.9690533E+001	-1.7821671E-002	2.066140966003659E+002	4.5029536E-001	-1.6020678E-002	7.8481968E+003	7.5931416E-004	1.000000000000000E+000	10	1.0937462E-002	5.5546802E-004	0	3.171529565809113E-005	5.0785825E-002	1.5796772E-005	5.0785828E-002	1.7821671E-002	7.5933939E-001	2.4411567E+003	2.4411567E+003	-8.9982178E+001	0.0000000E+000	0.0000000E+000	0.0000000E+000	8.9982178E+001	0.0000000E+000	0.0000000E+000	0.0000000E+000	-8.9982178E+001	0.0000000E+000	0.0000000E+000	0.0000000E+000	-1.7821671E-002	0.0000000E+000	0.0000000E+000	0.0000000E+000	1.7821671E-002	3.2149497E+003	8.9982178E+001	-1.956466449739917E-006
2.2507205E+003	1.9675587E+001	2.1626808E-002	1.9675598E+001	-6.2977761E-002	2.070790949691218E+002	4.5029244E-001	-1.6796898E-002	3.2696868E+003	3.9503458E-003	1.000000000000000E+000	10	1.0994649E-002	5.5879616E-004	0	2.915295671399185E-005	5.0824348E-002	5.5864584E-005	5.0824378E-002	6.2977761E-002	3.9505270E+000	3.5939360E+003	3.5939382E+003	-8.9937019E+001	0.0000000E+000	0.0000000E+000	0.0000000E+000	8.9937019E+001	0.0000000E+000	0.0000000E+000	0.0000000E+000	-8.9937019E+001	0.0000000E+000	0.0000000E+000	0.0000000E+000	-6.2977761E-002	0.0000000E+000	0.0000000E+000	0.0000000E+000	6.2977761E-002	9.0977765E+002	8.9937019E+001	-2.562338944099286E-006
1.5304901E+003	1.9667116E+001	2.1417629E-002	1.9667128E+001	-6.2395487E-002	2.077670899084624E+002	4.5029581E-001	-1.7011482E-002	4.8553242E+003	5.7580993E-003	1.000000000000000E+000	10	1.0039882E-002	5.1049050E-004	0	2.509933869073090E-005	5.0846238E-002	5.5371915E-005	5.0846267E-002	6.2395487E-002	5.7578869E+000	5.2874761E+003	5.2874790E+003	-8.9937607E+001	0.0000000E+000	0.0000000E+000	0.0000000E+000	8.9937607E+001	0.0000000E+000	0.0000000E+000	0.0000000E+000	-8.9937607E+001	0.0000000E+000	0.0000000E+000	0.0000000E+000	-6.2395487E-002	0.0000000E+000	0.0000000E+000	0.0000000E+000	6.2395487E-002	9.1826764E+002	8.9937607E+001	-4.053618023260948E-006
1.0403328E+003	1.9676416E+001	4.6582762E-002	1.9676472E+001	-1.3564414E-001	2.082320831572142E+002	4.5029408E-001	-1.6393863E-002	3.2841475E+003	1.8406814E-002	1.000000000000000E+000	10	1.0057792E-002	5.1115832E-004	0	2.323247036990425E-005	5.0821979E-002	1.2031804E-004	5.0822120E-002	1.3564414E-001	1.8406660E+001	7.7749819E+003	7.7750039E+003	-8.9864357E+001	0.0000000E+000	0.0000000E+000	0.0000000E+000	8.9864357E+001	0.0000000E+000	0.0000000E+000	0.0000000E+000	-8.9864357E+001	0.0000000E+000	0.0000000E+000	0.0000000E+000	-1.3564414E-001	0.0000000E+000	0.0000000E+000	0.0000000E+000	1.3564414E-001	4.2239694E+002	8.9864357E+001	-1.866868320826648E-006
7.0703625E+002	1.9681881E+001	5.1169474E-002	1.9681948E+001	-1.4895874E-001	2.086965770459065E+002	4.5029417E-001	-1.7601112E-002	4.3991367E+003	2.9733993E-002	1.000000000000000E+000	10	1.0060699E-002	5.1116379E-004	0	2.097821482780758E-005	5.0807808E-002	1.3209147E-004	5.0807979E-002	1.4895874E-001	2.9733507E+001	1.1436915E+004	1.1436954E+004	-8.9851044E+001	0.0000000E+000	0.0000000E+000	0.0000000E+000	8.9851044E+001	0.0000000E+000	0.0000000E+000	0.0000000E+000	-8.9851044E+001	0.0000000E+000	0.0000000E+000	0.0000000E+000	-1.4895874E-001	0.0000000E+000	0.0000000E+000	0.0000000E+000	1.4895874E-001	3.8464105E+002	8.9851044E+001	-2.254255542096671E-006
4.8076920E+002	1.9698195E+001	7.6364100E-002	1.9698343E+001	-2.2211775E-001	2.091618105346715E+002	4.5028749E-001	-1.7733593E-002	4.3350513E+003	6.5149836E-002	1.000000000000000E+000	10	1.0068699E-002	5.1114446E-004	0	1.870249954989574E-005	5.0765309E-002	1.9680215E-004	5.0765689E-002	2.2211775E-001	6.5148903E+001	1.6805465E+004	1.6805592E+004	-8.9777885E+001	0.0000000E+000	0.0000000E+000	0.0000000E+000	8.9777885E+001	0.0000000E+000	0.0000000E+000	0.0000000E+000	-8.9777885E+001	0.0000000E+000	0.0000000E+000	0.0000000E+000	-2.2211775E-001	0.0000000E+000	0.0000000E+000	0.0000000E+000	2.2211775E-001	2.5795099E+002	8.9777885E+001	-2.275715277911836E-006
3.2677771E+002	1.9703026E+001	1.1672240E-001	1.9703371E+001	-3.3942112E-001	2.096250674633775E+002	4.5029253E-001	-1.8259780E-002	4.1726646E+003	1.4643365E-001	1.000000000000000E+000	10	1.0065512E-002	5.1085226E-004	0	1.656981969637855E-005	5.0751846E-002	3.0065828E-004	5.0752737E-002	3.3942112E-001	1.4643494E+002	2.4718354E+004	2.4718787E+004	-8.9660576E+001	0.0000000E+000	0.0000000E+000	0.0000000E+000	8.9660576E+001	0.0000000E+000	0.0000000E+000	0.0000000E+000	-8.9660576E+001	0.0000000E+000	0.0000000E+000	0.0000000E+000	-3.3942112E-001	0.0000000E+000	0.0000000E+000	0.0000000E+000	3.3942112E-001	1.6880243E+002	8.9660576E+001	-2.132679853517198E-006
2.2206076E+002	1.9696575E+001	1.6573736E-001	1.9697273E+001	-4.8210549E-001	2.100862738852593E+002	4.5030189E-001	-1.8537803E-002	4.3244204E+003	3.0616570E-001	1.000000000000000E+000	10	1.0070548E-002	5.1126612E-004	0	1.382162838678212E-005	5.0766654E-002	4.2717735E-004	5.0768450E-002	4.8210549E-001	3.0616797E+002	3.6385371E+004	3.6386660E+004	-8.9517891E+001	0.0000000E+000	0.0000000E+000	0.0000000E+000	8.9517891E+001	0.0000000E+000	0.0000000E+000	0.0000000E+000	-8.9517891E+001	0.0000000E+000	0.0000000E+000	0.0000000E+000	-4.8210549E-001	0.0000000E+000	0.0000000E+000	0.0000000E+000	4.8210549E-001	1.1884209E+002	8.9517891E+001	-2.748191309596426E-006
1.5101485E+002	1.9698282E+001	2.4601623E-001	1.9699818E+001	-7.1554255E-001	2.105478273204790E+002	4.5029271E-001	-1.8280307E-002	4.2838745E+003	6.6809750E-001	1.000000000000000E+000	10	1.0070685E-002	5.1120704E-004	0	1.165237159473650E-005	5.0757930E-002	6.3392712E-004	5.0761890E-002	7.1554255E-001	6.6810034E+002	5.3493918E+004	5.3498090E+004	-8.9284454E+001	0.0000000E+000	0.0000000E+000	0.0000000E+000	8.9284454E+001	0.0000000E+000	0.0000000E+000	0.0000000E+000	-8.9284454E+001	0.0000000E+000	0.0000000E+000	0.0000000E+000	-7.1554255E-001	0.0000000E+000	0.0000000E+000	0.0000000E+000	7.1554255E-001	8.0069031E+001	8.9284454E+001	-2.169256792045619E-006
1.0266736E+002	1.9710402E+001	3.4438351E-001	1.9713409E+001	-1.0009798E+000	2.110226997963764E+002	4.5029494E-001	-1.8882995E-002	4.5013770E+003	1.3737465E+000	1.000000000000000E+000	10	1.0075968E-002	5.1112252E-004	0	9.554236005374049E-006	5.0719153E-002	8.8617369E-004	5.0726894E-002	1.0009798E+000	1.3737421E+003	7.8624836E+004	7.8636836E+004	-8.8999023E+001	0.0000000E+000	0.0000000E+000	0.0000000E+000	8.8999023E+001	0.0000000E+000	0.0000000E+000	0.0000000E+000	-8.8999023E+001	0.0000000E+000	0.0000000E+000	0.0000000E+000	-1.0009798E+000	0.0000000E+000	0.0000000E+000	0.0000000E+000	1.0009798E+000	5.7233871E+001	8.8999023E+001	-2.098135589362452E-006
6.9754463E+001	1.9725729E+001	4.7770929E-001	1.9731512E+001	-1.3872936E+000	2.114898633919220E+002	4.5028675E-001	-1.8776638E-002	4.7762217E+003	2.7995684E+000	1.000000000000000E+000	10	1.0076240E-002	5.1066739E-004	0	7.215842399316090E-006	5.0665498E-002	1.2269955E-003	5.0680354E-002	1.3872936E+000	2.7995630E+003	1.1560070E+005	1.1563459E+005	-8.8612709E+001	0.0000000E+000	0.0000000E+000	0.0000000E+000	8.8612709E+001	0.0000000E+000	0.0000000E+000	0.0000000E+000	-8.8612709E+001	0.0000000E+000	0.0000000E+000	0.0000000E+000	-1.3872936E+000	0.0000000E+000	0.0000000E+000	0.0000000E+000	1.3872936E+000	4.1292328E+001	8.8612709E+001	-2.338393606057959E-006
4.7444328E+001	1.9766485E+001	6.7847371E-001	1.9778126E+001	-1.9658742E+000	2.121778370512329E+002	4.5027596E-001	-1.5818460E-003	4.9442773E+003	5.8183331E+000	1.000000000000000E+000	11	1.0077547E-002	5.0952996E-004	0	5.864165224743677E-006	5.0531149E-002	1.7344537E-003	5.0560907E-002	1.9658742E+000	5.8183315E+003	1.6950988E+005	1.6960970E+005	-8.8034126E+001	0.0000000E+000	0.0000000E+000	0.0000000E+000	8.8034126E+001	0.0000000E+000	0.0000000E+000	0.0000000E+000	-8.8034126E+001	0.0000000E+000	0.0000000E+000	0.0000000E+000	-1.9658742E+000	0.0000000E+000	0.0000000E+000	0.0000000E+000	1.9658742E+000	2.9133753E+001	8.8034126E+001	-1.351677174572413E-006
3.2238655E+001	1.9782501E+001	9.7265679E-001	1.9806398E+001	-2.8148253E+000	2.126142531786900E+002	4.5027068E-001	-1.3087824E-003	5.0755557E+003	1.2240293E+001	1.000000000000000E+000	11	1.0076915E-002	5.0877070E-004	0	5.650621141733912E-006	5.0427821E-002	2.4794114E-003	5.0488736E-002	2.8148253E+000	1.2240301E+004	2.4895073E+005	2.4925147E+005	-8.7185173E+001	0.0000000E+000	0.0000000E+000	0.0000000E+000	8.7185173E+001	0.0000000E+000	0.0000000E+000	0.0000000E+000	-8.7185173E+001	0.0000000E+000	0.0000000E+000	0.0000000E+000	-2.8148253E+000	0.0000000E+000	0.0000000E+000	0.0000000E+000	2.8148253E+000	2.0338625E+001	8.7185173E+001	-2.135440830097651E-007
