EC-Lab ASCII FILE
Nb header lines : 63                          

Potentio Electrochemical Impedance Spectroscopy

Run on channel : 1 (SN 66412)
User : 
CE vs. WE compliance from -10 V to 10 V
Electrode connection : standard
Potential control : Ewe
Ewe ctrl range : min = -1.00 V, max = 1.00 V
Safety Limits :
	Do not start on E overload
Acquisition started on : 04/01/2024 20:30:54.900
Loaded Setting File :  C:\Users\NakamuraT\Documents\EC-Lab\Data\Yatsuzuka\20240328_2-129_UV-vis_K_Na_diff\20240328_2-129_001_preconditioning+CV_inK.mps
Saved on :
	File : 20240328_2-128_007_alpha_Na-2_02_PEIS_C01.mpr
	Directory : C:\Users\NakamuraT\Documents\EC-Lab\Data\Yatsuzuka\20240401_2-128_CV_cycles_alpha_gamma\
	Host : 192.109.209.100
Device : SP-150e (SN .003411)
Address : 192.109.209.236
EC-Lab for windows v11.50 (software)
Internet server v11.50 (firmware)
Command interpretor v11.50 (firmware)
Electrode material : 
Initial state : 
Electrolyte : 
Comments : 
Electrode surface area : 0.001 cm2
Characteristic mass : 0.001 g
Equivalent Weight : 0.000 g/eq.
Density : 0.000 g/cm3
Volume (V) : 0.001 cm3
Cycle Definition : Charge/Discharge alternance
Mode                Single sine         
E (V)               0.4500              
vs.                 Ref                 
tE (h:m:s)          0:00:0.0000         
record              0                   
dI                  0.000               
unit dI             mA                  
dt (s)              0.000               
fi                  500.000             
unit fi             kHz                 
ff                  1.000               
unit ff             Hz                  
Nd                  6                   
Points              per decade          
spacing             Logarithmic         
Va (mV)             10.0                
pw                  0.10                
Na                  2                   
corr                0                   
E range min (V)     -1.000              
E range max (V)     1.000               
I Range             Auto                
Bandwidth           5                   
nc cycles           0                   
goto Ns'            0                   
nr cycles           0                   
inc. cycle          0                   

freq/Hz	Re(Z)/Ohm	-Im(Z)/Ohm	|Z|/Ohm	Phase(Z)/deg	time/s	<Ewe>/V	<I>/mA	Cs/uF	Cp/uF	cycle number	I Range	|Ewe|/V	|I|/A	Ns	(Q-Qo)/mA.h	Re(Y)/Ohm-1	Im(Y)/Ohm-1	|Y|/Ohm-1	Phase(Y)/deg	Re(C)/nF	Im(C)/nF	|C|/nF	Phase(C)/deg	Re(M)	Im(M)	|M|	Phase(M)/deg	Re(Permittivity)	Im(Permittivity)	|Permittivity|	Phase(Permittivity)/deg	Re(Resistivity)/Ohm.cm	Im(Resistivity)/Ohm.cm	|Resistivity|/Ohm.cm	Phase(Resistivity)/deg	Re(Conductivity)/mS/cm	Im(Conductivity)/mS/cm	|Conductivity|/mS/cm	Phase(Conductivity)/deg	Tan(Delta)	Loss Angle(Delta)/deg	dq/mA.h	
5.0001856E+005	3.0908731E+001	2.2676931E+001	3.8335270E+001	-3.6266525E+001	2.006648832777428E+002	4.5043758E-001	8.5575379E-002	1.4036206E-002	4.9115801E-003	1.000000000000000E+000	11	8.5943742E-003	2.2418975E-004	0	4.191272408854275E-005	2.1032173E-002	1.5430757E-002	2.6085639E-002	3.6266525E+001	4.9115806E+000	6.6945004E+000	8.3030090E+000	-5.3733475E+001	0.0000000E+000	0.0000000E+000	0.0000000E+000	5.3733475E+001	0.0000000E+000	0.0000000E+000	0.0000000E+000	-5.3733475E+001	0.0000000E+000	0.0000000E+000	0.0000000E+000	-3.6266525E+001	0.0000000E+000	0.0000000E+000	0.0000000E+000	3.6266525E+001	1.3630033E+000	5.3733475E+001	4.191272408854275E-005
3.3989941E+005	3.5562870E+001	7.6692085E+000	3.6380413E+001	-1.2169589E+001	2.010868775111303E+002	4.5033538E-001	2.3874227E-002	6.1054707E-002	2.7132200E-003	1.000000000000000E+000	11	1.0474869E-002	2.8792606E-004	0	4.559634358760538E-005	2.6869621E-002	5.7944912E-003	2.7487319E-002	1.2169589E+001	2.7132194E+000	1.2581467E+001	1.2870698E+001	-7.7830414E+001	0.0000000E+000	0.0000000E+000	0.0000000E+000	7.7830414E+001	0.0000000E+000	0.0000000E+000	0.0000000E+000	-7.7830414E+001	0.0000000E+000	0.0000000E+000	0.0000000E+000	-1.2169589E+001	0.0000000E+000	0.0000000E+000	0.0000000E+000	1.2169589E+001	4.6370978E+000	7.7830414E+001	3.683619499062636E-006
2.3106258E+005	2.7275648E+001	-3.1478825E+000	2.7456696E+001	6.5833797E+000	2.019488720853842E+002	4.5026362E-001	-5.4875873E-003	-2.1881244E-001	-2.8761562E-003	1.000000000000000E+000	10	9.8746847E-003	3.5964578E-004	0	4.612092990691518E-005	3.6180831E-002	-4.1756295E-003	3.6420990E-002	-6.5833797E+000	-2.8761573E+000	2.4921206E+001	2.5086626E+001	-9.6583382E+001	0.0000000E+000	0.0000000E+000	0.0000000E+000	9.6583382E+001	0.0000000E+000	0.0000000E+000	0.0000000E+000	-9.6583382E+001	0.0000000E+000	0.0000000E+000	0.0000000E+000	6.5833797E+000	0.0000000E+000	0.0000000E+000	0.0000000E+000	-6.5833797E+000	8.6647606E+000	8.3416618E+001	5.245863193097981E-007
1.5707578E+005	2.0566505E+001	-3.0950718E+000	2.0798092E+001	8.5582705E+000	2.023708789587981E+002	4.5026347E-001	-9.7288117E-003	-3.2737097E-001	-7.2499439E-003	1.000000000000000E+000	10	1.0364814E-002	4.9835409E-004	0	4.400553302334285E-005	4.7545951E-002	-7.1552321E-003	4.8081335E-002	-8.5582705E+000	-7.2499466E+000	4.8175301E+001	4.8717773E+001	-9.8558273E+001	0.0000000E+000	0.0000000E+000	0.0000000E+000	9.8558273E+001	0.0000000E+000	0.0000000E+000	0.0000000E+000	-9.8558273E+001	0.0000000E+000	0.0000000E+000	0.0000000E+000	8.5582705E+000	0.0000000E+000	0.0000000E+000	0.0000000E+000	-8.5582705E+000	6.6449203E+000	8.1441727E+001	-2.115396883572328E-006
1.0678630E+005	1.8549128E+001	-1.8834039E+000	1.8644499E+001	5.7977138E+000	2.027928731921274E+002	4.5027596E-001	-1.0368816E-002	-7.9133648E-001	-8.0750771E-003	1.000000000000000E+000	10	1.0507782E-002	5.6358619E-004	0	4.307320947369509E-005	5.3360768E-002	-5.4180380E-003	5.3635124E-002	-5.7977138E+000	-8.0750771E+000	7.9529213E+001	7.9938118E+001	-9.5797714E+001	0.0000000E+000	0.0000000E+000	0.0000000E+000	9.5797714E+001	0.0000000E+000	0.0000000E+000	0.0000000E+000	-9.5797714E+001	0.0000000E+000	0.0000000E+000	0.0000000E+000	5.7977138E+000	0.0000000E+000	0.0000000E+000	0.0000000E+000	-5.7977138E+000	9.8487253E+000	8.4202286E+001	-9.323235496477644E-007
7.2595008E+004	1.7840816E+001	-1.2316287E+000	1.7883278E+001	3.9491100E+000	2.032148912921693E+002	4.5027736E-001	-1.1048009E-002	-1.7800558E+000	-8.4430417E-003	1.000000000000000E+000	10	1.0443682E-002	5.8399147E-004	0	4.141673731608575E-005	5.5785388E-002	-3.8511069E-003	5.5918161E-002	-3.9491100E+000	-8.4430456E+000	1.2230208E+002	1.2259316E+002	-9.3949112E+001	0.0000000E+000	0.0000000E+000	0.0000000E+000	9.3949112E+001	0.0000000E+000	0.0000000E+000	0.0000000E+000	-9.3949112E+001	0.0000000E+000	0.0000000E+000	0.0000000E+000	3.9491100E+000	0.0000000E+000	0.0000000E+000	0.0000000E+000	-3.9491100E+000	1.4485548E+001	8.6050888E+001	-1.656472157609342E-006
4.9352359E+004	1.7486887E+001	-8.5564077E-001	1.7507809E+001	2.8012724E+000	2.036368834455643E+002	4.5027918E-001	-1.3288973E-002	-3.7689531E+000	-9.0020224E-003	1.000000000000000E+000	10	1.0421570E-002	5.9525273E-004	0	3.932702267447409E-005	5.7049118E-002	-2.7914373E-003	5.7117369E-002	-2.8012724E+000	-9.0020132E+000	1.8397598E+002	1.8419609E+002	-9.2801270E+001	0.0000000E+000	0.0000000E+000	0.0000000E+000	9.2801270E+001	0.0000000E+000	0.0000000E+000	0.0000000E+000	-9.2801270E+001	0.0000000E+000	0.0000000E+000	0.0000000E+000	2.8012724E+000	0.0000000E+000	0.0000000E+000	0.0000000E+000	-2.8012724E+000	2.0437183E+001	8.7198730E+001	-2.089714641611655E-006
3.3551066E+004	1.7311571E+001	-5.9824461E-001	1.7321905E+001	1.9792112E+000	2.040588765322609E+002	4.5027027E-001	-1.3367343E-002	-7.9293032E+000	-9.4580436E-003	1.000000000000000E+000	10	1.0376288E-002	5.9902691E-004	0	3.867930635205833E-005	5.7695929E-002	-1.9938271E-003	5.7730369E-002	-1.9792112E+000	-9.4580364E+000	2.7369003E+002	2.7385339E+002	-9.1979210E+001	0.0000000E+000	0.0000000E+000	0.0000000E+000	9.1979210E+001	0.0000000E+000	0.0000000E+000	0.0000000E+000	-9.1979210E+001	0.0000000E+000	0.0000000E+000	0.0000000E+000	1.9792112E+000	0.0000000E+000	0.0000000E+000	0.0000000E+000	-1.9792112E+000	2.8937279E+001	8.8020790E+001	-6.477163224157673E-007
2.2806563E+004	1.7218485E+001	-3.8838732E-001	1.7222864E+001	1.2921684E+000	2.044808898589836E+002	4.5028284E-001	-1.3201276E-002	-1.7967813E+001	-9.1372309E-003	1.000000000000000E+000	10	1.0391569E-002	6.0335890E-004	0	3.693765020312276E-005	5.8047585E-002	-1.3093456E-003	5.8062352E-002	-1.2921684E+000	-9.1372252E+000	4.0508344E+002	4.0518646E+002	-9.1292168E+001	0.0000000E+000	0.0000000E+000	0.0000000E+000	9.1292168E+001	0.0000000E+000	0.0000000E+000	0.0000000E+000	-9.1292168E+001	0.0000000E+000	0.0000000E+000	0.0000000E+000	1.2921684E+000	0.0000000E+000	0.0000000E+000	0.0000000E+000	-1.2921684E+000	4.4333282E+001	8.8707832E+001	-1.741656148935569E-006
1.5504379E+004	1.7194401E+001	-2.6535940E-001	1.7196447E+001	8.8416970E-001	2.049028737723856E+002	4.5027348E-001	-1.5414253E-002	-3.8683990E+001	-9.2113391E-003	1.000000000000000E+000	10	1.0200012E-002	5.9314648E-004	0	3.505572222840015E-005	5.8144622E-002	-8.9734001E-004	5.8151547E-002	-8.8416970E-001	-9.2113485E+000	5.9686395E+002	5.9693500E+002	-9.0884171E+001	0.0000000E+000	0.0000000E+000	0.0000000E+000	9.0884171E+001	0.0000000E+000	0.0000000E+000	0.0000000E+000	-9.0884171E+001	0.0000000E+000	0.0000000E+000	0.0000000E+000	8.8416970E-001	0.0000000E+000	0.0000000E+000	0.0000000E+000	-8.8416970E-001	6.4796654E+001	8.9115829E+001	-1.881927974722609E-006
1.0540381E+004	1.7165016E+001	-1.7510192E-001	1.7165909E+001	5.8445930E-001	2.053248916590965E+002	4.5027974E-001	-1.5423583E-002	-8.6232887E+001	-8.9726588E-003	1.000000000000000E+000	10	1.0185809E-002	5.9337431E-004	0	3.356785407763891E-005	5.8251966E-002	-5.9423374E-004	5.8254998E-002	-5.8445930E-001	-8.9726295E+000	8.7957813E+002	8.7962390E+002	-9.0584457E+001	0.0000000E+000	0.0000000E+000	0.0000000E+000	9.0584457E+001	0.0000000E+000	0.0000000E+000	0.0000000E+000	-9.0584457E+001	0.0000000E+000	0.0000000E+000	0.0000000E+000	5.8445930E-001	0.0000000E+000	0.0000000E+000	0.0000000E+000	-5.8445930E-001	9.8028717E+001	8.9415543E+001	-1.487868150761235E-006
7.1637817E+003	1.7164478E+001	-1.0659424E-001	1.7164810E+001	3.5581166E-001	2.058484595773189E+002	4.5026061E-001	-1.6630830E-002	-2.0842223E+002	-8.0377320E-003	1.000000000000000E+000	10	1.0071998E-002	5.8678177E-004	0	3.221655363448533E-005	5.8257602E-002	-3.6178931E-004	5.8258727E-002	-3.5581166E-001	-8.0377417E+000	1.2942865E+003	1.2943114E+003	-9.0355812E+001	0.0000000E+000	0.0000000E+000	0.0000000E+000	9.0355812E+001	0.0000000E+000	0.0000000E+000	0.0000000E+000	-9.0355812E+001	0.0000000E+000	0.0000000E+000	0.0000000E+000	3.5581166E-001	0.0000000E+000	0.0000000E+000	0.0000000E+000	-3.5581166E-001	1.6102632E+002	8.9644188E+001	-1.351300443153579E-006
4.8715591E+003	1.7167517E+001	-7.9754390E-002	1.7167702E+001	2.6617461E-001	2.063161029595431E+002	4.5029274E-001	-1.5981492E-002	-4.0963547E+002	-8.8406140E-003	1.000000000000000E+000	10	1.0493925E-002	6.1125972E-004	0	3.069981235913130E-005	5.8248285E-002	-2.7060154E-004	5.8248915E-002	-2.6617461E-001	-8.8406038E+000	1.9029847E+003	1.9030052E+003	-9.0266174E+001	0.0000000E+000	0.0000000E+000	0.0000000E+000	9.0266174E+001	0.0000000E+000	0.0000000E+000	0.0000000E+000	-9.0266174E+001	0.0000000E+000	0.0000000E+000	0.0000000E+000	2.6617461E-001	0.0000000E+000	0.0000000E+000	0.0000000E+000	-2.6617461E-001	2.1525482E+002	8.9733826E+001	-1.516741275354030E-006
3.3110596E+003	1.7164516E+001	-3.8254261E-002	1.7164558E+001	1.2769391E-001	2.067820798350149E+002	4.5028287E-001	-1.6210999E-002	-1.2565314E+003	-6.2411944E-003	1.000000000000000E+000	10	1.0701085E-002	6.2344072E-004	0	2.822678412562042E-005	5.8259435E-002	-1.2984181E-004	5.8259580E-002	-1.2769391E-001	-6.2411580E+000	2.8003958E+003	2.8004026E+003	-9.0127693E+001	0.0000000E+000	0.0000000E+000	0.0000000E+000	9.0127693E+001	0.0000000E+000	0.0000000E+000	0.0000000E+000	-9.0127693E+001	0.0000000E+000	0.0000000E+000	0.0000000E+000	1.2769391E-001	0.0000000E+000	0.0000000E+000	0.0000000E+000	-1.2769391E-001	4.4869556E+002	8.9872307E+001	-2.473028233510881E-006
2.2507205E+003	1.7145994E+001	1.3858061E-003	1.7145994E+001	-4.6308683E-003	2.072470758837662E+002	4.5028308E-001	-1.6658818E-002	5.1026539E+004	3.3333100E-004	1.000000000000000E+000	10	1.0799124E-002	6.2983367E-004	0	2.661158159913409E-005	5.8322661E-002	4.7138647E-006	5.8322661E-002	4.6308683E-003	3.3334351E-001	4.1241636E+003	4.1241636E+003	-8.9995369E+001	0.0000000E+000	0.0000000E+000	0.0000000E+000	8.9995369E+001	0.0000000E+000	0.0000000E+000	0.0000000E+000	-8.9995369E+001	0.0000000E+000	0.0000000E+000	0.0000000E+000	-4.6308683E-003	0.0000000E+000	0.0000000E+000	0.0000000E+000	4.6308683E-003	1.2372578E+004	8.9995369E+001	-1.615202526486328E-006
1.5304901E+003	1.7144600E+001	9.5905107E-004	1.7144600E+001	-3.2050663E-003	2.077120832658547E+002	4.5028728E-001	-1.6798763E-002	1.0842960E+005	3.3929438E-004	1.000000000000000E+000	10	1.0850203E-002	6.3286419E-004	0	2.486127630197815E-005	5.8327403E-002	3.2627743E-006	5.8327403E-002	3.2050663E-003	3.3921805E-001	6.0654390E+003	6.0654390E+003	-8.9996796E+001	0.0000000E+000	0.0000000E+000	0.0000000E+000	8.9996796E+001	0.0000000E+000	0.0000000E+000	0.0000000E+000	-8.9996796E+001	0.0000000E+000	0.0000000E+000	0.0000000E+000	-3.2050663E-003	0.0000000E+000	0.0000000E+000	0.0000000E+000	3.2050663E-003	1.7876629E+004	8.9996796E+001	-1.750305297155946E-006
1.0403328E+003	1.7173147E+001	3.6599360E-002	1.7173185E+001	-1.2210841E-001	2.081770785412737E+002	4.5028716E-001	-1.6666282E-002	4.1799814E+003	1.8985394E-002	1.000000000000000E+000	10	1.0887620E-002	6.3398958E-004	0	2.209525862585643E-005	5.8230184E-002	1.2410000E-004	5.8230314E-002	1.2210841E-001	1.8985401E+001	8.9083232E+003	8.9083438E+003	-8.9877892E+001	0.0000000E+000	0.0000000E+000	0.0000000E+000	8.9877892E+001	0.0000000E+000	0.0000000E+000	0.0000000E+000	-8.9877892E+001	0.0000000E+000	0.0000000E+000	0.0000000E+000	-1.2210841E-001	0.0000000E+000	0.0000000E+000	0.0000000E+000	1.2210841E-001	4.6921988E+002	8.9877892E+001	-2.766017676121716E-006
7.0703625E+002	1.7179398E+001	4.2315211E-002	1.7179449E+001	-1.4112708E-001	2.086405811499135E+002	4.5028913E-001	-1.7283902E-002	5.3196357E+003	3.2274272E-002	1.000000000000000E+000	10	1.0897547E-002	6.3433626E-004	0	2.023182480110295E-005	5.8208909E-002	1.4337653E-004	5.8209084E-002	1.4112708E-001	3.2274609E+001	1.3102914E+004	1.3102954E+004	-8.9858871E+001	0.0000000E+000	0.0000000E+000	0.0000000E+000	8.9858871E+001	0.0000000E+000	0.0000000E+000	0.0000000E+000	-8.9858871E+001	0.0000000E+000	0.0000000E+000	0.0000000E+000	-1.4112708E-001	0.0000000E+000	0.0000000E+000	0.0000000E+000	1.4112708E-001	4.0598633E+002	8.9858871E+001	-1.863433824753480E-006
4.8076920E+002	1.7180040E+001	6.8552986E-002	1.7180178E+001	-2.2862436E-001	2.091058039986674E+002	4.5029384E-001	-1.7966827E-002	4.8289990E+003	7.6887295E-002	1.000000000000000E+000	10	1.0909014E-002	6.3497684E-004	0	1.824940718082427E-005	5.8206152E-002	2.3225820E-004	5.8206614E-002	2.2862436E-001	7.6886650E+001	1.9268699E+004	1.9268854E+004	-8.9771378E+001	0.0000000E+000	0.0000000E+000	0.0000000E+000	8.9771378E+001	0.0000000E+000	0.0000000E+000	0.0000000E+000	-8.9771378E+001	0.0000000E+000	0.0000000E+000	0.0000000E+000	-2.2862436E-001	0.0000000E+000	0.0000000E+000	0.0000000E+000	2.2862436E-001	2.5060966E+002	8.9771378E+001	-1.982417620278686E-006
3.2677771E+002	1.7180534E+001	9.8790191E-002	1.7180819E+001	-3.2945418E-001	2.095700544474348E+002	4.5029467E-001	-1.7569387E-002	4.9300791E+003	1.6300234E-001	1.000000000000000E+000	10	1.0914421E-002	6.3526776E-004	0	1.617279679118656E-005	5.8203485E-002	3.3467723E-004	5.8204446E-002	3.2945418E-001	1.6300153E+002	2.8347625E+004	2.8348094E+004	-8.9670547E+001	0.0000000E+000	0.0000000E+000	0.0000000E+000	8.9670547E+001	0.0000000E+000	0.0000000E+000	0.0000000E+000	-8.9670547E+001	0.0000000E+000	0.0000000E+000	0.0000000E+000	-3.2945418E-001	0.0000000E+000	0.0000000E+000	0.0000000E+000	3.2945418E-001	1.7390932E+002	8.9670547E+001	-2.076610389637711E-006
2.2206076E+002	1.7179136E+001	1.6070899E-001	1.7179888E+001	-5.3598028E-001	2.100313131093135E+002	4.5029047E-001	-1.8028401E-002	4.4597256E+003	3.9025444E-001	1.000000000000000E+000	10	1.0915445E-002	6.3536182E-004	0	1.367410108445781E-005	5.8205049E-002	5.4450205E-004	5.8207598E-002	5.3598028E-001	3.9025439E+002	4.1716609E+004	4.1718434E+004	-8.9464020E+001	0.0000000E+000	0.0000000E+000	0.0000000E+000	8.9464020E+001	0.0000000E+000	0.0000000E+000	0.0000000E+000	-8.9464020E+001	0.0000000E+000	0.0000000E+000	0.0000000E+000	-5.3598028E-001	0.0000000E+000	0.0000000E+000	0.0000000E+000	5.3598028E-001	1.0689592E+002	8.9464020E+001	-2.498695706728741E-006
1.5101485E+002	1.7195158E+001	2.2909762E-001	1.7196684E+001	-7.6332825E-001	2.104938256112655E+002	4.5028415E-001	-1.8119831E-002	4.6002339E+003	8.1645387E-001	1.000000000000000E+000	10	1.0917401E-002	6.3485501E-004	0	1.157962560162479E-005	5.8145586E-002	7.7469571E-004	5.8150746E-002	7.6332825E-001	8.1645416E+002	6.1279785E+004	6.1285223E+004	-8.9236671E+001	0.0000000E+000	0.0000000E+000	0.0000000E+000	8.9236671E+001	0.0000000E+000	0.0000000E+000	0.0000000E+000	-8.9236671E+001	0.0000000E+000	0.0000000E+000	0.0000000E+000	-7.6332825E-001	0.0000000E+000	0.0000000E+000	0.0000000E+000	7.6332825E-001	7.5056030E+001	8.9236671E+001	-2.094475482833029E-006
1.0266736E+002	1.7198944E+001	3.3295432E-001	1.7202168E+001	-1.1090503E+000	2.109686947004666E+002	4.5029241E-001	-1.8222457E-002	4.6558940E+003	1.7442392E+000	1.000000000000000E+000	10	1.0920623E-002	6.3483993E-004	0	9.101500478395287E-006	5.8121320E-002	1.1251704E-003	5.8132209E-002	1.1090503E+000	1.7442340E+003	9.0099672E+004	9.0116555E+004	-8.8890953E+001	0.0000000E+000	0.0000000E+000	0.0000000E+000	8.8890953E+001	0.0000000E+000	0.0000000E+000	0.0000000E+000	-8.8890953E+001	0.0000000E+000	0.0000000E+000	0.0000000E+000	-1.1090503E+000	0.0000000E+000	0.0000000E+000	0.0000000E+000	1.1090503E+000	5.1655567E+001	8.8890953E+001	-2.478125123229498E-006
6.9754463E+001	1.7236465E+001	4.6275637E-001	1.7242676E+001	-1.5378803E+000	2.114358542959817E+002	4.5028847E-001	-1.8942701E-002	4.9305542E+003	3.5513315E+000	1.000000000000000E+000	10	1.0931750E-002	6.3399383E-004	0	6.411607644498872E-006	5.7974748E-002	1.5564784E-003	5.7995640E-002	1.5378803E+000	3.5513311E+003	1.3227783E+005	1.3232548E+005	-8.8462120E+001	0.0000000E+000	0.0000000E+000	0.0000000E+000	8.8462120E+001	0.0000000E+000	0.0000000E+000	0.0000000E+000	-8.8462120E+001	0.0000000E+000	0.0000000E+000	0.0000000E+000	-1.5378803E+000	0.0000000E+000	0.0000000E+000	0.0000000E+000	1.5378803E+000	3.7247387E+001	8.8462120E+001	-2.689892833896415E-006
4.7444328E+001	1.7247486E+001	6.7995757E-001	1.7260883E+001	-2.2576354E+000	2.118798462370905E+002	4.5028263E-001	-1.8772902E-002	4.9334873E+003	7.6558185E+000	1.000000000000000E+000	10	1.0926515E-002	6.3302176E-004	0	3.945662593029232E-006	5.7889495E-002	2.2822109E-003	5.7934463E-002	2.2576354E+000	7.6558237E+003	1.9419391E+005	1.9434475E+005	-8.7742363E+001	0.0000000E+000	0.0000000E+000	0.0000000E+000	8.7742363E+001	0.0000000E+000	0.0000000E+000	0.0000000E+000	-8.7742363E+001	0.0000000E+000	0.0000000E+000	0.0000000E+000	-2.2576354E+000	0.0000000E+000	0.0000000E+000	0.0000000E+000	2.2576354E+000	2.5365534E+001	8.7742363E+001	-2.465945051469640E-006
3.2238655E+001	1.7270668E+001	9.7002888E-001	1.7297888E+001	-3.2147121E+000	2.125552377092099E+002	4.5027629E-001	-1.6633519E-003	5.0893057E+003	1.6004486E+001	1.000000000000000E+000	11	1.0930811E-002	6.3191593E-004	0	2.527596176731297E-006	5.7719555E-002	3.2418917E-003	5.7810526E-002	3.2147121E+000	1.6004496E+004	2.8494841E+005	2.8539750E+005	-8.6785286E+001	0.0000000E+000	0.0000000E+000	0.0000000E+000	8.6785286E+001	0.0000000E+000	0.0000000E+000	0.0000000E+000	-8.6785286E+001	0.0000000E+000	0.0000000E+000	0.0000000E+000	-3.2147121E+000	0.0000000E+000	0.0000000E+000	0.0000000E+000	3.2147121E+000	1.7804283E+001	8.6785286E+001	-1.418066416297936E-006
