EC-Lab ASCII FILE
Nb header lines : 63                          

Potentio Electrochemical Impedance Spectroscopy

Run on channel : 2 (SN 66414)
User : 
CE vs. WE compliance from -10 V to 10 V
Electrode connection : standard
Potential control : Ewe
Ewe ctrl range : min = -1.00 V, max = 1.00 V
Safety Limits :
	Do not start on E overload
Acquisition started on : 04/01/2024 19:59:40.490
Loaded Setting File :  C:\Users\NakamuraT\Documents\EC-Lab\Data\Yatsuzuka\20240401_2-128_CV_cycles_alpha_gamma\20240328_2-128_001_alpha_K-1.mps
Saved on :
	File : 20240328_2-128_006_gamma_K-2_02_PEIS_C02.mpr
	Directory : C:\Users\NakamuraT\Documents\EC-Lab\Data\Yatsuzuka\20240401_2-128_CV_cycles_alpha_gamma\
	Host : 192.109.209.100
Device : SP-150e (SN .003411)
Address : 192.109.209.236
EC-Lab for windows v11.50 (software)
Internet server v11.50 (firmware)
Command interpretor v11.50 (firmware)
Electrode material : 
Initial state : 
Electrolyte : 
Comments : 
Electrode surface area : 0.001 cm2
Characteristic mass : 0.001 g
Equivalent Weight : 0.000 g/eq.
Density : 0.000 g/cm3
Volume (V) : 0.001 cm3
Cycle Definition : Charge/Discharge alternance
Mode                Single sine         
E (V)               0.4500              
vs.                 Ref                 
tE (h:m:s)          0:00:0.0000         
record              0                   
dI                  0.000               
unit dI             mA                  
dt (s)              0.000               
fi                  500.000             
unit fi             kHz                 
ff                  1.000               
unit ff             Hz                  
Nd                  6                   
Points              per decade          
spacing             Logarithmic         
Va (mV)             10.0                
pw                  0.10                
Na                  2                   
corr                0                   
E range min (V)     -1.000              
E range max (V)     1.000               
I Range             Auto                
Bandwidth           5                   
nc cycles           0                   
goto Ns'            0                   
nr cycles           0                   
inc. cycle          0                   

freq/Hz	Re(Z)/Ohm	-Im(Z)/Ohm	|Z|/Ohm	Phase(Z)/deg	time/s	<Ewe>/V	<I>/mA	Cs/uF	Cp/uF	cycle number	I Range	|Ewe|/V	|I|/A	Ns	(Q-Qo)/mA.h	Re(Y)/Ohm-1	Im(Y)/Ohm-1	|Y|/Ohm-1	Phase(Y)/deg	Re(C)/nF	Im(C)/nF	|C|/nF	Phase(C)/deg	Re(M)	Im(M)	|M|	Phase(M)/deg	Re(Permittivity)	Im(Permittivity)	|Permittivity|	Phase(Permittivity)/deg	Re(Resistivity)/Ohm.cm	Im(Resistivity)/Ohm.cm	|Resistivity|/Ohm.cm	Phase(Resistivity)/deg	Re(Conductivity)/mS/cm	Im(Conductivity)/mS/cm	|Conductivity|/mS/cm	Phase(Conductivity)/deg	Tan(Delta)	Loss Angle(Delta)/deg	dq/mA.h	
5.0001856E+005	4.5154648E+001	1.1286123E+001	4.6543732E+001	-1.4033211E+001	2.013908833090245E+002	4.5045999E-001	-8.7198702E-004	2.8202605E-002	1.6582744E-003	1.000000000000000E+000	11	1.0139842E-002	2.1785623E-004	0	5.626514621334435E-007	2.0843953E-002	5.2098162E-003	2.1485170E-002	1.4033211E+001	1.6582743E+000	6.6345897E+000	6.8386879E+000	-7.5966789E+001	0.0000000E+000	0.0000000E+000	0.0000000E+000	7.5966789E+001	0.0000000E+000	0.0000000E+000	0.0000000E+000	-7.5966789E+001	0.0000000E+000	0.0000000E+000	0.0000000E+000	-1.4033211E+001	0.0000000E+000	0.0000000E+000	0.0000000E+000	1.4033211E+001	4.0008998E+000	7.5966789E+001	5.626514621334435E-007
3.3989941E+005	3.5346050E+001	1.0115194E-001	3.5346195E+001	-1.6396637E-001	2.018128721824178E+002	4.5034754E-001	-9.4696408E-004	4.6290884E+000	3.7910420E-005	1.000000000000000E+000	11	1.0528259E-002	2.9786117E-004	0	3.176031310631515E-007	2.8291473E-002	8.0963429E-005	2.8291589E-002	1.6396637E-001	3.7909716E-002	1.3247236E+001	1.3247291E+001	-8.9836037E+001	0.0000000E+000	0.0000000E+000	0.0000000E+000	8.9836037E+001	0.0000000E+000	0.0000000E+000	0.0000000E+000	-8.9836037E+001	0.0000000E+000	0.0000000E+000	0.0000000E+000	-1.6396637E-001	0.0000000E+000	0.0000000E+000	0.0000000E+000	1.6396637E-001	3.4943521E+002	8.9836037E+001	-2.450483310702920E-007
2.3106258E+005	2.9205652E+001	-7.1542948E-001	2.9214413E+001	1.4032521E+000	2.026748805699899E+002	4.5030004E-001	-4.5122993E-003	-9.6277249E-001	-5.7738170E-004	1.000000000000000E+000	10	9.9002486E-003	3.3888235E-004	0	-8.071654387175739E-008	3.4219414E-002	-8.3824794E-004	3.4229681E-002	-1.4032521E+000	-5.7738149E-001	2.3570190E+001	2.3577261E+001	-9.1403252E+001	0.0000000E+000	0.0000000E+000	0.0000000E+000	9.1403252E+001	0.0000000E+000	0.0000000E+000	0.0000000E+000	-9.1403252E+001	0.0000000E+000	0.0000000E+000	0.0000000E+000	1.4032521E+000	0.0000000E+000	0.0000000E+000	0.0000000E+000	-1.4032521E+000	4.0822544E+001	8.8596748E+001	-3.983196749349089E-007
1.5707578E+005	2.6878164E+001	-3.7507060E-001	2.6880781E+001	7.9948050E-001	2.030968777900707E+002	4.5031109E-001	-4.0138899E-003	-2.7014558E+000	-5.2594481E-004	1.000000000000000E+000	10	1.0805677E-002	4.0198522E-004	0	-1.321965365780569E-006	3.7197679E-002	-5.1907398E-004	3.7201300E-002	-7.9948050E-001	-5.2594727E-001	3.7690052E+001	3.7693722E+001	-9.0799484E+001	0.0000000E+000	0.0000000E+000	0.0000000E+000	9.0799484E+001	0.0000000E+000	0.0000000E+000	0.0000000E+000	-9.0799484E+001	0.0000000E+000	0.0000000E+000	0.0000000E+000	7.9948050E-001	0.0000000E+000	0.0000000E+000	0.0000000E+000	-7.9948050E-001	7.1661613E+001	8.9200516E+001	-1.241248821908812E-006
1.0678630E+005	2.6053408E+001	-1.3742086E-001	2.6053770E+001	3.0220854E-001	2.035188700767612E+002	4.5030981E-001	-5.0032400E-003	-1.0845559E+001	-3.0172837E-004	1.000000000000000E+000	10	1.0683571E-002	4.1005854E-004	0	-2.134781730470624E-006	3.8381629E-002	-2.0244707E-004	3.8382161E-002	-3.0220854E-001	-3.0172774E-001	5.7204205E+001	5.7205002E+001	-9.0302208E+001	0.0000000E+000	0.0000000E+000	0.0000000E+000	9.0302208E+001	0.0000000E+000	0.0000000E+000	0.0000000E+000	-9.0302208E+001	0.0000000E+000	0.0000000E+000	0.0000000E+000	3.0220854E-001	0.0000000E+000	0.0000000E+000	0.0000000E+000	-3.0220854E-001	1.8958844E+002	8.9697792E+001	-8.128163646900548E-007
7.2595008E+004	2.5695192E+001	-1.9845100E-002	2.5695200E+001	4.4251088E-002	2.039408887634781E+002	4.5031998E-001	-3.7357518E-003	-1.1047401E+002	-6.5896551E-005	1.000000000000000E+000	10	1.0503809E-002	4.0878486E-004	0	-2.766676794136098E-006	3.8917765E-002	-3.0057254E-005	3.8917776E-002	-4.4251088E-002	-6.5895662E-002	8.5322052E+001	8.5322075E+001	-9.0044250E+001	0.0000000E+000	0.0000000E+000	0.0000000E+000	9.0044250E+001	0.0000000E+000	0.0000000E+000	0.0000000E+000	-9.0044250E+001	0.0000000E+000	0.0000000E+000	0.0000000E+000	4.4251088E-002	0.0000000E+000	0.0000000E+000	0.0000000E+000	-4.4251088E-002	1.2947877E+003	8.9955750E+001	-6.318950636654742E-007
4.9352359E+004	2.5534805E+001	1.9411882E-002	2.5534813E+001	-4.3556970E-002	2.043628853435075E+002	4.5031503E-001	-4.7736363E-003	1.6612865E+002	9.6009564E-005	1.000000000000000E+000	10	1.0424099E-002	4.0823087E-004	0	-3.542915298690787E-006	3.9162211E-002	2.9771609E-005	3.9162222E-002	4.3556970E-002	9.6007906E-002	1.2629304E+002	1.2629308E+002	-8.9956444E+001	0.0000000E+000	0.0000000E+000	0.0000000E+000	8.9956444E+001	0.0000000E+000	0.0000000E+000	0.0000000E+000	-8.9956444E+001	0.0000000E+000	0.0000000E+000	0.0000000E+000	-4.3556970E-002	0.0000000E+000	0.0000000E+000	0.0000000E+000	4.3556970E-002	1.3154214E+003	8.9956444E+001	-7.762385045546882E-007
3.3551066E+004	2.5504160E+001	3.4618769E-002	2.5504183E+001	-7.7771947E-002	2.047848783768859E+002	4.5031694E-001	-4.6373671E-003	1.3702576E+002	2.5246583E-004	1.000000000000000E+000	10	1.0261480E-002	4.0234497E-004	0	-4.534527176984638E-006	3.9209217E-002	5.3221705E-005	3.9209254E-002	7.7771947E-002	2.5247264E-001	1.8599532E+002	1.8599548E+002	-8.9922226E+001	0.0000000E+000	0.0000000E+000	0.0000000E+000	8.9922226E+001	0.0000000E+000	0.0000000E+000	0.0000000E+000	-8.9922226E+001	0.0000000E+000	0.0000000E+000	0.0000000E+000	-7.7771947E-002	0.0000000E+000	0.0000000E+000	0.0000000E+000	7.7771947E-002	7.3671484E+002	8.9922226E+001	-9.916118782938510E-007
2.2806563E+004	2.5461079E+001	4.8985865E-002	2.5461126E+001	-1.1023413E-001	2.052068744236167E+002	4.5031705E-001	-5.0461744E-003	1.4245888E+002	5.2732194E-004	1.000000000000000E+000	10	1.0250586E-002	4.0259751E-004	0	-5.000288205005038E-006	3.9275486E-002	7.5564116E-005	3.9275561E-002	1.1023413E-001	5.2733630E-001	2.7408286E+002	2.7408337E+002	-8.9889763E+001	0.0000000E+000	0.0000000E+000	0.0000000E+000	8.9889763E+001	0.0000000E+000	0.0000000E+000	0.0000000E+000	-8.9889763E+001	0.0000000E+000	0.0000000E+000	0.0000000E+000	-1.1023413E-001	0.0000000E+000	0.0000000E+000	0.0000000E+000	1.1023413E-001	5.1976379E+002	8.9889763E+001	-4.657610280204003E-007
1.5504379E+004	2.5397636E+001	7.9393908E-002	2.5397760E+001	-1.7910805E-001	2.056288905769616E+002	4.5032018E-001	-4.9509727E-003	1.2929407E+002	1.2634618E-003	1.000000000000000E+000	10	1.0119153E-002	3.9842699E-004	0	-6.127257031091883E-006	3.9373357E-002	1.2308251E-004	3.9373551E-002	1.7910805E-001	1.2634591E+000	4.0417386E+002	4.0417584E+002	-8.9820892E+001	0.0000000E+000	0.0000000E+000	0.0000000E+000	8.9820892E+001	0.0000000E+000	0.0000000E+000	0.0000000E+000	-8.9820892E+001	0.0000000E+000	0.0000000E+000	0.0000000E+000	-1.7910805E-001	0.0000000E+000	0.0000000E+000	0.0000000E+000	1.7910805E-001	3.1989401E+002	8.9820892E+001	-1.126968826086845E-006
1.0540381E+004	2.5420950E+001	1.0739546E-001	2.5421177E+001	-2.4205507E-001	2.059158756306424E+002	4.5031369E-001	-5.4400470E-003	1.4059760E+002	2.5093339E-003	1.000000000000000E+000	10	1.0634866E-002	4.1834670E-004	0	-6.442030644907289E-006	3.9336931E-002	1.6618606E-004	3.9337281E-002	2.4205507E-001	2.5093622E+000	5.9396973E+002	5.9397504E+002	-8.9757942E+001	0.0000000E+000	0.0000000E+000	0.0000000E+000	8.9757942E+001	0.0000000E+000	0.0000000E+000	0.0000000E+000	-8.9757942E+001	0.0000000E+000	0.0000000E+000	0.0000000E+000	-2.4205507E-001	0.0000000E+000	0.0000000E+000	0.0000000E+000	2.4205507E-001	2.3670413E+002	8.9757942E+001	-3.147736138154063E-007
7.1637817E+003	2.5428110E+001	1.6913582E-001	2.5428673E+001	-3.8109896E-001	2.062724845808843E+002	4.5029587E-001	-6.8158032E-003	1.3135367E+002	5.8112023E-003	1.000000000000000E+000	10	1.0903298E-002	4.2877966E-004	0	-6.978050243410204E-006	3.9324813E-002	2.6157018E-004	3.9325684E-002	3.8109896E-001	5.8111558E+000	8.7366406E+002	8.7368341E+002	-8.9618904E+001	0.0000000E+000	0.0000000E+000	0.0000000E+000	8.9618904E+001	0.0000000E+000	0.0000000E+000	0.0000000E+000	-8.9618904E+001	0.0000000E+000	0.0000000E+000	0.0000000E+000	-3.8109896E-001	0.0000000E+000	0.0000000E+000	0.0000000E+000	3.8109896E-001	1.5034137E+002	8.9618904E+001	-5.360195985029146E-007
4.8715591E+003	2.5446758E+001	2.1630594E-001	2.5447678E+001	-4.8702151E-001	2.069620641336951E+002	4.5034006E-001	-5.4288479E-003	1.5103712E+002	1.0912501E-002	1.000000000000000E+000	10	1.0068010E-002	3.9563570E-004	0	-8.800961379747606E-006	3.9294899E-002	3.3401974E-004	3.9296318E-002	4.8702151E-001	1.0912521E+001	1.2837733E+003	1.2838197E+003	-8.9512978E+001	0.0000000E+000	0.0000000E+000	0.0000000E+000	8.9512978E+001	0.0000000E+000	0.0000000E+000	0.0000000E+000	-8.9512978E+001	0.0000000E+000	0.0000000E+000	0.0000000E+000	-4.8702151E-001	0.0000000E+000	0.0000000E+000	0.0000000E+000	4.8702151E-001	1.1764244E+002	8.9512978E+001	-1.822911136337402E-006
3.3110596E+003	2.5463287E+001	3.2810360E-001	2.5465401E+001	-7.3823589E-001	2.074270667157762E+002	4.5034346E-001	-5.8451211E-003	1.4650154E+002	2.4319975E-002	1.000000000000000E+000	10	1.0124129E-002	3.9756412E-004	0	-9.300588815023527E-006	3.9265707E-002	5.0595275E-004	3.9268967E-002	7.3823589E-001	2.4319962E+001	1.8874114E+003	1.8875681E+003	-8.9261765E+001	0.0000000E+000	0.0000000E+000	0.0000000E+000	8.9261765E+001	0.0000000E+000	0.0000000E+000	0.0000000E+000	-8.9261765E+001	0.0000000E+000	0.0000000E+000	0.0000000E+000	-7.3823589E-001	0.0000000E+000	0.0000000E+000	0.0000000E+000	7.3823589E-001	7.7607460E+001	8.9261765E+001	-4.996274352759218E-007
2.2507205E+003	2.5449657E+001	4.4639435E-001	2.5453571E+001	-1.0048815E+000	2.078921089245341E+002	4.5034507E-001	-5.3485800E-003	1.5840901E+002	4.8721407E-002	1.000000000000000E+000	10	1.0145175E-002	3.9857571E-004	0	-1.008921318641741E-005	3.9281175E-002	6.8900315E-004	3.9287217E-002	1.0048815E+000	4.8721466E+001	2.7776853E+003	2.7781125E+003	-8.8995117E+001	0.0000000E+000	0.0000000E+000	0.0000000E+000	8.8995117E+001	0.0000000E+000	0.0000000E+000	0.0000000E+000	-8.8995117E+001	0.0000000E+000	0.0000000E+000	0.0000000E+000	-1.0048815E+000	0.0000000E+000	0.0000000E+000	0.0000000E+000	1.0048815E+000	5.7011604E+001	8.8995117E+001	-7.886243713938813E-007
1.5304901E+003	2.5533106E+001	6.0653615E-001	2.5540308E+001	-1.3607991E+000	2.083571082799535E+002	4.5034367E-001	-5.5408496E-003	1.7144820E+002	9.6692778E-002	1.000000000000000E+000	10	1.0155002E-002	3.9760687E-004	0	-1.098446416840387E-005	3.9142754E-002	9.2983182E-004	3.9153796E-002	1.3607991E+000	9.6692963E+001	4.0704368E+003	4.0715850E+003	-8.8639198E+001	0.0000000E+000	0.0000000E+000	0.0000000E+000	8.8639198E+001	0.0000000E+000	0.0000000E+000	0.0000000E+000	-8.8639198E+001	0.0000000E+000	0.0000000E+000	0.0000000E+000	-1.3607991E+000	0.0000000E+000	0.0000000E+000	0.0000000E+000	1.3607991E+000	4.2096592E+001	8.8639198E+001	-8.952509819864644E-007
1.0403328E+003	2.5523466E+001	9.1353911E-001	2.5539810E+001	-2.0498626E+000	2.088221016353709E+002	4.5033860E-001	-5.4475148E-003	1.6746371E+002	2.1425930E-001	1.000000000000000E+000	10	1.0167912E-002	3.9812009E-004	0	-1.193150718313862E-005	3.9129503E-002	1.4005280E-003	3.9154559E-002	2.0498626E+000	2.1425963E+002	5.9862139E+003	5.9900469E+003	-8.7950134E+001	0.0000000E+000	0.0000000E+000	0.0000000E+000	8.7950134E+001	0.0000000E+000	0.0000000E+000	0.0000000E+000	-8.7950134E+001	0.0000000E+000	0.0000000E+000	0.0000000E+000	-2.0498626E+000	0.0000000E+000	0.0000000E+000	0.0000000E+000	2.0498626E+000	2.7939106E+001	8.7950134E+001	-9.470430147347451E-007
7.0703625E+002	2.5637283E+001	1.2406690E+000	2.5667286E+001	-2.7705622E+000	2.092865728840843E+002	4.5034334E-001	-5.6248512E-003	1.8143559E+002	4.2391080E-001	1.000000000000000E+000	10	1.0184231E-002	3.9677866E-004	0	-1.270354364678335E-005	3.8914558E-002	1.8831983E-003	3.8960099E-002	2.7705622E+000	4.2391068E+002	8.7597266E+003	8.7699775E+003	-8.7229439E+001	0.0000000E+000	0.0000000E+000	0.0000000E+000	8.7229439E+001	0.0000000E+000	0.0000000E+000	0.0000000E+000	-8.7229439E+001	0.0000000E+000	0.0000000E+000	0.0000000E+000	-2.7705622E+000	0.0000000E+000	0.0000000E+000	0.0000000E+000	2.7705622E+000	2.0664080E+001	8.7229439E+001	-7.720364636447295E-007
4.8076920E+002	2.5658890E+001	1.8213142E+000	2.5723448E+001	-4.0601478E+000	2.097518489594950E+002	4.5033354E-001	-6.1848611E-003	1.8176012E+002	9.1119224E-001	1.000000000000000E+000	10	1.0171472E-002	3.9541637E-004	0	-1.347318887387498E-005	3.8777471E-002	2.7524945E-003	3.8875036E-002	4.0601478E+000	9.1119275E+002	1.2836983E+004	1.2869282E+004	-8.5939850E+001	0.0000000E+000	0.0000000E+000	0.0000000E+000	8.5939850E+001	0.0000000E+000	0.0000000E+000	0.0000000E+000	-8.5939850E+001	0.0000000E+000	0.0000000E+000	0.0000000E+000	-4.0601478E+000	0.0000000E+000	0.0000000E+000	0.0000000E+000	4.0601478E+000	1.4088119E+001	8.5939850E+001	-7.696452270916372E-007
3.2677771E+002	2.5738005E+001	2.5480945E+000	2.5863829E+001	-5.6539297E+000	2.102150418082056E+002	4.5033899E-001	-5.8245887E-003	1.9114027E+002	1.8552294E+000	1.000000000000000E+000	10	1.0173312E-002	3.9334132E-004	0	-1.441212137251407E-005	3.8475938E-002	3.8091659E-003	3.8664035E-002	5.6539297E+000	1.8552297E+003	1.8739455E+004	1.8831066E+004	-8.4346069E+001	0.0000000E+000	0.0000000E+000	0.0000000E+000	8.4346069E+001	0.0000000E+000	0.0000000E+000	0.0000000E+000	-8.4346069E+001	0.0000000E+000	0.0000000E+000	0.0000000E+000	-5.6539297E+000	0.0000000E+000	0.0000000E+000	0.0000000E+000	5.6539297E+000	1.0100883E+001	8.4346069E+001	-9.389324986390834E-007
2.2206076E+002	2.5866291E+001	3.6512640E+000	2.6122725E+001	-8.0347385E+000	2.109282983220619E+002	4.5032746E-001	-7.3694717E-004	1.9629312E+002	3.8349049E+000	1.000000000000000E+000	11	1.0188807E-002	3.9003615E-004	0	-1.451006616556778E-005	3.7905060E-002	5.3506466E-003	3.8280845E-002	8.0347385E+000	3.8349043E+003	2.7167242E+004	2.7436572E+004	-8.1965263E+001	0.0000000E+000	0.0000000E+000	0.0000000E+000	8.1965263E+001	0.0000000E+000	0.0000000E+000	0.0000000E+000	-8.1965263E+001	0.0000000E+000	0.0000000E+000	0.0000000E+000	-8.0347385E+000	0.0000000E+000	0.0000000E+000	0.0000000E+000	8.0347385E+000	7.0842018E+000	8.1965263E+001	-9.794479305370921E-008
1.5101485E+002	2.6009657E+001	5.2095337E+000	2.6526241E+001	-1.1326035E+001	2.113897990372643E+002	4.5032650E-001	-7.4907049E-004	2.0230269E+002	7.8027539E+000	1.000000000000000E+000	11	1.0186641E-002	3.8402126E-004	0	-1.478178346945626E-005	3.6964361E-002	7.4036764E-003	3.7698518E-002	1.1326035E+001	7.8027534E+003	3.8956836E+004	3.9730566E+004	-7.8673965E+001	0.0000000E+000	0.0000000E+000	0.0000000E+000	7.8673965E+001	0.0000000E+000	0.0000000E+000	0.0000000E+000	-7.8673965E+001	0.0000000E+000	0.0000000E+000	0.0000000E+000	-1.1326035E+001	0.0000000E+000	0.0000000E+000	0.0000000E+000	1.1326035E+001	4.9927034E+000	7.8673965E+001	-2.717173038884834E-007
1.0266736E+002	2.6212843E+001	7.4745193E+000	2.7257689E+001	-1.5915354E+001	2.118646751931665E+002	4.5033354E-001	-7.8096410E-004	2.0739795E+002	1.5595271E+001	1.000000000000000E+000	11	1.0192043E-002	3.7391443E-004	0	-1.512191503456820E-005	3.5280611E-002	1.0060169E-002	3.6686897E-002	1.5915354E+001	1.5595271E+004	5.4692000E+004	5.6872027E+004	-7.4084648E+001	0.0000000E+000	0.0000000E+000	0.0000000E+000	7.4084648E+001	0.0000000E+000	0.0000000E+000	0.0000000E+000	-7.4084648E+001	0.0000000E+000	0.0000000E+000	0.0000000E+000	-1.5915354E+001	0.0000000E+000	0.0000000E+000	0.0000000E+000	1.5915354E+001	3.5069604E+000	7.4084648E+001	-3.401315651119358E-007
6.9754463E+001	2.6484337E+001	1.0745737E+001	2.8581305E+001	-2.2084330E+001	2.123318453487154E+002	4.5032328E-001	-9.6318743E-004	2.1233028E+002	3.0013750E+001	1.000000000000000E+000	11	1.0189289E-002	3.5650190E-004	0	-1.530106946216903E-005	3.2420896E-002	1.3154433E-002	3.4987908E-002	2.2084330E+001	3.0013746E+004	7.3972984E+004	7.9829992E+004	-6.7915672E+001	0.0000000E+000	0.0000000E+000	0.0000000E+000	6.7915672E+001	0.0000000E+000	0.0000000E+000	0.0000000E+000	-6.7915672E+001	0.0000000E+000	0.0000000E+000	0.0000000E+000	-2.2084330E+001	0.0000000E+000	0.0000000E+000	0.0000000E+000	2.2084330E+001	2.4646366E+000	6.7915672E+001	-1.791544276008300E-007
4.7444328E+001	2.6812786E+001	1.5462450E+001	3.0951782E+001	-2.9971273E+001	2.127758561164519E+002	4.5031154E-001	-9.7475236E-004	2.1694894E+002	5.4143063E+001	1.000000000000000E+000	11	1.0183447E-002	3.2901004E-004	0	-1.567685823851227E-005	2.7987920E-002	1.6140129E-002	3.2308318E-002	2.9971273E+001	5.4143070E+004	9.3887219E+004	1.0838027E+005	-6.0028725E+001	0.0000000E+000	0.0000000E+000	0.0000000E+000	6.0028725E+001	0.0000000E+000	0.0000000E+000	0.0000000E+000	-6.0028725E+001	0.0000000E+000	0.0000000E+000	0.0000000E+000	-2.9971273E+001	0.0000000E+000	0.0000000E+000	0.0000000E+000	2.9971273E+001	1.7340580E+000	6.0028725E+001	-3.757887763432447E-007
3.2238655E+001	2.7349428E+001	2.2274065E+001	3.5272160E+001	-3.9160240E+001	2.132132348039304E+002	4.5032060E-001	-9.8072249E-004	2.2163776E+002	8.8385002E+001	1.000000000000000E+000	11	1.0186194E-002	2.8878852E-004	0	-1.577013552416207E-005	2.1982858E-002	1.7903395E-002	2.8350972E-002	3.9160240E+001	8.8385008E+004	1.0852440E+005	1.3996233E+005	-5.0839760E+001	0.0000000E+000	0.0000000E+000	0.0000000E+000	5.0839760E+001	0.0000000E+000	0.0000000E+000	0.0000000E+000	-5.0839760E+001	0.0000000E+000	0.0000000E+000	0.0000000E+000	-3.9160240E+001	0.0000000E+000	0.0000000E+000	0.0000000E+000	3.9160240E+001	1.2278597E+000	5.0839752E+001	-9.327728564979465E-008
