EC-Lab ASCII FILE
Nb header lines : 63                          

Potentio Electrochemical Impedance Spectroscopy

Run on channel : 2 (SN 66414)
User : 
CE vs. WE compliance from -10 V to 10 V
Electrode connection : standard
Potential control : Ewe
Ewe ctrl range : min = -1.00 V, max = 1.00 V
Safety Limits :
	Do not start on E overload
Acquisition started on : 04/01/2024 20:34:39.484
Loaded Setting File :  C:\Users\NakamuraT\Documents\EC-Lab\Data\Yatsuzuka\20240401_2-128_CV_cycles_alpha_gamma\20240328_2-128_001_alpha_K-1.mps
Saved on :
	File : 20240328_2-128_008_gamma_Na-2_02_PEIS_C02.mpr
	Directory : C:\Users\NakamuraT\Documents\EC-Lab\Data\Yatsuzuka\20240401_2-128_CV_cycles_alpha_gamma\
	Host : 192.109.209.100
Device : SP-150e (SN .003411)
Address : 192.109.209.236
EC-Lab for windows v11.50 (software)
Internet server v11.50 (firmware)
Command interpretor v11.50 (firmware)
Electrode material : 
Initial state : 
Electrolyte : 
Comments : 
Electrode surface area : 0.001 cm2
Characteristic mass : 0.001 g
Equivalent Weight : 0.000 g/eq.
Density : 0.000 g/cm3
Volume (V) : 0.001 cm3
Cycle Definition : Charge/Discharge alternance
Mode                Single sine         
E (V)               0.4500              
vs.                 Ref                 
tE (h:m:s)          0:00:0.0000         
record              0                   
dI                  0.000               
unit dI             mA                  
dt (s)              0.000               
fi                  500.000             
unit fi             kHz                 
ff                  1.000               
unit ff             Hz                  
Nd                  6                   
Points              per decade          
spacing             Logarithmic         
Va (mV)             10.0                
pw                  0.10                
Na                  2                   
corr                0                   
E range min (V)     -1.000              
E range max (V)     1.000               
I Range             Auto                
Bandwidth           5                   
nc cycles           0                   
goto Ns'            0                   
nr cycles           0                   
inc. cycle          0                   

freq/Hz	Re(Z)/Ohm	-Im(Z)/Ohm	|Z|/Ohm	Phase(Z)/deg	time/s	<Ewe>/V	<I>/mA	Cs/uF	Cp/uF	cycle number	I Range	|Ewe|/V	|I|/A	Ns	(Q-Qo)/mA.h	Re(Y)/Ohm-1	Im(Y)/Ohm-1	|Y|/Ohm-1	Phase(Y)/deg	Re(C)/nF	Im(C)/nF	|C|/nF	Phase(C)/deg	Re(M)	Im(M)	|M|	Phase(M)/deg	Re(Permittivity)	Im(Permittivity)	|Permittivity|	Phase(Permittivity)/deg	Re(Resistivity)/Ohm.cm	Im(Resistivity)/Ohm.cm	|Resistivity|/Ohm.cm	Phase(Resistivity)/deg	Re(Conductivity)/mS/cm	Im(Conductivity)/mS/cm	|Conductivity|/mS/cm	Phase(Conductivity)/deg	Tan(Delta)	Loss Angle(Delta)/deg	dq/mA.h	
5.0001856E+005	4.5702301E+001	9.7947969E+000	4.6740116E+001	-1.2096491E+001	2.013928899224411E+002	4.5048144E-001	-8.4718067E-004	3.2496650E-002	1.4270851E-003	1.000000000000000E+000	11	1.0630714E-002	2.2744303E-004	0	2.391794830461246E-007	2.0919846E-002	4.4834865E-003	2.1394897E-002	1.2096491E+001	1.4270849E+000	6.6587467E+000	6.8099546E+000	-7.7903511E+001	0.0000000E+000	0.0000000E+000	0.0000000E+000	7.7903511E+001	0.0000000E+000	0.0000000E+000	0.0000000E+000	-7.7903511E+001	0.0000000E+000	0.0000000E+000	0.0000000E+000	-1.2096491E+001	0.0000000E+000	0.0000000E+000	0.0000000E+000	1.2096491E+001	4.6659775E+000	7.7903511E+001	2.391794830461246E-007
3.3989941E+005	3.5179802E+001	-4.6912074E-001	3.5182930E+001	7.6399082E-001	2.018148812225118E+002	4.5036128E-001	-7.6735317E-004	-9.9812537E-001	-1.7745586E-004	1.000000000000000E+000	11	1.0398348E-002	2.9555094E-004	0	4.956476544741438E-007	2.8420346E-002	-3.7898376E-004	2.8422873E-002	-7.6399082E-001	-1.7745620E-001	1.3307580E+001	1.3308764E+001	-9.0763992E+001	0.0000000E+000	0.0000000E+000	0.0000000E+000	9.0763992E+001	0.0000000E+000	0.0000000E+000	0.0000000E+000	-9.0763992E+001	0.0000000E+000	0.0000000E+000	0.0000000E+000	7.6399082E-001	0.0000000E+000	0.0000000E+000	0.0000000E+000	-7.6399082E-001	7.4990936E+001	8.9236008E+001	2.564681714280191E-007
2.3106258E+005	2.9246355E+001	-8.4833109E-001	2.9258656E+001	1.6614777E+000	2.026758916100516E+002	4.5031482E-001	-3.9392230E-003	-8.1194222E-001	-6.8256998E-004	1.000000000000000E+000	10	9.9337325E-003	3.3951431E-004	0	-3.921551917797438E-007	3.4163553E-002	-9.9096121E-004	3.4177922E-002	-1.6614777E+000	-6.8256927E-001	2.3531712E+001	2.3541609E+001	-9.1661476E+001	0.0000000E+000	0.0000000E+000	0.0000000E+000	9.1661476E+001	0.0000000E+000	0.0000000E+000	0.0000000E+000	-9.1661476E+001	0.0000000E+000	0.0000000E+000	0.0000000E+000	1.6614777E+000	0.0000000E+000	0.0000000E+000	0.0000000E+000	-1.6614777E+000	3.4475166E+001	8.8338524E+001	-8.878028462538876E-007
1.5707578E+005	2.6944244E+001	-4.4290942E-001	2.6947884E+001	9.4174308E-001	2.030978740567953E+002	4.5031774E-001	-4.2024269E-003	-2.2876837E+000	-6.1798294E-004	1.000000000000000E+000	10	1.0774854E-002	3.9984044E-004	0	-1.550161215308536E-006	3.7103653E-002	-6.0990977E-004	3.7108667E-002	-9.4174308E-001	-6.1798221E-001	3.7594784E+001	3.7599861E+001	-9.0941742E+001	0.0000000E+000	0.0000000E+000	0.0000000E+000	9.0941742E+001	0.0000000E+000	0.0000000E+000	0.0000000E+000	-9.0941742E+001	0.0000000E+000	0.0000000E+000	0.0000000E+000	9.4174308E-001	0.0000000E+000	0.0000000E+000	0.0000000E+000	-9.4174308E-001	6.0834660E+001	8.9058258E+001	-1.158006023528792E-006
1.0678630E+005	2.6225929E+001	-1.4466262E-001	2.6226328E+001	3.1604117E-001	2.035198775701720E+002	4.5031455E-001	-4.2210934E-003	-1.0302634E+001	-3.1346278E-004	1.000000000000000E+000	10	1.0686107E-002	4.0745724E-004	0	-1.099624156879953E-006	3.8129043E-002	-2.1032037E-004	3.8129624E-002	-3.1604117E-001	-3.1346166E-001	5.6827759E+001	5.6828625E+001	-9.0316040E+001	0.0000000E+000	0.0000000E+000	0.0000000E+000	9.0316040E+001	0.0000000E+000	0.0000000E+000	0.0000000E+000	-9.0316040E+001	0.0000000E+000	0.0000000E+000	0.0000000E+000	3.1604117E-001	0.0000000E+000	0.0000000E+000	0.0000000E+000	-3.1604117E-001	1.8129030E+002	8.9683960E+001	4.505370584285831E-007
7.2595008E+004	2.5893076E+001	-4.0994432E-002	2.5893108E+001	9.0711743E-002	2.039418921768811E+002	4.5032874E-001	-4.3928297E-003	-5.3479645E+001	-1.3405095E-004	1.000000000000000E+000	10	1.0501835E-002	4.0558417E-004	0	-1.111365908225303E-006	3.8620267E-002	-6.1144376E-005	3.8620315E-002	-9.0711743E-002	-1.3405354E-001	8.4669823E+001	8.4669930E+001	-9.0090714E+001	0.0000000E+000	0.0000000E+000	0.0000000E+000	9.0090714E+001	0.0000000E+000	0.0000000E+000	0.0000000E+000	-9.0090714E+001	0.0000000E+000	0.0000000E+000	0.0000000E+000	9.0711743E-002	0.0000000E+000	0.0000000E+000	0.0000000E+000	-9.0711743E-002	6.3162421E+002	8.9909286E+001	-1.174175134534991E-008
4.9352359E+004	2.5772528E+001	8.7893456E-003	2.5772530E+001	-1.9539891E-002	2.043638897702476E+002	4.5032507E-001	-4.5458991E-003	3.6690671E+002	4.2673146E-005	1.000000000000000E+000	10	1.0371512E-002	4.0242507E-004	0	-1.952910491218467E-006	3.8801000E-002	1.3232517E-005	3.8801003E-002	1.9539891E-002	4.2670939E-002	1.2512819E+002	1.2512820E+002	-8.9980461E+001	0.0000000E+000	0.0000000E+000	0.0000000E+000	8.9980461E+001	0.0000000E+000	0.0000000E+000	0.0000000E+000	-8.9980461E+001	0.0000000E+000	0.0000000E+000	0.0000000E+000	-1.9539891E-002	0.0000000E+000	0.0000000E+000	0.0000000E+000	1.9539891E-002	2.9322466E+003	8.9980461E+001	-8.415445829931642E-007
3.3551066E+004	2.5722950E+001	3.7307560E-002	2.5722977E+001	-8.3099499E-002	2.047868702169653E+002	4.5032468E-001	-4.4656317E-003	1.2715018E+002	2.6746577E-004	1.000000000000000E+000	10	1.0341871E-002	4.0204797E-004	0	-2.999265872975229E-006	3.8875710E-002	5.6383811E-005	3.8875751E-002	8.3099499E-002	2.6746535E-001	1.8441325E+002	1.8441345E+002	-8.9916901E+001	0.0000000E+000	0.0000000E+000	0.0000000E+000	8.9916901E+001	0.0000000E+000	0.0000000E+000	0.0000000E+000	-8.9916901E+001	0.0000000E+000	0.0000000E+000	0.0000000E+000	-8.3099499E-002	0.0000000E+000	0.0000000E+000	0.0000000E+000	8.3099499E-002	6.8948358E+002	8.9916901E+001	-1.046355381756762E-006
2.2806563E+004	2.5677010E+001	5.7165839E-002	2.5677073E+001	-1.2755987E-001	2.052088836770417E+002	4.5032924E-001	-4.1165589E-003	1.2207416E+002	6.0507032E-004	1.000000000000000E+000	10	1.0233812E-002	3.9855836E-004	0	-3.633688585939429E-006	3.8945153E-002	8.6705288E-005	3.8945250E-002	1.2755987E-001	6.0508740E-001	2.7177762E+002	2.7177829E+002	-8.9872437E+001	0.0000000E+000	0.0000000E+000	0.0000000E+000	8.9872437E+001	0.0000000E+000	0.0000000E+000	0.0000000E+000	-8.9872437E+001	0.0000000E+000	0.0000000E+000	0.0000000E+000	-1.2755987E-001	0.0000000E+000	0.0000000E+000	0.0000000E+000	1.2755987E-001	4.4916702E+002	8.9872437E+001	-6.344227129641997E-007
1.5504379E+004	2.5654989E+001	8.3293445E-002	2.5655125E+001	-1.8602020E-001	2.056308900170989E+002	4.5033333E-001	-4.0213568E-003	1.2324092E+002	1.2990574E-003	1.000000000000000E+000	10	1.0170841E-002	3.9644478E-004	0	-4.002325141839214E-006	3.8978361E-002	1.2655012E-004	3.8978565E-002	1.8602020E-001	1.2990553E+000	4.0011917E+002	4.0012128E+002	-8.9813980E+001	0.0000000E+000	0.0000000E+000	0.0000000E+000	8.9813980E+001	0.0000000E+000	0.0000000E+000	0.0000000E+000	-8.9813980E+001	0.0000000E+000	0.0000000E+000	0.0000000E+000	-1.8602020E-001	0.0000000E+000	0.0000000E+000	0.0000000E+000	1.8602020E-001	3.0800729E+002	8.9813980E+001	-3.686365558997852E-007
1.0540381E+004	2.5638298E+001	1.5145329E-001	2.5638746E+001	-3.3845979E-001	2.059178796040505E+002	4.5032197E-001	-4.5402981E-003	9.9697701E+001	3.4789564E-003	1.000000000000000E+000	10	1.0724115E-002	4.1827766E-004	0	-4.158999918463653E-006	3.9002787E-002	2.3040142E-004	3.9003469E-002	3.3845979E-001	3.4789875E+000	5.8892432E+002	5.8893457E+002	-8.9661537E+001	0.0000000E+000	0.0000000E+000	0.0000000E+000	8.9661537E+001	0.0000000E+000	0.0000000E+000	0.0000000E+000	-8.9661537E+001	0.0000000E+000	0.0000000E+000	0.0000000E+000	-3.3845979E-001	0.0000000E+000	0.0000000E+000	0.0000000E+000	3.3845979E-001	1.6928189E+002	8.9661537E+001	-1.566747766244383E-007
7.1637817E+003	2.5677498E+001	1.7302027E-001	2.5678082E+001	-3.8606492E-001	2.064414820555976E+002	4.5031115E-001	-6.0392586E-003	1.2840466E+002	5.8297459E-003	1.000000000000000E+000	10	1.0058377E-002	3.9171061E-004	0	-4.732329447430351E-006	3.8942836E-002	2.6240485E-004	3.8943719E-002	3.8606492E-001	5.8297110E+000	8.6517773E+002	8.6519739E+002	-8.9613937E+001	0.0000000E+000	0.0000000E+000	0.0000000E+000	8.9613937E+001	0.0000000E+000	0.0000000E+000	0.0000000E+000	-8.9613937E+001	0.0000000E+000	0.0000000E+000	0.0000000E+000	-3.8606492E-001	0.0000000E+000	0.0000000E+000	0.0000000E+000	3.8606492E-001	1.4840746E+002	8.9613937E+001	-5.733295289666988E-007
4.8715591E+003	2.5672586E+001	1.9082969E-001	2.5673296E+001	-4.2588365E-001	2.069090833578448E+002	4.5035627E-001	-4.9341731E-003	1.7120097E+002	9.4587747E-003	1.000000000000000E+000	10	1.0182539E-002	3.9661987E-004	0	-5.116635727385679E-006	3.8949903E-002	2.8952278E-004	3.8950980E-002	4.2588365E-001	9.4587030E+000	1.2725022E+003	1.2725374E+003	-8.9574120E+001	0.0000000E+000	0.0000000E+000	0.0000000E+000	8.9574120E+001	0.0000000E+000	0.0000000E+000	0.0000000E+000	-8.9574120E+001	0.0000000E+000	0.0000000E+000	0.0000000E+000	-4.2588365E-001	0.0000000E+000	0.0000000E+000	0.0000000E+000	4.2588365E-001	1.3453140E+002	8.9574120E+001	-3.843062799553281E-007
3.3110596E+003	2.5671509E+001	3.0604962E-001	2.5673332E+001	-6.8303430E-001	2.073740680999254E+002	4.5035455E-001	-4.6933689E-003	1.5705846E+002	2.2319296E-002	1.000000000000000E+000	10	1.0246421E-002	3.9910758E-004	0	-5.665388186138847E-006	3.8948156E-002	4.6433066E-004	3.8950924E-002	6.8303430E-001	2.2319380E+001	1.8721475E+003	1.8722805E+003	-8.9316963E+001	0.0000000E+000	0.0000000E+000	0.0000000E+000	8.9316963E+001	0.0000000E+000	0.0000000E+000	0.0000000E+000	-8.9316963E+001	0.0000000E+000	0.0000000E+000	0.0000000E+000	-6.8303430E-001	0.0000000E+000	0.0000000E+000	0.0000000E+000	6.8303430E-001	8.3880219E+001	8.9316963E+001	-5.487524587531680E-007
2.2507205E+003	2.5677631E+001	4.5518786E-001	2.5681665E+001	-1.0155770E+000	2.078390643620151E+002	4.5034647E-001	-4.8016370E-003	1.5534880E+002	4.8802592E-002	1.000000000000000E+000	10	1.0267609E-002	3.9980307E-004	0	-6.175317487406170E-006	3.8932167E-002	6.9015124E-004	3.8938284E-002	1.0155770E+000	4.8802696E+001	2.7530059E+003	2.7534385E+003	-8.8984421E+001	0.0000000E+000	0.0000000E+000	0.0000000E+000	8.8984421E+001	0.0000000E+000	0.0000000E+000	0.0000000E+000	-8.8984421E+001	0.0000000E+000	0.0000000E+000	0.0000000E+000	-1.0155770E+000	0.0000000E+000	0.0000000E+000	0.0000000E+000	1.0155770E+000	5.6411064E+001	8.8984421E+001	-5.099293012673222E-007
1.5304901E+003	2.5747761E+001	5.9513295E-001	2.5754639E+001	-1.3240970E+000	2.083040625440990E+002	4.5035324E-001	-5.1208423E-003	1.7473328E+002	9.3302377E-002	1.000000000000000E+000	10	1.0292166E-002	3.9962376E-004	0	-6.899600733508123E-006	3.8817588E-002	8.9722848E-004	3.8827956E-002	1.3240970E+000	9.3302345E+001	4.0366228E+003	4.0377009E+003	-8.8675903E+001	0.0000000E+000	0.0000000E+000	0.0000000E+000	8.8675903E+001	0.0000000E+000	0.0000000E+000	0.0000000E+000	-8.8675903E+001	0.0000000E+000	0.0000000E+000	0.0000000E+000	-1.3240970E+000	0.0000000E+000	0.0000000E+000	0.0000000E+000	1.3240970E+000	4.3263882E+001	8.8675903E+001	-7.242832461019535E-007
1.0403328E+003	2.5787704E+001	8.9001060E-001	2.5803059E+001	-1.9766636E+000	2.087691076061892E+002	4.5035100E-001	-5.3803134E-003	1.7189082E+002	2.0450346E-001	1.000000000000000E+000	10	1.0295074E-002	3.9898657E-004	0	-7.767181299198355E-006	3.8732037E-002	1.3367580E-003	3.8755096E-002	1.9766636E+000	2.0450327E+002	5.9254072E+003	5.9289351E+003	-8.8023338E+001	0.0000000E+000	0.0000000E+000	0.0000000E+000	8.8023338E+001	0.0000000E+000	0.0000000E+000	0.0000000E+000	-8.8023338E+001	0.0000000E+000	0.0000000E+000	0.0000000E+000	-1.9766636E+000	0.0000000E+000	0.0000000E+000	0.0000000E+000	1.9766636E+000	2.8974604E+001	8.8023338E+001	-8.675805656902316E-007
7.0703625E+002	2.5825117E+001	1.2616630E+000	2.5855917E+001	-2.7969103E+000	2.092335661348916E+002	4.5035240E-001	-5.1656431E-003	1.7841653E+002	4.2481703E-001	1.000000000000000E+000	10	1.0294881E-002	3.9816342E-004	0	-8.550408266561538E-006	3.8629796E-002	1.8872240E-003	3.8675867E-002	2.7969103E+000	4.2481747E+002	8.6956260E+003	8.7059971E+003	-8.7203087E+001	0.0000000E+000	0.0000000E+000	0.0000000E+000	8.7203087E+001	0.0000000E+000	0.0000000E+000	0.0000000E+000	-8.7203087E+001	0.0000000E+000	0.0000000E+000	0.0000000E+000	-2.7969103E+000	0.0000000E+000	0.0000000E+000	0.0000000E+000	2.7969103E+000	2.0469109E+001	8.7203087E+001	-7.832269673631837E-007
4.8076920E+002	2.5854202E+001	1.7932985E+000	2.5916321E+001	-3.9677935E+000	2.096988481836306E+002	4.5034498E-001	-6.2595289E-003	1.8459967E+002	8.8387203E-001	1.000000000000000E+000	10	1.0290749E-002	3.9707602E-004	0	-9.307408331902278E-006	3.8493235E-002	2.6699670E-003	3.8585722E-002	3.9677935E+000	8.8387268E+002	1.2742890E+004	1.2773507E+004	-8.6032204E+001	0.0000000E+000	0.0000000E+000	0.0000000E+000	8.6032204E+001	0.0000000E+000	0.0000000E+000	0.0000000E+000	-8.6032204E+001	0.0000000E+000	0.0000000E+000	0.0000000E+000	-3.9677935E+000	0.0000000E+000	0.0000000E+000	0.0000000E+000	3.9677935E+000	1.4417122E+001	8.6032204E+001	-7.570000653407396E-007
3.2677771E+002	2.5962862E+001	2.5721700E+000	2.6089964E+001	-5.6578946E+000	2.101620704456873E+002	4.5034000E-001	-6.0056578E-003	1.8935120E+002	1.8404348E+000	1.000000000000000E+000	10	1.0295875E-002	3.9462972E-004	0	-1.028999690768574E-005	3.8142189E-002	3.7787894E-003	3.8328916E-002	5.6578946E+000	1.8404355E+003	1.8576900E+004	1.8667846E+004	-8.4342102E+001	0.0000000E+000	0.0000000E+000	0.0000000E+000	8.4342102E+001	0.0000000E+000	0.0000000E+000	0.0000000E+000	-8.4342102E+001	0.0000000E+000	0.0000000E+000	0.0000000E+000	-5.6578946E+000	0.0000000E+000	0.0000000E+000	0.0000000E+000	5.6578946E+000	1.0093759E+001	8.4342102E+001	-9.825885757834634E-007
2.2206076E+002	2.6093960E+001	3.6464694E+000	2.6347513E+001	-7.9552135E+000	2.108753087195364E+002	4.5032796E-001	-8.9361687E-004	1.9655122E+002	3.7647974E+000	1.000000000000000E+000	11	1.0312738E-002	3.9141221E-004	0	-1.024188019723483E-005	3.7588995E-002	5.2528293E-003	3.7954245E-002	7.9552135E+000	3.7647981E+003	2.6940709E+004	2.7202490E+004	-8.2044785E+001	0.0000000E+000	0.0000000E+000	0.0000000E+000	8.2044785E+001	0.0000000E+000	0.0000000E+000	0.0000000E+000	-8.2044785E+001	0.0000000E+000	0.0000000E+000	0.0000000E+000	-7.9552135E+000	0.0000000E+000	0.0000000E+000	0.0000000E+000	7.9552135E+000	7.1559520E+000	8.2044785E+001	4.811671045091488E-008
1.5101485E+002	2.6245285E+001	5.1849608E+000	2.6752548E+001	-1.1175323E+001	2.113367922347534E+002	4.5033181E-001	-8.9231203E-004	2.0326144E+002	7.6351166E+000	1.000000000000000E+000	11	1.0309821E-002	3.8537715E-004	0	-1.051927482502328E-005	3.6670849E-002	7.2446121E-003	3.7379615E-002	1.1175323E+001	7.6351162E+003	3.8647508E+004	3.9394477E+004	-7.8824677E+001	0.0000000E+000	0.0000000E+000	0.0000000E+000	7.8824677E+001	0.0000000E+000	0.0000000E+000	0.0000000E+000	-7.8824677E+001	0.0000000E+000	0.0000000E+000	0.0000000E+000	-1.1175323E+001	0.0000000E+000	0.0000000E+000	0.0000000E+000	1.1175323E+001	5.0618095E+000	7.8824677E+001	-2.773946277884540E-007
1.0266736E+002	2.6454086E+001	7.4389234E+000	2.7480106E+001	-1.5706053E+001	2.118117060439690E+002	4.5033425E-001	-8.7664474E-004	2.0839038E+002	1.5270772E+001	1.000000000000000E+000	11	1.0314874E-002	3.7535786E-004	0	-1.082938714343699E-005	3.5031274E-002	9.8508410E-003	3.6389962E-002	1.5706053E+001	1.5270776E+004	5.4305488E+004	5.6411723E+004	-7.4293945E+001	0.0000000E+000	0.0000000E+000	0.0000000E+000	7.4293945E+001	0.0000000E+000	0.0000000E+000	0.0000000E+000	-7.4293945E+001	0.0000000E+000	0.0000000E+000	0.0000000E+000	-1.5706053E+001	0.0000000E+000	0.0000000E+000	0.0000000E+000	1.5706053E+001	3.5561714E+000	7.4293945E+001	-3.101123184137068E-007
6.9754463E+001	2.6719349E+001	1.0677542E+001	2.8773834E+001	-2.1782557E+001	2.122788599861815E+002	4.5032606E-001	-8.3449355E-004	2.1368639E+002	2.9425507E+001	1.000000000000000E+000	11	1.0307853E-002	3.5823704E-004	0	-1.095763396637307E-005	3.2272335E-002	1.2896617E-002	3.4753796E-002	2.1782557E+001	2.9425504E+004	7.3634023E+004	7.9295836E+004	-6.8217445E+001	0.0000000E+000	0.0000000E+000	0.0000000E+000	6.8217445E+001	0.0000000E+000	0.0000000E+000	0.0000000E+000	-6.8217445E+001	0.0000000E+000	0.0000000E+000	0.0000000E+000	-2.1782557E+001	0.0000000E+000	0.0000000E+000	0.0000000E+000	2.1782557E+001	2.5023878E+000	6.8217445E+001	-1.282468229360855E-007
4.7444328E+001	2.7102242E+001	1.5376078E+001	3.1160154E+001	-2.9567804E+001	2.127228489139379E+002	4.5032546E-001	-1.0790121E-003	2.1816762E+002	5.3122952E+001	1.000000000000000E+000	11	1.0309270E-002	3.3084783E-004	0	-1.130157058604366E-005	2.7912965E-002	1.5836032E-002	3.2092266E-002	2.9567804E+001	5.3122953E+004	9.3635789E+004	1.0765551E+005	-6.0432198E+001	0.0000000E+000	0.0000000E+000	0.0000000E+000	6.0432198E+001	0.0000000E+000	0.0000000E+000	0.0000000E+000	-6.0432198E+001	0.0000000E+000	0.0000000E+000	0.0000000E+000	-2.9567804E+001	0.0000000E+000	0.0000000E+000	0.0000000E+000	2.9567804E+001	1.7626239E+000	6.0432198E+001	-3.439366196705835E-007
3.2238655E+001	2.7620485E+001	2.2181395E+001	3.5424644E+001	-3.8767170E+001	2.131602646947285E+002	4.5032629E-001	-1.1002766E-003	2.2256371E+002	8.7261177E+001	1.000000000000000E+000	11	1.0307219E-002	2.9096182E-004	0	-1.144743477628476E-005	2.2010012E-002	1.7675750E-002	2.8228935E-002	3.8767170E+001	8.7261172E+004	1.0865845E+005	1.3935986E+005	-5.1232830E+001	0.0000000E+000	0.0000000E+000	0.0000000E+000	5.1232830E+001	0.0000000E+000	0.0000000E+000	0.0000000E+000	-5.1232830E+001	0.0000000E+000	0.0000000E+000	0.0000000E+000	-3.8767170E+001	0.0000000E+000	0.0000000E+000	0.0000000E+000	3.8767170E+001	1.2452096E+000	5.1232834E+001	-1.458641902411008E-007
