EC-Lab ASCII FILE
Nb header lines : 63                          

Potentio Electrochemical Impedance Spectroscopy

Run on channel : 2 (SN 66414)
User : 
CE vs. WE compliance from -10 V to 10 V
Electrode connection : standard
Potential control : Ewe
Ewe ctrl range : min = -1.00 V, max = 1.00 V
Safety Limits :
	Do not start on E overload
Acquisition started on : 04/01/2024 19:26:22.905
Loaded Setting File :  C:\Users\NakamuraT\Documents\EC-Lab\Data\Yatsuzuka\20240401_2-128_CV_cycles_alpha_gamma\20240328_2-128_001_alpha_K-1.mps
Saved on :
	File : 20240328_2-128_004_gamma_Na-1_02_PEIS_C02.mpr
	Directory : C:\Users\NakamuraT\Documents\EC-Lab\Data\Yatsuzuka\20240401_2-128_CV_cycles_alpha_gamma\
	Host : 192.109.209.100
Device : SP-150e (SN .003411)
Address : 192.109.209.236
EC-Lab for windows v11.50 (software)
Internet server v11.50 (firmware)
Command interpretor v11.50 (firmware)
Electrode material : 
Initial state : 
Electrolyte : 
Comments : 
Electrode surface area : 0.001 cm2
Characteristic mass : 0.001 g
Equivalent Weight : 0.000 g/eq.
Density : 0.000 g/cm3
Volume (V) : 0.001 cm3
Cycle Definition : Charge/Discharge alternance
Mode                Single sine         
E (V)               0.4500              
vs.                 Ref                 
tE (h:m:s)          0:00:0.0000         
record              0                   
dI                  0.000               
unit dI             mA                  
dt (s)              0.000               
fi                  500.000             
unit fi             kHz                 
ff                  1.000               
unit ff             Hz                  
Nd                  6                   
Points              per decade          
spacing             Logarithmic         
Va (mV)             10.0                
pw                  0.10                
Na                  2                   
corr                0                   
E range min (V)     -1.000              
E range max (V)     1.000               
I Range             Auto                
Bandwidth           5                   
nc cycles           0                   
goto Ns'            0                   
nr cycles           0                   
inc. cycle          0                   

freq/Hz	Re(Z)/Ohm	-Im(Z)/Ohm	|Z|/Ohm	Phase(Z)/deg	time/s	<Ewe>/V	<I>/mA	Cs/uF	Cp/uF	cycle number	I Range	|Ewe|/V	|I|/A	Ns	(Q-Qo)/mA.h	Re(Y)/Ohm-1	Im(Y)/Ohm-1	|Y|/Ohm-1	Phase(Y)/deg	Re(C)/nF	Im(C)/nF	|C|/nF	Phase(C)/deg	Re(M)	Im(M)	|M|	Phase(M)/deg	Re(Permittivity)	Im(Permittivity)	|Permittivity|	Phase(Permittivity)/deg	Re(Resistivity)/Ohm.cm	Im(Resistivity)/Ohm.cm	|Resistivity|/Ohm.cm	Phase(Resistivity)/deg	Re(Conductivity)/mS/cm	Im(Conductivity)/mS/cm	|Conductivity|/mS/cm	Phase(Conductivity)/deg	Tan(Delta)	Loss Angle(Delta)/deg	dq/mA.h	
5.0001856E+005	4.5558121E+001	8.4236841E+000	4.6330345E+001	-1.0475662E+001	2.013870903225179E+002	4.5043296E-001	-1.2931306E-003	3.7786089E-002	1.2491224E-003	1.000000000000000E+000	11	1.0372711E-002	2.2388590E-004	0	5.029999803421864E-007	2.1224367E-002	3.9243791E-003	2.1584125E-002	1.0475662E+001	1.2491223E+000	6.7556748E+000	6.8701854E+000	-7.9524338E+001	0.0000000E+000	0.0000000E+000	0.0000000E+000	7.9524338E+001	0.0000000E+000	0.0000000E+000	0.0000000E+000	-7.9524338E+001	0.0000000E+000	0.0000000E+000	0.0000000E+000	-1.0475662E+001	0.0000000E+000	0.0000000E+000	0.0000000E+000	1.0475662E+001	5.4083366E+000	7.9524338E+001	5.029999803421864E-007
3.3989941E+005	3.4463181E+001	-9.9127561E-001	3.4477432E+001	1.6475629E+000	2.018090779692429E+002	4.5032147E-001	-1.0737922E-003	-4.7236237E-001	-3.9047597E-004	1.000000000000000E+000	11	1.0380504E-002	3.0108111E-004	0	9.319875747047870E-007	2.8992491E-002	-8.3392044E-004	2.9004481E-002	-1.6475629E+000	-3.9047536E-001	1.3575482E+001	1.3581097E+001	-9.1647560E+001	0.0000000E+000	0.0000000E+000	0.0000000E+000	9.1647560E+001	0.0000000E+000	0.0000000E+000	0.0000000E+000	-9.1647560E+001	0.0000000E+000	0.0000000E+000	0.0000000E+000	1.6475629E+000	0.0000000E+000	0.0000000E+000	0.0000000E+000	-1.6475629E+000	3.4766499E+001	8.8352440E+001	4.289875943626006E-007
2.3106258E+005	2.8755463E+001	-1.0005664E+000	2.8772865E+001	1.9928426E+000	2.026700678234483E+002	4.5027333E-001	-3.8197546E-003	-6.8840593E-001	-8.3247304E-004	1.000000000000000E+000	10	9.9022593E-003	3.4415271E-004	0	7.482740491440280E-007	3.4733947E-002	-1.2085920E-003	3.4754969E-002	-1.9928426E+000	-8.3247352E-001	2.3924599E+001	2.3939077E+001	-9.1992844E+001	0.0000000E+000	0.0000000E+000	0.0000000E+000	9.1992844E+001	0.0000000E+000	0.0000000E+000	0.0000000E+000	-9.1992844E+001	0.0000000E+000	0.0000000E+000	0.0000000E+000	1.9928426E+000	0.0000000E+000	0.0000000E+000	0.0000000E+000	-1.9928426E+000	2.8739185E+001	8.8007156E+001	-1.837135255607590E-007
1.5707578E+005	2.6642738E+001	-4.4836611E-001	2.6646511E+001	9.6412987E-001	2.030920913635200E+002	4.5027992E-001	-4.8445710E-003	-2.2598424E+000	-6.3982757E-004	1.000000000000000E+000	10	1.0769387E-002	4.0415747E-004	0	5.766225982139683E-007	3.7523054E-002	-6.3146901E-004	3.7528366E-002	-9.6412987E-001	-6.3982534E-001	3.8019730E+001	3.8025112E+001	-9.0964127E+001	0.0000000E+000	0.0000000E+000	0.0000000E+000	9.0964127E+001	0.0000000E+000	0.0000000E+000	0.0000000E+000	-9.0964127E+001	0.0000000E+000	0.0000000E+000	0.0000000E+000	9.6412987E-001	0.0000000E+000	0.0000000E+000	0.0000000E+000	-9.6412987E-001	5.9421837E+001	8.9035873E+001	-1.716514509300597E-007
1.0678630E+005	2.5964216E+001	-1.4332512E-001	2.5964611E+001	3.1627533E-001	2.035140751702274E+002	4.5027098E-001	-3.9410884E-003	-1.0398778E+001	-3.1685698E-004	1.000000000000000E+000	10	1.0655211E-002	4.1037437E-004	0	-5.118404799359268E-007	3.8513374E-002	-2.1259776E-004	3.8513962E-002	-3.1627533E-001	-3.1685820E-001	5.7400566E+001	5.7401440E+001	-9.0316277E+001	0.0000000E+000	0.0000000E+000	0.0000000E+000	9.0316277E+001	0.0000000E+000	0.0000000E+000	0.0000000E+000	-9.0316277E+001	0.0000000E+000	0.0000000E+000	0.0000000E+000	3.1627533E-001	0.0000000E+000	0.0000000E+000	0.0000000E+000	-3.1627533E-001	1.8115608E+002	8.9683723E+001	-1.088463078149895E-006
7.2595008E+004	2.5669672E+001	-5.8199447E-002	2.5669739E+001	1.2990336E-001	2.039360879635933E+002	4.5027915E-001	-3.5248147E-003	-3.7669903E+001	-1.9363745E-004	1.000000000000000E+000	10	1.0521761E-002	4.0988968E-004	0	-2.407853179287890E-007	3.8956277E-002	-8.8323432E-005	3.8956378E-002	-1.2990336E-001	-1.9364092E-001	8.5406479E+001	8.5406700E+001	-9.0129906E+001	0.0000000E+000	0.0000000E+000	0.0000000E+000	9.0129906E+001	0.0000000E+000	0.0000000E+000	0.0000000E+000	-9.0129906E+001	0.0000000E+000	0.0000000E+000	0.0000000E+000	1.2990336E-001	0.0000000E+000	0.0000000E+000	0.0000000E+000	-1.2990336E-001	4.4106384E+002	8.9870094E+001	2.710551620071379E-007
4.9352359E+004	2.5555574E+001	2.0623313E-002	2.5555582E+001	-4.6237607E-002	2.043580691036332E+002	4.5028472E-001	-4.1818931E-003	1.5637012E+002	1.0183547E-004	1.000000000000000E+000	10	1.0416300E-002	4.0759394E-004	0	-1.943148561687041E-007	3.9130382E-002	3.1578165E-005	3.9130393E-002	4.6237607E-002	1.0182782E-001	1.2619039E+002	1.2619043E+002	-8.9953766E+001	0.0000000E+000	0.0000000E+000	0.0000000E+000	8.9953766E+001	0.0000000E+000	0.0000000E+000	0.0000000E+000	-8.9953766E+001	0.0000000E+000	0.0000000E+000	0.0000000E+000	-4.6237607E-002	0.0000000E+000	0.0000000E+000	0.0000000E+000	4.6237607E-002	1.2391595E+003	8.9953766E+001	4.647046176008491E-008
3.3551066E+004	2.5449972E+001	2.6163373E-002	2.5449986E+001	-5.8901843E-002	2.047800845103484E+002	4.5029050E-001	-4.1669593E-003	1.8130930E+002	1.9161630E-004	1.000000000000000E+000	10	1.0332567E-002	4.0599500E-004	0	-4.579562711199590E-007	3.9292730E-002	4.0394163E-005	3.9292753E-002	5.8901843E-002	1.9160680E-001	1.8639148E+002	1.8639157E+002	-8.9941101E+001	0.0000000E+000	0.0000000E+000	0.0000000E+000	8.9941101E+001	0.0000000E+000	0.0000000E+000	0.0000000E+000	-8.9941101E+001	0.0000000E+000	0.0000000E+000	0.0000000E+000	-5.8901843E-002	0.0000000E+000	0.0000000E+000	0.0000000E+000	5.8901843E-002	9.7273285E+002	8.9941101E+001	-2.636414149512549E-007
2.2806563E+004	2.5427807E+001	5.2454006E-002	2.5427860E+001	-1.1819301E-001	2.052030753037689E+002	4.5028275E-001	-3.9354889E-003	1.3303983E+002	5.6613411E-004	1.000000000000000E+000	10	1.0255146E-002	4.0330354E-004	0	-1.205399784126914E-006	3.9326862E-002	8.1125807E-005	3.9326943E-002	1.1819301E-001	5.6614161E-001	2.7444135E+002	2.7444193E+002	-8.9881805E+001	0.0000000E+000	0.0000000E+000	0.0000000E+000	8.9881805E+001	0.0000000E+000	0.0000000E+000	0.0000000E+000	-8.9881805E+001	0.0000000E+000	0.0000000E+000	0.0000000E+000	-1.1819301E-001	0.0000000E+000	0.0000000E+000	0.0000000E+000	1.1819301E-001	4.8476385E+002	8.9881805E+001	-7.474435130069549E-007
1.5504379E+004	2.5427511E+001	8.7274529E-002	2.5427662E+001	-1.9665481E-001	2.056260769771907E+002	4.5027605E-001	-5.0555081E-003	1.1761922E+002	1.3856081E-003	1.000000000000000E+000	10	1.0124223E-002	3.9815786E-004	0	-1.579742973495740E-006	3.9327018E-002	1.3498163E-004	3.9327249E-002	1.9665481E-001	1.3856113E+000	4.0369812E+002	4.0370050E+002	-8.9803345E+001	0.0000000E+000	0.0000000E+000	0.0000000E+000	8.9803345E+001	0.0000000E+000	0.0000000E+000	0.0000000E+000	-8.9803345E+001	0.0000000E+000	0.0000000E+000	0.0000000E+000	-1.9665481E-001	0.0000000E+000	0.0000000E+000	0.0000000E+000	1.9665481E-001	2.9135089E+002	8.9803345E+001	-3.743431893688266E-007
1.0540381E+004	2.5407969E+001	9.0145484E-002	2.5408129E+001	-2.0328009E-001	2.059120672308054E+002	4.5028707E-001	-5.2123093E-003	1.6750194E+002	2.1084459E-003	1.000000000000000E+000	10	1.0746896E-002	4.2297080E-004	0	-2.171837388819161E-006	3.9357238E-002	1.3963640E-004	3.9357483E-002	2.0328009E-001	2.1084199E+000	5.9427631E+002	5.9428003E+002	-8.9796722E+001	0.0000000E+000	0.0000000E+000	0.0000000E+000	8.9796722E+001	0.0000000E+000	0.0000000E+000	0.0000000E+000	-8.9796722E+001	0.0000000E+000	0.0000000E+000	0.0000000E+000	-2.0328009E-001	0.0000000E+000	0.0000000E+000	0.0000000E+000	2.0328009E-001	2.8185513E+002	8.9796722E+001	-5.920944153234207E-007
7.1637817E+003	2.5424376E+001	1.7800914E-001	2.5424999E+001	-4.0115067E-001	2.064356576290302E+002	4.5026824E-001	-5.8675222E-003	1.2480602E+002	6.1178412E-003	1.000000000000000E+000	10	1.0132356E-002	3.9851942E-004	0	-2.467850898977809E-006	3.9330404E-002	2.7537241E-004	3.9331369E-002	4.0115067E-001	6.1178851E+000	8.7378821E+002	8.7380963E+002	-8.9598846E+001	0.0000000E+000	0.0000000E+000	0.0000000E+000	8.9598846E+001	0.0000000E+000	0.0000000E+000	0.0000000E+000	-8.9598846E+001	0.0000000E+000	0.0000000E+000	0.0000000E+000	-4.0115067E-001	0.0000000E+000	0.0000000E+000	0.0000000E+000	4.0115067E-001	1.4282623E+002	8.9598846E+001	-2.960135101586479E-007
4.8715591E+003	2.5432634E+001	1.9559629E-001	2.5433386E+001	-4.4063941E-001	2.069042978379657E+002	4.5030135E-001	-5.0107073E-003	1.6702887E+002	9.8788049E-003	1.000000000000000E+000	10	1.0282812E-002	4.0430369E-004	0	-2.817236304300928E-006	3.9317235E-002	3.0237943E-004	3.9318398E-002	4.4063941E-001	9.8787212E+000	1.2845031E+003	1.2845410E+003	-8.9559364E+001	0.0000000E+000	0.0000000E+000	0.0000000E+000	8.9559364E+001	0.0000000E+000	0.0000000E+000	0.0000000E+000	-8.9559364E+001	0.0000000E+000	0.0000000E+000	0.0000000E+000	-4.4063941E-001	0.0000000E+000	0.0000000E+000	0.0000000E+000	4.4063941E-001	1.3002615E+002	8.9559364E+001	-3.493854053231188E-007
3.3110596E+003	2.5439205E+001	3.0041546E-001	2.5440979E+001	-6.7658317E-001	2.073702667134276E+002	4.5030645E-001	-5.0200406E-003	1.6000401E+002	2.2310423E-002	1.000000000000000E+000	10	1.0356926E-002	4.0709623E-004	0	-3.835282592584715E-006	3.9303921E-002	4.6414603E-004	3.9306663E-002	6.7658317E-001	2.2310396E+001	1.8892484E+003	1.8893801E+003	-8.9323418E+001	0.0000000E+000	0.0000000E+000	0.0000000E+000	8.9323418E+001	0.0000000E+000	0.0000000E+000	0.0000000E+000	-8.9323418E+001	0.0000000E+000	0.0000000E+000	0.0000000E+000	-6.7658317E-001	0.0000000E+000	0.0000000E+000	0.0000000E+000	6.7658317E-001	8.4680084E+001	8.9323418E+001	-1.018046288283787E-006
2.2507205E+003	2.5459221E+001	4.4225106E-001	2.5463062E+001	-9.9518245E-001	2.078352702821867E+002	4.5029902E-001	-5.4736482E-003	1.5989310E+002	4.8233215E-002	1.000000000000000E+000	10	1.0389109E-002	4.0800706E-004	0	-4.194749717004015E-006	3.9266650E-002	6.8209931E-004	3.9272573E-002	9.9518245E-001	4.8233376E+001	2.7766582E+003	2.7770771E+003	-8.9004814E+001	0.0000000E+000	0.0000000E+000	0.0000000E+000	8.9004814E+001	0.0000000E+000	0.0000000E+000	0.0000000E+000	-8.9004814E+001	0.0000000E+000	0.0000000E+000	0.0000000E+000	-9.9518245E-001	0.0000000E+000	0.0000000E+000	0.0000000E+000	9.9518245E-001	5.7567348E+001	8.9004814E+001	-3.594671244193002E-007
1.5304901E+003	2.5459572E+001	6.2240863E-001	2.5467178E+001	-1.4004275E+000	2.083002744909390E+002	4.5030338E-001	-5.5781831E-003	1.6707597E+002	9.9793799E-002	1.000000000000000E+000	10	1.0401980E-002	4.0844650E-004	0	-4.598716191782539E-006	3.9254498E-002	9.5965224E-004	3.9266225E-002	1.4004275E+000	9.9793892E+001	4.0820569E+003	4.0832766E+003	-8.8599571E+001	0.0000000E+000	0.0000000E+000	0.0000000E+000	8.8599571E+001	0.0000000E+000	0.0000000E+000	0.0000000E+000	-8.8599571E+001	0.0000000E+000	0.0000000E+000	0.0000000E+000	-1.4004275E+000	0.0000000E+000	0.0000000E+000	0.0000000E+000	1.4004275E+000	4.0904915E+001	8.8599571E+001	-4.039664747785232E-007
1.0403328E+003	2.5478184E+001	8.5703886E-001	2.5492594E+001	-1.9265975E+000	2.087652663263580E+002	4.5029816E-001	-5.2869781E-003	1.7850375E+002	2.0175315E-001	1.000000000000000E+000	10	1.0406491E-002	4.0821626E-004	0	-5.699163799154728E-006	3.9204907E-002	1.3187804E-003	3.9227080E-002	1.9265975E+000	2.0175316E+002	5.9977480E+003	6.0011406E+003	-8.8073402E+001	0.0000000E+000	0.0000000E+000	0.0000000E+000	8.8073402E+001	0.0000000E+000	0.0000000E+000	0.0000000E+000	-8.8073402E+001	0.0000000E+000	0.0000000E+000	0.0000000E+000	-1.9265975E+000	0.0000000E+000	0.0000000E+000	0.0000000E+000	1.9265975E+000	2.9728155E+001	8.8073402E+001	-1.100447607372189E-006
7.0703625E+002	2.5578577E+001	1.2069707E+000	2.5607038E+001	-2.7015994E+000	2.092297958416893E+002	4.5030189E-001	-5.4699145E-003	1.8650124E+002	4.1433960E-001	1.000000000000000E+000	10	1.0414900E-002	4.0672021E-004	0	-6.249376963005893E-006	3.9008360E-002	1.8406789E-003	3.9051764E-002	2.7015994E+000	4.1433963E+002	8.7808418E+003	8.7906123E+003	-8.7298401E+001	0.0000000E+000	0.0000000E+000	0.0000000E+000	8.7298401E+001	0.0000000E+000	0.0000000E+000	0.0000000E+000	-8.7298401E+001	0.0000000E+000	0.0000000E+000	0.0000000E+000	-2.7015994E+000	0.0000000E+000	0.0000000E+000	0.0000000E+000	2.7015994E+000	2.1192377E+001	8.7298401E+001	-5.502131638511655E-007
4.8076920E+002	2.5645296E+001	1.7167953E+000	2.5702696E+001	-3.8298869E+000	2.096950172771612E+002	4.5030323E-001	-6.0187243E-003	1.9282571E+002	8.6028957E-001	1.000000000000000E+000	10	1.0417546E-002	4.0530946E-004	0	-6.810482424224676E-006	3.8819537E-002	2.5987301E-003	3.8906425E-002	3.8298869E+000	8.6028973E+002	1.2850909E+004	1.2879673E+004	-8.6170113E+001	0.0000000E+000	0.0000000E+000	0.0000000E+000	8.6170113E+001	0.0000000E+000	0.0000000E+000	0.0000000E+000	-8.6170113E+001	0.0000000E+000	0.0000000E+000	0.0000000E+000	-3.8298869E+000	0.0000000E+000	0.0000000E+000	0.0000000E+000	3.8298869E+000	1.4937888E+001	8.6170113E+001	-5.611054612187825E-007
3.2677771E+002	2.5737667E+001	2.4466565E+000	2.5853697E+001	-5.4302940E+000	2.101592454859019E+002	4.5030063E-001	-6.5096663E-003	1.9906491E+002	1.7827704E+000	1.000000000000000E+000	10	1.0418189E-002	4.0296707E-004	0	-7.545636086166875E-006	3.8505595E-002	3.6603925E-003	3.8679186E-002	5.4302940E+000	1.7827716E+003	1.8753900E+004	1.8838445E+004	-8.4569702E+001	0.0000000E+000	0.0000000E+000	0.0000000E+000	8.4569702E+001	0.0000000E+000	0.0000000E+000	0.0000000E+000	-8.4569702E+001	0.0000000E+000	0.0000000E+000	0.0000000E+000	-5.4302940E+000	0.0000000E+000	0.0000000E+000	0.0000000E+000	5.4302940E+000	1.0519526E+001	8.4569702E+001	-7.351536619421993E-007
2.2206076E+002	2.5888081E+001	3.4769201E+000	2.6120522E+001	-7.6493831E+000	2.108724796530878E+002	4.5028976E-001	-6.8938662E-004	2.0613588E+002	3.6524084E+000	1.000000000000000E+000	11	1.0441255E-002	3.9973378E-004	0	-8.586106543518124E-006	3.7943393E-002	5.0960188E-003	3.8284075E-002	7.6493831E+000	3.6524087E+003	2.7194713E+004	2.7438887E+004	-8.2350616E+001	0.0000000E+000	0.0000000E+000	0.0000000E+000	8.2350616E+001	0.0000000E+000	0.0000000E+000	0.0000000E+000	-8.2350616E+001	0.0000000E+000	0.0000000E+000	0.0000000E+000	-7.6493831E+000	0.0000000E+000	0.0000000E+000	0.0000000E+000	7.6493831E+000	7.4456930E+000	8.2350616E+001	-1.040470457351249E-006
1.5101485E+002	2.6025320E+001	4.9417334E+000	2.6490337E+001	-1.0751428E+001	2.113359798350866E+002	4.5028377E-001	-7.2724873E-004	2.1326578E+002	7.4217243E+000	1.000000000000000E+000	11	1.0434407E-002	3.9389482E-004	0	-8.763152901652372E-006	3.7086949E-002	7.0421346E-003	3.7749615E-002	1.0751428E+001	7.4217236E+003	3.9086031E+004	3.9784418E+004	-7.9248573E+001	0.0000000E+000	0.0000000E+000	0.0000000E+000	7.9248573E+001	0.0000000E+000	0.0000000E+000	0.0000000E+000	-7.9248573E+001	0.0000000E+000	0.0000000E+000	0.0000000E+000	-1.0751428E+001	0.0000000E+000	0.0000000E+000	0.0000000E+000	1.0751428E+001	5.2664356E+000	7.9248573E+001	-1.770463581342488E-007
1.0266736E+002	2.6241465E+001	7.0632720E+000	2.7175436E+001	-1.5064950E+001	2.118108935109485E+002	4.5029086E-001	-9.9153642E-004	2.1947334E+002	1.4826568E+001	1.000000000000000E+000	11	1.0440864E-002	3.8420226E-004	0	-9.210652058769484E-006	3.5533257E-002	9.5642935E-003	3.6797937E-002	1.5064950E+001	1.4826567E+004	5.5083660E+004	5.7044164E+004	-7.4935051E+001	0.0000000E+000	0.0000000E+000	0.0000000E+000	7.4935051E+001	0.0000000E+000	0.0000000E+000	0.0000000E+000	-7.4935051E+001	0.0000000E+000	0.0000000E+000	0.0000000E+000	-1.5064950E+001	0.0000000E+000	0.0000000E+000	0.0000000E+000	1.5064950E+001	3.7151995E+000	7.4935051E+001	-4.474991571171114E-007
6.9754463E+001	2.6491535E+001	1.0149730E+001	2.8369322E+001	-2.0963388E+001	2.122780648398475E+002	4.5028976E-001	-1.0314500E-003	2.2479865E+002	2.8774296E+001	1.000000000000000E+000	11	1.0437815E-002	3.6792611E-004	0	-9.572953589803850E-006	3.2916162E-002	1.2611205E-002	3.5249345E-002	2.0963388E+001	2.8774293E+004	7.5103008E+004	8.0426500E+004	-6.9036613E+001	0.0000000E+000	0.0000000E+000	0.0000000E+000	6.9036613E+001	0.0000000E+000	0.0000000E+000	0.0000000E+000	-6.9036613E+001	0.0000000E+000	0.0000000E+000	0.0000000E+000	-2.0963388E+001	0.0000000E+000	0.0000000E+000	0.0000000E+000	2.0963388E+001	2.6100729E+000	6.9036613E+001	-3.623015310343663E-007
4.7444328E+001	2.6826466E+001	1.4536340E+001	3.0511709E+001	-2.8451742E+001	2.127220592875528E+002	4.5028234E-001	-1.2748491E-003	2.3077075E+002	5.2379074E+001	1.000000000000000E+000	11	1.0429753E-002	3.4182789E-004	0	-1.000386111123791E-005	2.8815780E-002	1.5614281E-002	3.2774303E-002	2.8451742E+001	5.2379074E+004	9.6664320E+004	1.0994343E+005	-6.1548256E+001	0.0000000E+000	0.0000000E+000	0.0000000E+000	6.1548256E+001	0.0000000E+000	0.0000000E+000	0.0000000E+000	-6.1548256E+001	0.0000000E+000	0.0000000E+000	0.0000000E+000	-2.8451742E+001	0.0000000E+000	0.0000000E+000	0.0000000E+000	2.8451742E+001	1.8454759E+000	6.1548256E+001	-4.309075214340638E-007
3.2238655E+001	2.7331774E+001	2.0967802E+001	3.4448143E+001	-3.7493923E+001	2.131594744550384E+002	4.5027581E-001	-1.5076189E-003	2.3544545E+002	8.7229721E+001	1.000000000000000E+000	11	1.0433545E-002	3.0287687E-004	0	-9.929993849828153E-006	2.3032239E-002	1.7669378E-002	2.9029140E-002	3.7493923E+001	8.7229719E+004	1.1370495E+005	1.4331030E+005	-5.2506077E+001	0.0000000E+000	0.0000000E+000	0.0000000E+000	5.2506077E+001	0.0000000E+000	0.0000000E+000	0.0000000E+000	-5.2506077E+001	0.0000000E+000	0.0000000E+000	0.0000000E+000	-3.7493923E+001	0.0000000E+000	0.0000000E+000	0.0000000E+000	3.7493923E+001	1.3035116E+000	5.2506073E+001	7.386726140976063E-008
