EC-Lab ASCII FILE
Nb header lines : 63                          

Potentio Electrochemical Impedance Spectroscopy

Run on channel : 2 (SN 66414)
User : 
CE vs. WE compliance from -10 V to 10 V
Electrode connection : standard
Potential control : Ewe
Ewe ctrl range : min = -1.00 V, max = 1.00 V
Safety Limits :
	Do not start on E overload
Acquisition started on : 04/01/2024 18:52:31.695
Loaded Setting File :  C:\Users\NakamuraT\Documents\EC-Lab\Data\Yatsuzuka\20240401_2-128_CV_cycles_alpha_gamma\20240328_2-128_001_alpha_K-1.mps
Saved on :
	File : 20240328_2-128_002_gamma_K-1_02_PEIS_C02.mpr
	Directory : C:\Users\NakamuraT\Documents\EC-Lab\Data\Yatsuzuka\20240401_2-128_CV_cycles_alpha_gamma\
	Host : 192.109.209.100
Device : SP-150e (SN .003411)
Address : 192.109.209.236
EC-Lab for windows v11.50 (software)
Internet server v11.50 (firmware)
Command interpretor v11.50 (firmware)
Electrode material : 
Initial state : 
Electrolyte : 
Comments : 
Electrode surface area : 0.001 cm2
Characteristic mass : 0.001 g
Equivalent Weight : 0.000 g/eq.
Density : 0.000 g/cm3
Volume (V) : 0.001 cm3
Cycle Definition : Charge/Discharge alternance
Mode                Single sine         
E (V)               0.4500              
vs.                 Ref                 
tE (h:m:s)          0:00:0.0000         
record              0                   
dI                  0.000               
unit dI             mA                  
dt (s)              0.000               
fi                  500.000             
unit fi             kHz                 
ff                  1.000               
unit ff             Hz                  
Nd                  6                   
Points              per decade          
spacing             Logarithmic         
Va (mV)             10.0                
pw                  0.10                
Na                  2                   
corr                0                   
E range min (V)     -1.000              
E range max (V)     1.000               
I Range             Auto                
Bandwidth           5                   
nc cycles           0                   
goto Ns'            0                   
nr cycles           0                   
inc. cycle          0                   

freq/Hz	Re(Z)/Ohm	-Im(Z)/Ohm	|Z|/Ohm	Phase(Z)/deg	time/s	<Ewe>/V	<I>/mA	Cs/uF	Cp/uF	cycle number	I Range	|Ewe|/V	|I|/A	Ns	(Q-Qo)/mA.h	Re(Y)/Ohm-1	Im(Y)/Ohm-1	|Y|/Ohm-1	Phase(Y)/deg	Re(C)/nF	Im(C)/nF	|C|/nF	Phase(C)/deg	Re(M)	Im(M)	|M|	Phase(M)/deg	Re(Permittivity)	Im(Permittivity)	|Permittivity|	Phase(Permittivity)/deg	Re(Resistivity)/Ohm.cm	Im(Resistivity)/Ohm.cm	|Resistivity|/Ohm.cm	Phase(Resistivity)/deg	Re(Conductivity)/mS/cm	Im(Conductivity)/mS/cm	|Conductivity|/mS/cm	Phase(Conductivity)/deg	Tan(Delta)	Loss Angle(Delta)/deg	dq/mA.h	
5.0001856E+005	6.4077209E+001	1.8642351E+001	6.6733994E+001	-1.6221601E+001	2.010508684395609E+002	4.5036680E-001	5.1883061E-004	1.7073924E-002	1.3324179E-003	1.000000000000000E+000	11	1.0754414E-002	1.6115347E-004	0	6.541927663117046E-007	1.4388296E-002	4.1860696E-003	1.4984867E-002	1.6221601E+001	1.3324180E+000	4.5797668E+000	4.7696543E+000	-7.3778397E+001	0.0000000E+000	0.0000000E+000	0.0000000E+000	7.3778397E+001	0.0000000E+000	0.0000000E+000	0.0000000E+000	-7.3778397E+001	0.0000000E+000	0.0000000E+000	0.0000000E+000	-1.6221601E+001	0.0000000E+000	0.0000000E+000	0.0000000E+000	1.6221601E+001	3.4371850E+000	7.3778397E+001	6.541927663117046E-007
3.3989941E+005	5.4798084E+001	3.6807582E+000	5.4921562E+001	-3.8427548E+000	2.014728670729237E+002	4.5029911E-001	5.3916191E-004	1.2721327E-001	5.7137501E-004	1.000000000000000E+000	11	1.0812107E-002	1.9686451E-004	0	2.951963876112131E-007	1.8166849E-002	1.2202576E-003	1.8207785E-002	3.8427548E+000	5.7137549E-001	8.5064688E+000	8.5256367E+000	-8.6157242E+001	0.0000000E+000	0.0000000E+000	0.0000000E+000	8.6157242E+001	0.0000000E+000	0.0000000E+000	0.0000000E+000	-8.6157242E+001	0.0000000E+000	0.0000000E+000	0.0000000E+000	-3.8427548E+000	0.0000000E+000	0.0000000E+000	0.0000000E+000	3.8427548E+000	1.4887716E+001	8.6157242E+001	-3.589963787004914E-007
2.3106258E+005	4.8214470E+001	5.0493759E-001	4.8217113E+001	-6.0002190E-001	2.018948850129527E+002	4.5027292E-001	5.2069768E-004	1.3641207E+000	1.4959801E-004	1.000000000000000E+000	11	1.0661383E-002	2.2111202E-004	0	3.795099100435648E-007	2.0738386E-002	2.1718774E-004	2.0739524E-002	6.0002190E-001	1.4959788E-001	1.4284515E+001	1.4285298E+001	-8.9399979E+001	0.0000000E+000	0.0000000E+000	0.0000000E+000	8.9399979E+001	0.0000000E+000	0.0000000E+000	0.0000000E+000	-8.9399979E+001	0.0000000E+000	0.0000000E+000	0.0000000E+000	-6.0002190E-001	0.0000000E+000	0.0000000E+000	0.0000000E+000	6.0002190E-001	9.5486000E+001	8.9399979E+001	8.431352243235167E-008
1.5707578E+005	4.5328579E+001	1.1814430E-001	4.5328732E+001	-1.4933525E-001	2.023178919663915E+002	4.5027715E-001	-1.2912580E-005	8.5762634E+000	5.8260815E-005	1.000000000000000E+000	11	1.0661832E-002	2.3521135E-004	0	2.417249640226752E-007	2.2060988E-002	5.7499710E-005	2.2061063E-002	1.4933525E-001	5.8261793E-002	2.2353001E+001	2.2353077E+001	-8.9850662E+001	0.0000000E+000	0.0000000E+000	0.0000000E+000	8.9850662E+001	0.0000000E+000	0.0000000E+000	0.0000000E+000	-8.9850662E+001	0.0000000E+000	0.0000000E+000	0.0000000E+000	-1.4933525E-001	0.0000000E+000	0.0000000E+000	0.0000000E+000	1.4933525E-001	3.8367130E+002	8.9850662E+001	-1.377849460208896E-007
1.0678630E+005	4.4170151E+001	1.1690474E-001	4.4170307E+001	-1.5164386E-001	2.027398841997638E+002	4.5028400E-001	2.6088688E-004	1.2748894E+001	8.9305024E-005	1.000000000000000E+000	11	1.0575549E-002	2.3942665E-004	0	1.966875089581461E-008	2.2639563E-002	5.9919927E-005	2.2639643E-002	1.5164386E-001	8.9303844E-002	3.3742146E+001	3.3742264E+001	-8.9848358E+001	0.0000000E+000	0.0000000E+000	0.0000000E+000	8.9848358E+001	0.0000000E+000	0.0000000E+000	0.0000000E+000	-8.9848358E+001	0.0000000E+000	0.0000000E+000	0.0000000E+000	-1.5164386E-001	0.0000000E+000	0.0000000E+000	0.0000000E+000	1.5164386E-001	3.7783029E+002	8.9848358E+001	-2.220562131268606E-007
7.2595008E+004	4.3651440E+001	1.0099260E-001	4.3651558E+001	-1.3256010E-001	2.031618716064986E+002	4.5028919E-001	2.9669711E-004	2.1708200E+001	1.1619928E-004	1.000000000000000E+000	11	1.0536451E-002	2.4137628E-004	0	-2.381859426241135E-007	2.2908628E-002	5.3001731E-005	2.2908689E-002	1.3256010E-001	1.1619984E-001	5.0224140E+001	5.0224274E+001	-8.9867439E+001	0.0000000E+000	0.0000000E+000	0.0000000E+000	8.9867439E+001	0.0000000E+000	0.0000000E+000	0.0000000E+000	-8.9867439E+001	0.0000000E+000	0.0000000E+000	0.0000000E+000	-1.3256010E-001	0.0000000E+000	0.0000000E+000	0.0000000E+000	1.3256010E-001	4.3222415E+002	8.9867439E+001	-2.578546935199281E-007
4.9352359E+004	4.3390415E+001	6.7725904E-002	4.3390469E+001	-8.9430012E-002	2.035838864265388E+002	4.5029122E-001	-1.7424561E-004	4.7616489E+001	1.1600543E-004	1.000000000000000E+000	11	1.0480225E-002	2.4153289E-004	0	-2.557669617607543E-007	2.3046508E-002	3.5972131E-005	2.3046536E-002	8.9430012E-002	1.1600771E-001	7.4321991E+001	7.4322083E+001	-8.9910568E+001	0.0000000E+000	0.0000000E+000	0.0000000E+000	8.9910568E+001	0.0000000E+000	0.0000000E+000	0.0000000E+000	-8.9910568E+001	0.0000000E+000	0.0000000E+000	0.0000000E+000	-8.9430012E-002	0.0000000E+000	0.0000000E+000	0.0000000E+000	8.9430012E-002	6.4067682E+002	8.9910568E+001	-1.758101913664075E-008
3.3551066E+004	4.3267929E+001	7.7089511E-002	4.3267998E+001	-1.0208251E-001	2.040058702865645E+002	4.5028466E-001	1.1316928E-004	6.1534477E+001	1.9533295E-004	1.000000000000000E+000	11	1.0470391E-002	2.4198927E-004	0	-3.941494333105058E-007	2.3111733E-002	4.1177664E-005	2.3111770E-002	1.0208251E-001	1.9533063E-001	1.0963427E+002	1.0963445E+002	-8.9897919E+001	0.0000000E+000	0.0000000E+000	0.0000000E+000	8.9897919E+001	0.0000000E+000	0.0000000E+000	0.0000000E+000	-8.9897919E+001	0.0000000E+000	0.0000000E+000	0.0000000E+000	-1.0208251E-001	0.0000000E+000	0.0000000E+000	0.0000000E+000	1.0208251E-001	5.6126868E+002	8.9897919E+001	-1.383824715497516E-007
2.2806563E+004	4.3187035E+001	9.8106094E-002	4.3187145E+001	-1.3015608E-001	2.044278817999439E+002	4.5029032E-001	1.0999871E-004	7.1131882E+001	3.6706866E-004	1.000000000000000E+000	11	1.0374483E-002	2.4022155E-004	0	-2.686968088835582E-007	2.3154980E-002	5.2600150E-005	2.3155039E-002	1.3015608E-001	3.6707252E-001	1.6158635E+002	1.6158676E+002	-8.9869843E+001	0.0000000E+000	0.0000000E+000	0.0000000E+000	8.9869843E+001	0.0000000E+000	0.0000000E+000	0.0000000E+000	-8.9869843E+001	0.0000000E+000	0.0000000E+000	0.0000000E+000	-1.3015608E-001	0.0000000E+000	0.0000000E+000	0.0000000E+000	1.3015608E-001	4.4020746E+002	8.9869843E+001	1.254526244269477E-007
1.5504379E+004	4.3167953E+001	5.5346128E-002	4.3167988E+001	-7.3459536E-002	2.048508912600373E+002	4.5028964E-001	-3.2158982E-004	1.8547208E+002	3.0488032E-004	1.000000000000000E+000	11	1.0306127E-002	2.3874469E-004	0	1.717382436480774E-007	2.3165295E-002	2.9700490E-005	2.3165314E-002	7.3459536E-002	3.0486485E-001	2.3779547E+002	2.3779567E+002	-8.9926544E+001	0.0000000E+000	0.0000000E+000	0.0000000E+000	8.9926544E+001	0.0000000E+000	0.0000000E+000	0.0000000E+000	-8.9926544E+001	0.0000000E+000	0.0000000E+000	0.0000000E+000	-7.3459536E-002	0.0000000E+000	0.0000000E+000	0.0000000E+000	7.3459536E-002	7.7996338E+002	8.9926544E+001	4.404350525316356E-007
1.0540381E+004	4.3130737E+001	1.1834030E-001	4.3130901E+001	-1.5720534E-001	2.052728831200657E+002	4.5029327E-001	1.0981209E-004	1.2759428E+002	9.6054882E-004	1.000000000000000E+000	11	1.0192875E-002	2.3632418E-004	0	1.714914739770595E-007	2.3185145E-002	6.3614425E-005	2.3185233E-002	1.5720534E-001	9.6053863E-001	3.5008514E+002	3.5008646E+002	-8.9842796E+001	0.0000000E+000	0.0000000E+000	0.0000000E+000	8.9842796E+001	0.0000000E+000	0.0000000E+000	0.0000000E+000	-8.9842796E+001	0.0000000E+000	0.0000000E+000	0.0000000E+000	-1.5720534E-001	0.0000000E+000	0.0000000E+000	0.0000000E+000	1.5720534E-001	3.6446365E+002	8.9842796E+001	-2.467696710179106E-010
7.1637817E+003	4.3120358E+001	1.3078368E-001	4.3120556E+001	-1.7377709E-001	2.057964699982986E+002	4.5027849E-001	-4.9765722E-004	1.6987296E+002	1.5626533E-003	1.000000000000000E+000	11	1.0046158E-002	2.3297839E-004	0	2.726137386723874E-007	2.3190690E-002	7.0337170E-005	2.3190796E-002	1.7377709E-001	1.5626320E+000	5.1521844E+002	5.1522083E+002	-8.9826225E+001	0.0000000E+000	0.0000000E+000	0.0000000E+000	8.9826225E+001	0.0000000E+000	0.0000000E+000	0.0000000E+000	-8.9826225E+001	0.0000000E+000	0.0000000E+000	0.0000000E+000	-1.7377709E-001	0.0000000E+000	0.0000000E+000	0.0000000E+000	1.7377709E-001	3.2970749E+002	8.9826225E+001	1.011222646953279E-007
4.8715591E+003	4.3111988E+001	1.9501652E-001	4.3112431E+001	-2.5917494E-001	2.062641031672101E+002	4.5029753E-001	3.5600789E-004	1.6752544E+002	3.4278242E-003	1.000000000000000E+000	11	1.0483923E-002	2.4317636E-004	0	3.135938912754581E-007	2.3194930E-002	1.0492196E-004	2.3195166E-002	2.5917494E-001	3.4278667E+000	7.5778357E+002	7.5779132E+002	-8.9740822E+001	0.0000000E+000	0.0000000E+000	0.0000000E+000	8.9740822E+001	0.0000000E+000	0.0000000E+000	0.0000000E+000	-8.9740822E+001	0.0000000E+000	0.0000000E+000	0.0000000E+000	-2.5917494E-001	0.0000000E+000	0.0000000E+000	0.0000000E+000	2.5917494E-001	2.2106839E+002	8.9740822E+001	4.098015260307069E-008
3.3110596E+003	4.3149326E+001	2.7688944E-001	4.3150215E+001	-3.6766225E-001	2.067290991092959E+002	4.5029911E-001	3.0415726E-004	1.7359882E+002	7.1481494E-003	1.000000000000000E+000	11	1.0712372E-002	2.4825768E-004	0	5.543205007407879E-007	2.3174379E-002	1.4871010E-004	2.3174856E-002	3.6766225E-001	7.1481161E+000	1.1139386E+003	1.1139615E+003	-8.9632339E+001	0.0000000E+000	0.0000000E+000	0.0000000E+000	8.9632339E+001	0.0000000E+000	0.0000000E+000	0.0000000E+000	-8.9632339E+001	0.0000000E+000	0.0000000E+000	0.0000000E+000	-3.6766225E-001	0.0000000E+000	0.0000000E+000	0.0000000E+000	3.6766225E-001	1.5583594E+002	8.9632339E+001	2.407266094653298E-007
2.2507205E+003	4.3146244E+001	3.5736588E-001	4.3147724E+001	-4.7455087E-001	2.071951012380960E+002	4.5029804E-001	2.1220733E-004	1.9787253E+002	1.3573626E-002	1.000000000000000E+000	11	1.0816326E-002	2.5068127E-004	0	5.188933962902714E-007	2.3175398E-002	1.9195405E-004	2.3176193E-002	4.7455087E-001	1.3573554E+001	1.6387996E+003	1.6388557E+003	-8.9525452E+001	0.0000000E+000	0.0000000E+000	0.0000000E+000	8.9525452E+001	0.0000000E+000	0.0000000E+000	0.0000000E+000	-8.9525452E+001	0.0000000E+000	0.0000000E+000	0.0000000E+000	-4.7455087E-001	0.0000000E+000	0.0000000E+000	0.0000000E+000	4.7455087E-001	1.2073409E+002	8.9525452E+001	-3.542710445051647E-008
1.5304901E+003	4.3181343E+001	5.1222736E-001	4.3184380E+001	-6.7962432E-001	2.076610672068928E+002	4.5029864E-001	1.3051518E-004	2.0301439E+002	2.8562685E-002	1.000000000000000E+000	11	1.0866147E-002	2.5162214E-004	0	4.538184680026865E-007	2.3154892E-002	2.7466886E-004	2.3156522E-002	6.7962432E-001	2.8562773E+001	2.4078662E+003	2.4080356E+003	-8.9320374E+001	0.0000000E+000	0.0000000E+000	0.0000000E+000	8.9320374E+001	0.0000000E+000	0.0000000E+000	0.0000000E+000	-8.9320374E+001	0.0000000E+000	0.0000000E+000	0.0000000E+000	-6.7962432E-001	0.0000000E+000	0.0000000E+000	0.0000000E+000	6.7962432E-001	8.4301125E+001	8.9320374E+001	-6.507492828758486E-008
1.0403328E+003	4.3234707E+001	7.0138913E-001	4.3240395E+001	-9.2941797E-001	2.081261011756505E+002	4.5029345E-001	5.2366653E-005	2.1811665E+002	5.7388861E-002	1.000000000000000E+000	11	1.0895653E-002	2.5197858E-004	0	4.323363569686383E-007	2.3123482E-002	3.7512823E-004	2.3126524E-002	9.2941797E-001	5.7389015E+001	3.5375376E+003	3.5380032E+003	-8.9070580E+001	0.0000000E+000	0.0000000E+000	0.0000000E+000	8.9070580E+001	0.0000000E+000	0.0000000E+000	0.0000000E+000	-8.9070580E+001	0.0000000E+000	0.0000000E+000	0.0000000E+000	-9.2941797E-001	0.0000000E+000	0.0000000E+000	0.0000000E+000	9.2941797E-001	6.1641541E+001	8.9070580E+001	-2.148211103404822E-008
7.0703625E+002	4.3260925E+001	9.6971089E-001	4.3271793E+001	-1.2840927E+000	2.085905490109726E+002	4.5029446E-001	-6.3270811E-005	2.3213261E+002	1.1657648E-001	1.000000000000000E+000	11	1.0903233E-002	2.5197089E-004	0	3.754354975842741E-007	2.3103939E-002	5.1788398E-004	2.3109743E-002	1.2840927E+000	1.1657675E+002	5.2007319E+003	5.2020381E+003	-8.8715904E+001	0.0000000E+000	0.0000000E+000	0.0000000E+000	8.8715904E+001	0.0000000E+000	0.0000000E+000	0.0000000E+000	-8.8715904E+001	0.0000000E+000	0.0000000E+000	0.0000000E+000	-1.2840927E+000	0.0000000E+000	0.0000000E+000	0.0000000E+000	1.2840927E+000	4.4612190E+001	8.8715904E+001	-5.690085938436421E-008
4.8076920E+002	4.3309952E+001	1.4130218E+000	4.3332996E+001	-1.8686578E+000	2.090558242331172E+002	4.5029911E-001	-5.3945347E-005	2.3427968E+002	2.4911216E-001	1.000000000000000E+000	11	1.0907753E-002	2.5171935E-004	0	3.780727582812283E-007	2.3064829E-002	7.5250852E-004	2.3077102E-002	1.8686578E+000	2.4911244E+002	7.6354346E+003	7.6394971E+003	-8.8131340E+001	0.0000000E+000	0.0000000E+000	0.0000000E+000	8.8131340E+001	0.0000000E+000	0.0000000E+000	0.0000000E+000	-8.8131340E+001	0.0000000E+000	0.0000000E+000	0.0000000E+000	-1.8686578E+000	0.0000000E+000	0.0000000E+000	0.0000000E+000	1.8686578E+000	3.0650589E+001	8.8131340E+001	2.637260696954210E-009
3.2677771E+002	4.3377502E+001	1.9949689E+000	4.3423355E+001	-2.6332269E+000	2.095190745484797E+002	4.5029545E-001	9.2821410E-006	2.4413588E+002	5.1529640E-001	1.000000000000000E+000	11	1.0909204E-002	2.5122895E-004	0	2.591836949100576E-007	2.3004765E-002	1.0580090E-003	2.3029082E-002	2.6332269E+000	5.1529590E+002	1.1204320E+004	1.1216163E+004	-8.7366776E+001	0.0000000E+000	0.0000000E+000	0.0000000E+000	8.7366776E+001	0.0000000E+000	0.0000000E+000	0.0000000E+000	-8.7366776E+001	0.0000000E+000	0.0000000E+000	0.0000000E+000	-2.6332269E+000	0.0000000E+000	0.0000000E+000	0.0000000E+000	2.6332269E+000	2.1743448E+001	8.7366776E+001	-1.188890633711708E-007
2.2206076E+002	4.3478348E+001	2.8115396E+000	4.3569157E+001	-3.6998963E+000	2.099802828370448E+002	4.5029640E-001	9.0974376E-005	2.5492010E+002	1.0615348E+000	1.000000000000000E+000	11	1.0912560E-002	2.5046527E-004	0	4.986408049145313E-007	2.2904178E-002	1.4811051E-003	2.2952016E-002	3.6998963E+000	1.0615352E+003	1.6415836E+004	1.6450123E+004	-8.6300102E+001	0.0000000E+000	0.0000000E+000	0.0000000E+000	8.6300102E+001	0.0000000E+000	0.0000000E+000	0.0000000E+000	-8.6300102E+001	0.0000000E+000	0.0000000E+000	0.0000000E+000	-3.6998963E+000	0.0000000E+000	0.0000000E+000	0.0000000E+000	3.6998963E+000	1.5464249E+001	8.6300102E+001	2.394571100044737E-007
1.5101485E+002	4.3601974E+001	4.0434756E+000	4.3789063E+001	-5.2982316E+000	2.104418252589094E+002	4.5030087E-001	1.9187736E-004	2.6064276E+002	2.2224092E+000	1.000000000000000E+000	11	1.0916715E-002	2.4930233E-004	0	3.941691751521527E-007	2.2739183E-002	2.1087425E-003	2.2836752E-002	5.2982316E+000	2.2224099E+003	2.3964887E+004	2.4067715E+004	-8.4701767E+001	0.0000000E+000	0.0000000E+000	0.0000000E+000	8.4701767E+001	0.0000000E+000	0.0000000E+000	0.0000000E+000	-8.4701767E+001	0.0000000E+000	0.0000000E+000	0.0000000E+000	-5.2982316E+000	0.0000000E+000	0.0000000E+000	0.0000000E+000	5.2982316E+000	1.0783291E+001	8.4701767E+001	-1.044716297623786E-007
1.0266736E+002	4.3751816E+001	5.7791281E+000	4.4131844E+001	-7.5245752E+000	2.109166874681396E+002	4.5030764E-001	2.3552113E-004	2.6824115E+002	4.5998735E+000	1.000000000000000E+000	11	1.0917818E-002	2.4739094E-004	0	2.784656201426212E-007	2.2464249E-002	2.9672775E-003	2.2659374E-002	7.5245752E+000	4.5998735E+003	3.4824086E+004	3.5126566E+004	-8.2475426E+001	0.0000000E+000	0.0000000E+000	0.0000000E+000	8.2475426E+001	0.0000000E+000	0.0000000E+000	0.0000000E+000	-8.2475426E+001	0.0000000E+000	0.0000000E+000	0.0000000E+000	-7.5245752E+000	0.0000000E+000	0.0000000E+000	0.0000000E+000	7.5245752E+000	7.5706606E+000	8.2475426E+001	-1.157035550095315E-007
6.9754463E+001	4.3935177E+001	8.3428526E+000	4.4720276E+001	-1.0751885E+001	2.113838559703581E+002	4.5030615E-001	9.3399038E-005	2.7348505E+002	9.5181770E+000	1.000000000000000E+000	11	1.0917473E-002	2.4412802E-004	0	2.828239084572286E-007	2.1968653E-002	4.1716280E-003	2.2361221E-002	1.0751885E+001	9.5181758E+003	5.0124680E+004	5.1020379E+004	-7.9248116E+001	0.0000000E+000	0.0000000E+000	0.0000000E+000	7.9248116E+001	0.0000000E+000	0.0000000E+000	0.0000000E+000	-7.9248116E+001	0.0000000E+000	0.0000000E+000	0.0000000E+000	-1.0751885E+001	0.0000000E+000	0.0000000E+000	0.0000000E+000	1.0751885E+001	5.2662058E+000	7.9248116E+001	4.358288314607417E-009
4.7444328E+001	4.4194016E+001	1.2052706E+001	4.5808064E+001	-1.5254869E+001	2.118278546847432E+002	4.5028868E-001	-5.3758718E-005	2.7832440E+002	1.9267996E+001	1.000000000000000E+000	11	1.0917514E-002	2.3833170E-004	0	1.220809938491180E-007	2.1061029E-002	5.7438184E-003	2.1830218E-002	1.5254869E+001	1.9267994E+004	7.0650531E+004	7.3230820E+004	-7.4745132E+001	0.0000000E+000	0.0000000E+000	0.0000000E+000	7.4745132E+001	0.0000000E+000	0.0000000E+000	0.0000000E+000	-7.4745132E+001	0.0000000E+000	0.0000000E+000	0.0000000E+000	-1.5254869E+001	0.0000000E+000	0.0000000E+000	0.0000000E+000	1.5254869E+001	3.6667299E+000	7.4745132E+001	-1.607429146081106E-007
3.2238655E+001	4.4569122E+001	1.7399929E+001	4.7845211E+001	-2.1325832E+001	2.122642331588577E+002	4.5028263E-001	-1.6473360E-004	2.8372375E+002	3.7524399E+001	1.000000000000000E+000	11	1.0918281E-002	2.2820008E-004	0	6.182890456451180E-008	1.9469606E-002	7.6009962E-003	2.0900734E-002	2.1325832E+001	3.7524406E+004	9.6117039E+004	1.0318220E+005	-6.8674164E+001	0.0000000E+000	0.0000000E+000	0.0000000E+000	6.8674164E+001	0.0000000E+000	0.0000000E+000	0.0000000E+000	-6.8674164E+001	0.0000000E+000	0.0000000E+000	0.0000000E+000	-2.1325832E+001	0.0000000E+000	0.0000000E+000	0.0000000E+000	2.1325832E+001	2.5614543E+000	6.8674164E+001	-6.025208928460619E-008
